(1675216799.044752) can0 2C4#038B00190880211E
(1675216799.045118) can0 260#0E00000000000078
(1675216799.046995) can0 020#000007
(1675216799.046999) can0 0B4#00000000000000BC
(1675216799.047815) can0 024#020301FB620A8019
(1675216799.047818) can0 025#00160FC37878787D
(1675216799.053086) can0 0B0#00000000110C
(1675216799.053090) can0 0B2#00000000110C
(1675216799.053310) can0 224#0000000000000008
(1675216799.053504) can0 235#00000000003D
(1675216799.057994) can0 2D0#069F090010000098
(1675216799.059069) can0 020#000007
(1675216799.059073) can0 0B4#00000000000000BC
(1675216799.059633) can0 025#00160FC37878787D
(1675216799.059906) can0 024#020301FA620A8018
(1675216799.065101) can0 0B0#00000000110D
(1675216799.065104) can0 0B2#00000000110D
(1675216799.066016) can0 223#000000000000002D
(1675216799.066018) can0 260#0E00000000000078
(1675216799.068471) can0 2C1#080168006CCB0073
(1675216799.068474) can0 2C4#038A00190880211D
(1675216799.070963) can0 020#000007
(1675216799.071257) can0 0B4#00000000000000BC
(1675216799.071259) can0 620#1000022CF0402040
(1675216799.071589) can0 025#00160FC37878787D
(1675216799.072274) can0 024#020301F9620A8017
(1675216799.074828) can0 3A0#005300000000001E
(1675216799.076146) can0 440#4202000001000000
(1675216799.077470) can0 0B0#00000000110E
(1675216799.077476) can0 0B2#00000000110E
(1675216799.077480) can0 224#0000000000000008
(1675216799.077678) can0 235#00000000003D
(1675216799.083164) can0 020#000007
(1675216799.083168) can0 0B4#00000000000000BC
(1675216799.083602) can0 024#020301FA620B8019
(1675216799.083609) can0 025#00160FC37878787D
(1675216799.085361) can0 260#0E00000000000078
(1675216799.085364) can0 351#00000000
(1675216799.089224) can0 0B0#00000000110F
(1675216799.089229) can0 0B2#00000000110F
(1675216799.090069) can0 223#000000000000002D
(1675216799.090075) can0 2D0#06A109001000009A
(1675216799.092073) can0 2C4#038B00190880211E
(1675216799.095563) can0 020#000007
(1675216799.095638) can0 0B4#00000000000000BC
(1675216799.095998) can0 025#00160FC37878787D
(1675216799.096763) can0 024#020301FB620A8019
(1675216799.100666) can0 2C1#08017C006FCB008A
(1675216799.101221) can0 0B0#000000001100
(1675216799.101223) can0 0B2#000000001100
(1675216799.101587) can0 224#0000000000000008
(1675216799.101590) can0 235#00000000003D
(1675216799.101900) can0 4DC#1D00030200000000
(1675216799.104410) can0 394#00
(1675216799.105775) can0 260#0E00000000000078
(1675216799.107518) can0 020#000007
(1675216799.107522) can0 0B4#00000000000000BC
(1675216799.107524) can0 025#00160FC37878787D
(1675216799.108115) can0 024#020301FB620A8019
(1675216799.111990) can0 38C#0000000000000037
(1675216799.113263) can0 0B0#000000001101
(1675216799.113266) can0 0B2#000000001101
(1675216799.113574) can0 223#000000000000002D
(1675216799.115593) can0 2C4#038800190880211B
(1675216799.119179) can0 020#000007
(1675216799.119217) can0 0B4#00000000000000BC
(1675216799.119644) can0 025#00160FC37878787D
(1675216799.120272) can0 024#020301FA620A8018
(1675216799.121476) can0 2D0#06A309001000009C
(1675216799.125903) can0 260#0E00000000000078
(1675216799.125949) can0 0B0#000000001102
(1675216799.125951) can0 0B2#000000001102
(1675216799.125952) can0 224#0000000000000008
(1675216799.125953) can0 235#00000000003D
(1675216799.126352) can0 3B7#0000800000000000
(1675216799.131596) can0 020#000007
(1675216799.131600) can0 0B4#00000000000000BC
(1675216799.131978) can0 2C1#0801750073CB0087
(1675216799.131983) can0 024#020301FA620B8019
(1675216799.132887) can0 025#00160FC37878787D
(1675216799.137549) can0 0B0#000000001103
(1675216799.137554) can0 0B2#000000001103
(1675216799.137556) can0 223#000000000000002D
(1675216799.139030) can0 2C4#038A00190880211D
(1675216799.141748) can0 3B0#0000002A0000
(1675216799.143749) can0 020#000007
(1675216799.143756) can0 0B4#00000000000000BC
(1675216799.143759) can0 025#00160FC37878787D
(1675216799.144076) can0 024#020301FA620B8019
(1675216799.144352) can0 4C3#0300120100000000
(1675216799.145261) can0 260#0E00000000000078
(1675216799.145266) can0 351#00000000
(1675216799.149750) can0 0B0#000000001104
(1675216799.149757) can0 0B2#000000001104
(1675216799.149759) can0 224#0000000000000008
(1675216799.149950) can0 235#00000000003D
(1675216799.153721) can0 2D0#06A309001000009C
(1675216799.155579) can0 020#000007
(1675216799.155583) can0 0B4#00000000000000BC
(1675216799.155873) can0 025#00160FC37878787D
(1675216799.156206) can0 024#020301FB620B801A
(1675216799.161570) can0 0B0#000000001105
(1675216799.161574) can0 0B2#000000001105
(1675216799.161950) can0 223#000000000000002D
(1675216799.162342) can0 2C4#038A00190880211D
(1675216799.163561) can0 2C1#0801730074CB0086
(1675216799.165596) can0 260#0E00000000000078
(1675216799.167656) can0 442#4002000000000000
(1675216799.167660) can0 020#000007
(1675216799.167661) can0 0B4#00000000000000BC
(1675216799.167917) can0 025#00160FC37878787D
(1675216799.168468) can0 024#020301FB620B801A
(1675216799.171933) can0 3A0#005300000000001E
(1675216799.173913) can0 0B0#000000001106
(1675216799.173917) can0 0B2#000000001106
(1675216799.174217) can0 224#0000000000000008
(1675216799.174995) can0 235#00000000003D
(1675216799.179947) can0 020#000007
(1675216799.179950) can0 0B4#00000000000000BC
(1675216799.180378) can0 025#00160FC37878787D
(1675216799.180711) can0 024#020301FA620B8019
(1675216799.185008) can0 2D0#06A309001000009C
(1675216799.185302) can0 260#0E00000000000078
(1675216799.185580) can0 0B0#000000001107
(1675216799.185589) can0 0B2#000000001107
(1675216799.185941) can0 223#000000000000002D
(1675216799.186170) can0 2C4#0386001908802119
(1675216799.191971) can0 020#000007
(1675216799.191977) can0 0B4#00000000000000BC
(1675216799.191979) can0 025#00160FC37878787D
(1675216799.192264) can0 024#020301FA620B8019
(1675216799.195244) can0 2C1#0801740072CB0085
(1675216799.198167) can0 0B0#000000001108
(1675216799.198173) can0 0B2#000000001108
(1675216799.198175) can0 224#0000000000000008
(1675216799.198177) can0 235#00000000003D
(1675216799.201698) can0 380#200808100000FD00
(1675216799.203633) can0 020#000007
(1675216799.203687) can0 0B4#00000000000000BC
(1675216799.204008) can0 025#00160FC37878787D
(1675216799.204234) can0 024#020301FA620B8019
(1675216799.205495) can0 260#0E00000000000078
(1675216799.206011) can0 351#00000000
(1675216799.209992) can0 2C4#0385001908802118
(1675216799.209995) can0 0B0#000000001109
(1675216799.209997) can0 0B2#000000001109
(1675216799.209998) can0 223#000000000000002D
(1675216799.215916) can0 020#000007
(1675216799.215924) can0 0B4#00000000000000BC
(1675216799.215925) can0 025#00160FC37878787D
(1675216799.216657) can0 024#020301FC620B801B
(1675216799.216660) can0 2D0#06A409001000009D
(1675216799.222013) can0 0B0#00000000110A
(1675216799.222018) can0 0B2#00000000110A
(1675216799.222021) can0 224#0000000000000008
(1675216799.222304) can0 235#00000000003D
(1675216799.225500) can0 260#0E00000000000078
(1675216799.227744) can0 2C1#0801770079CB008F
(1675216799.227748) can0 020#000007
(1675216799.227750) can0 0B4#00000000000000BC
(1675216799.228042) can0 025#00160FC37878787D
(1675216799.228976) can0 024#020301FB620A8019
(1675216799.232259) can0 3A1#0000000000FF0000
(1675216799.233220) can0 2C4#038700190880211A
(1675216799.233968) can0 0B0#00000000110B
(1675216799.233972) can0 0B2#00000000110B
(1675216799.234208) can0 223#000000000000002D
(1675216799.239982) can0 020#000007
(1675216799.239985) can0 0B4#00000000000000BC
(1675216799.239987) can0 025#00160FC37878787D
(1675216799.240322) can0 024#020301FA620B8019
(1675216799.245584) can0 260#0E00000000000078
(1675216799.245590) can0 0B0#00000000110C
(1675216799.246147) can0 0B2#00000000110C
(1675216799.246151) can0 224#0000000000000008
(1675216799.246282) can0 235#00000000003D
(1675216799.249003) can0 2D0#06A209001000009B
(1675216799.252145) can0 020#000007
(1675216799.252152) can0 0B4#00000000000000BC
(1675216799.252154) can0 025#00160FC37878787D
(1675216799.252441) can0 024#020301FA620B8019
(1675216799.256760) can0 2C4#0385001908802118
(1675216799.258142) can0 0B0#00000000110D
(1675216799.258146) can0 0B2#00000000110D
(1675216799.258148) can0 223#000000000000002D
(1675216799.258590) can0 2C1#08017B0075CB008F
(1675216799.264446) can0 020#000007
(1675216799.264454) can0 0B4#00000000000000BC
(1675216799.264456) can0 025#00160FC37878787D
(1675216799.264802) can0 024#020301FA620B8019
(1675216799.265584) can0 260#0E00000000000078
(1675216799.266147) can0 351#00000000
(1675216799.266150) can0 440#4202000001000000
(1675216799.270381) can0 0B0#00000000110E
(1675216799.270389) can0 0B2#00000000110E
(1675216799.270392) can0 224#0000000000000008
(1675216799.271546) can0 235#00000000003D
(1675216799.271550) can0 3A0#005300000000001E
(1675216799.276437) can0 020#000007
(1675216799.276442) can0 0B4#00000000000000BC
(1675216799.276444) can0 025#00160FC37878787D
(1675216799.276446) can0 622#1200E83000000000
(1675216799.277148) can0 024#020301FB620A8019
(1675216799.280584) can0 2D0#069F090010000098
(1675216799.282514) can0 2C4#0386001908802119
(1675216799.282519) can0 0B0#00000000110F
(1675216799.282521) can0 0B2#00000000110F
(1675216799.282523) can0 223#000000000000002D
(1675216799.286097) can0 260#0E00000000000078
(1675216799.287982) can0 020#000007
(1675216799.287986) can0 0B4#00000000000000BC
(1675216799.288398) can0 024#020301FA620A8018
(1675216799.288948) can0 025#00160FC38282829B
(1675216799.290580) can0 2C1#08017B0078CB0092
(1675216799.294195) can0 0B0#000000001100
(1675216799.294199) can0 0B2#000000001100
(1675216799.294201) can0 224#0000000000000008
(1675216799.294446) can0 235#00000000003D
(1675216799.300047) can0 020#000007
(1675216799.300052) can0 0B4#00000000000000BC
(1675216799.300777) can0 024#020301FA620B8019
(1675216799.300780) can0 025#00160FC37878787D
(1675216799.303908) can0 2C4#0384001908802117
(1675216799.305352) can0 260#0E00000000000078
(1675216799.306094) can0 0B0#000000001101
(1675216799.306098) can0 0B2#000000001101
(1675216799.306415) can0 223#000000000000002D
(1675216799.312291) can0 2D0#069E090010000097
(1675216799.312295) can0 020#000007
(1675216799.312297) can0 0B4#00000000000000BC
(1675216799.312977) can0 025#00160FC37878787D
(1675216799.312981) can0 024#020301FA620B8019
(1675216799.318430) can0 0B0#000000001102
(1675216799.318435) can0 0B2#000000001102
(1675216799.318437) can0 224#0000000000000008
(1675216799.318866) can0 235#00000000003D
(1675216799.322516) can0 2C1#0801760080CB0095
(1675216799.324209) can0 020#000007
(1675216799.324220) can0 0B4#00000000000000BC
(1675216799.324774) can0 025#00160FC37878787D
(1675216799.325238) can0 024#020301FA620A8018
(1675216799.325241) can0 260#0E00000000000078
(1675216799.326223) can0 351#00000000
(1675216799.327805) can0 2C4#038900190880211C
(1675216799.330292) can0 0B0#000000001103
(1675216799.330295) can0 0B2#000000001103
(1675216799.331673) can0 223#000000000000002D
(1675216799.336393) can0 020#000007
(1675216799.336397) can0 0B4#00000000000000BC
(1675216799.337012) can0 024#020301FA620A8018
(1675216799.337016) can0 025#00160FC37878787D
(1675216799.342369) can0 0B0#000000001104
(1675216799.342374) can0 0B2#000000001104
(1675216799.342627) can0 224#0000000000000008
(1675216799.342629) can0 235#00000000003D
(1675216799.343982) can0 2D0#069C090010000095
(1675216799.345618) can0 260#0E00000000000078
(1675216799.348759) can0 020#000007
(1675216799.348763) can0 0B4#00000000000000BC
(1675216799.348765) can0 024#020301F9620A8017
(1675216799.348971) can0 025#00160FC37878787D
(1675216799.351084) can0 2C4#038800190880211B
(1675216799.354267) can0 2C1#08016E0078CB0085
(1675216799.354271) can0 3B3#038828
(1675216799.354273) can0 0B0#000000001105
(1675216799.354677) can0 0B2#000000001105
(1675216799.355234) can0 223#000000000000002D
(1675216799.357339) can0 442#4002000000000000
(1675216799.360788) can0 020#000007
(1675216799.360796) can0 0B4#00000000000000BC
(1675216799.360798) can0 025#00160FC37878787D
(1675216799.360800) can0 024#020301F9620A8017
(1675216799.365780) can0 260#0E00000000000078
(1675216799.366317) can0 0B0#000000001106
(1675216799.366321) can0 0B2#000000001106
(1675216799.366882) can0 224#0000000000000008
(1675216799.366887) can0 235#00000000003D
(1675216799.371527) can0 620#1000022DF0402040
(1675216799.371531) can0 3A0#005300000000001E
(1675216799.372379) can0 020#000007
(1675216799.372384) can0 0B4#00000000000000BC
(1675216799.372684) can0 025#00160FC37878787D
(1675216799.373229) can0 024#020301F9620A8017
(1675216799.374470) can0 2C4#038900190880211C
(1675216799.375400) can0 2D0#069C090010000095
(1675216799.378613) can0 0B0#000000001107
(1675216799.378619) can0 0B2#000000001107
(1675216799.378623) can0 223#000000000000002D
(1675216799.378969) can0 38A#0800040000
(1675216799.384438) can0 020#000007
(1675216799.384445) can0 0B4#00000000000000BC
(1675216799.384948) can0 024#020301FB620A8019
(1675216799.384953) can0 025#00160FC37878787D
(1675216799.385357) can0 260#0E00000000000078
(1675216799.385360) can0 351#00000000
(1675216799.385766) can0 2C1#0801670077CB007D
(1675216799.390470) can0 0B0#000000001108
(1675216799.390475) can0 0B2#000000001108
(1675216799.390831) can0 224#0000000000000008
(1675216799.390834) can0 235#00000000003D
(1675216799.396585) can0 020#000007
(1675216799.396589) can0 0B4#00000000000000BC
(1675216799.396591) can0 025#00160FC37878787D
(1675216799.397197) can0 024#020301FA620A8018
(1675216799.397203) can0 610#20000064C0FFFEE0
(1675216799.397887) can0 2C4#038900190880211C
(1675216799.402840) can0 0B0#000000001109
(1675216799.402845) can0 0B2#000000001109
(1675216799.402847) can0 223#000000000000002D
(1675216799.404617) can0 394#00
(1675216799.405352) can0 260#0E00000000000078
(1675216799.407709) can0 2D0#069D090010000096
(1675216799.408620) can0 020#000007
(1675216799.408625) can0 0B4#00000000000000BC
(1675216799.408626) can0 025#00160FC37878787D
(1675216799.408962) can0 024#020301F9620A8017
(1675216799.415037) can0 0B0#00000000110A
(1675216799.415361) can0 0B2#00000000110A
(1675216799.416042) can0 224#0000000000000008
(1675216799.416045) can0 235#00000000003D
(1675216799.417782) can0 3B4#00009AB080000000
(1675216799.417786) can0 2C1#08016F0075CB0083
(1675216799.420905) can0 020#000007
(1675216799.420911) can0 0B4#00000000000000BC
(1675216799.420914) can0 025#00160FC37878787D
(1675216799.421545) can0 024#020301F9620A8017
(1675216799.421549) can0 2C4#038B00190880211E
(1675216799.425568) can0 260#0E00000000000078
(1675216799.426688) can0 0B0#00000000110B
(1675216799.426692) can0 0B2#00000000110B
(1675216799.427098) can0 223#000000000000002D
(1675216799.427102) can0 3B7#0000800000000000
(1675216799.433046) can0 020#000007
(1675216799.433051) can0 0B4#00000000000000BC
(1675216799.433053) can0 025#00160FC37878787D
(1675216799.433663) can0 024#020301F9620A8017
(1675216799.438890) can0 0B0#00000000110C
(1675216799.438894) can0 0B2#00000000110C
(1675216799.438895) can0 224#0000000000000008
(1675216799.439775) can0 235#00000000003D
(1675216799.439779) can0 2D0#069D090010000096
(1675216799.445001) can0 020#000007
(1675216799.445007) can0 0B4#00000000000000BC
(1675216799.445635) can0 024#020301FA620A8018
(1675216799.445640) can0 025#00160FC37878787D
(1675216799.445642) can0 260#0E00000000000078
(1675216799.446061) can0 2C4#038900190880211C
(1675216799.446064) can0 351#00000000
(1675216799.449573) can0 2C1#080177007ECB0094
(1675216799.450970) can0 0B0#00000000110D
(1675216799.450974) can0 0B2#00000000110D
(1675216799.450976) can0 223#000000000000002D
(1675216799.456358) can0 440#4202000001000000
(1675216799.456784) can0 020#000007
(1675216799.456789) can0 0B4#00000000000000BC
(1675216799.457191) can0 025#00160FC37878787D
(1675216799.457515) can0 024#020301FA620A8018
(1675216799.462857) can0 0B0#00000000110E
(1675216799.462863) can0 0B2#00000000110E
(1675216799.463296) can0 224#0000000000000008
(1675216799.463299) can0 235#00000000003D
(1675216799.465564) can0 260#0E00000000000078
(1675216799.469192) can0 2C4#038B00190880211E
(1675216799.469198) can0 020#000007
(1675216799.469201) can0 0B4#00000000000000BC
(1675216799.469204) can0 025#00160FC37878787D
(1675216799.469535) can0 024#020301FA620B8019
(1675216799.470846) can0 2D0#069F090010000098
(1675216799.471582) can0 3A0#005300000000001E
(1675216799.474950) can0 0B0#00000000110F
(1675216799.474954) can0 0B2#00000000110F
(1675216799.475216) can0 223#000000000000002D
(1675216799.481241) can0 020#000007
(1675216799.481248) can0 0B4#00000000000000BC
(1675216799.481250) can0 025#00160FC37878787D
(1675216799.481714) can0 2C1#080174007FCB0092
(1675216799.481717) can0 024#020301FA620A8018
(1675216799.485635) can0 260#0E00000000000078
(1675216799.487115) can0 0B0#000000001100
(1675216799.487121) can0 0B2#000000001100
(1675216799.487123) can0 224#0000000000000008
(1675216799.487463) can0 235#00000000003D
(1675216799.492162) can0 2C4#038C00190880211F
(1675216799.492785) can0 020#000007
(1675216799.492795) can0 0B4#00000000000000BC
(1675216799.493039) can0 024#020301FA620A8018
(1675216799.493564) can0 025#00160FC37878787D
(1675216799.498872) can0 0B0#000000001101
(1675216799.498877) can0 0B2#000000001101
(1675216799.499352) can0 223#000000000000002D
(1675216799.502725) can0 2D0#06A209001000009B
(1675216799.505223) can0 020#000007
(1675216799.505230) can0 0B4#00000000000000BC
(1675216799.505234) can0 025#00160FC37878787D
(1675216799.505437) can0 024#020301FA620A8018
(1675216799.506112) can0 260#0E00000000000078
(1675216799.506115) can0 351#00000000
(1675216799.511640) can0 0B0#000000001102
(1675216799.512727) can0 0B2#000000001102
(1675216799.512731) can0 224#0000000000000008
(1675216799.512732) can0 235#00000000003D
(1675216799.515090) can0 2C1#08017F007FCB009D
(1675216799.515686) can0 2C4#038800190880211B
(1675216799.517204) can0 020#000007
(1675216799.517209) can0 0B4#00000000000000BC
(1675216799.517212) can0 025#00160FC37878787D
(1675216799.517717) can0 024#020301F9620B8018
(1675216799.523312) can0 0B0#000000001103
(1675216799.523318) can0 0B2#000000001103
(1675216799.523320) can0 223#000000000000002D
(1675216799.523746) can0 4C6#0700010000000000
(1675216799.526009) can0 260#0E00000000000078
(1675216799.529926) can0 020#000007
(1675216799.529934) can0 0B4#00000000000000BC
(1675216799.531065) can0 025#00160FC38282829B
(1675216799.531069) can0 024#020301FA620B8019
(1675216799.534305) can0 2D0#06A309001000009C
(1675216799.535000) can0 0B0#000000001104
(1675216799.535004) can0 0B2#000000001104
(1675216799.535478) can0 224#0000000000000008
(1675216799.535484) can0 235#00000000003D
(1675216799.539544) can0 2C4#038900190880211C
(1675216799.541178) can0 020#000007
(1675216799.541183) can0 0B4#00000000000000BC
(1675216799.541847) can0 025#00160FC37878787D
(1675216799.542404) can0 024#020301FA620B8019
(1675216799.544818) can0 2C1#080188007DCC00A5
(1675216799.545438) can0 260#0E00000000000078
(1675216799.547162) can0 0B0#000000001105
(1675216799.547167) can0 0B2#000000001105
(1675216799.547688) can0 223#000000000000002D
(1675216799.547692) can0 442#4002000000000000
(1675216799.549748) can0 4C7#0800012100000000
(1675216799.553499) can0 020#000007
(1675216799.553505) can0 0B4#00000000000000BC
(1675216799.553928) can0 024#020301FB620A8019
(1675216799.555308) can0 025#00160FC37878787D
(1675216799.559773) can0 0B0#000000001106
(1675216799.559778) can0 0B2#000000001106
(1675216799.560860) can0 224#0000000000000008
(1675216799.560863) can0 235#00000000003D
(1675216799.563029) can0 2C4#0386001908802119
(1675216799.565409) can0 020#000007
(1675216799.565415) can0 0B4#00000000000000BC
(1675216799.565418) can0 260#0E00000000000078
(1675216799.566253) can0 024#020301FB620A8019
(1675216799.566258) can0 025#00160FC37878787D
(1675216799.566260) can0 2D0#06A509001000009E
(1675216799.566532) can0 351#00000000
(1675216799.571579) can0 0B0#000000001107
(1675216799.571584) can0 0B2#000000001107
(1675216799.571586) can0 223#000000000000002D
(1675216799.573524) can0 3A0#005300000000001E
(1675216799.576555) can0 2C1#0801840077CC009B
(1675216799.577195) can0 020#000007
(1675216799.577198) can0 0B4#00000000000000BC
(1675216799.577876) can0 025#00160FC37878787D
(1675216799.577879) can0 024#020301F9620B8018
(1675216799.583246) can0 0B0#000000001108
(1675216799.583251) can0 0B2#000000001108
(1675216799.583789) can0 224#0000000000000008
(1675216799.583798) can0 235#00000000003D
(1675216799.585402) can0 260#0E00000000000078
(1675216799.586490) can0 2C4#0384001908802117
(1675216799.589302) can0 020#000007
(1675216799.589306) can0 0B4#00000000000000BC
(1675216799.589842) can0 025#00160FC37878787D
(1675216799.590334) can0 024#020301FA620B8019
(1675216799.595940) can0 0B0#000000001109
(1675216799.597147) can0 0B2#000000001109
(1675216799.597152) can0 223#000000000000002D
(1675216799.597698) can0 611#210010A000028219
(1675216799.597706) can0 2D0#06A509001000009E
(1675216799.601764) can0 020#000007
(1675216799.601769) can0 0B4#00000000000000BC
(1675216799.601772) can0 024#020301FA620B8019
(1675216799.602065) can0 025#00160FC37878787D
(1675216799.605805) can0 260#0E00000000000078
(1675216799.607990) can0 0B0#00000000110A
(1675216799.607995) can0 0B2#00000000110A
(1675216799.607996) can0 224#0000000000000008
(1675216799.607998) can0 235#00000000003D
(1675216799.608323) can0 2C1#0801820079CC009B
(1675216799.609999) can0 2C4#0383001908802116
(1675216799.613482) can0 020#000007
(1675216799.613488) can0 0B4#00000000000000BC
(1675216799.614208) can0 025#00160FC37878787D
(1675216799.614213) can0 024#020301FB620A7F18
(1675216799.620347) can0 0B0#00000000110B
(1675216799.622243) can0 0B2#00000000110B
(1675216799.622248) can0 223#000000000000002D
(1675216799.626178) can0 020#000007
(1675216799.626185) can0 0B4#00000000000000BC
(1675216799.626188) can0 260#0E00000000000078
(1675216799.626191) can0 025#00160FC37878787D
(1675216799.626444) can0 024#020301FA620A8018
(1675216799.627230) can0 351#00000000
(1675216799.629538) can0 2D0#06A209001000009B
(1675216799.631716) can0 0B0#00000000110C
(1675216799.631721) can0 0B2#00000000110C
(1675216799.631724) can0 224#0000000000000008
(1675216799.632150) can0 235#00000000003D
(1675216799.633544) can0 2C4#0384001908802117
(1675216799.635799) can0 4C1#0100090000000000
(1675216799.637725) can0 020#000007
(1675216799.637737) can0 0B4#00000000000000BC
(1675216799.637741) can0 025#00160FC37878787D
(1675216799.638471) can0 024#020301FA620B8019
(1675216799.639678) can0 2C1#080187007BCC00A2
(1675216799.643650) can0 0B0#00000000110D
(1675216799.643656) can0 0B2#00000000110D
(1675216799.643659) can0 223#000000000000002D
(1675216799.645571) can0 260#0E00000000000078
(1675216799.646440) can0 440#4202000001000000
(1675216799.649622) can0 020#000007
(1675216799.649628) can0 0B4#00000000000000BC
(1675216799.650096) can0 024#020301FA620B8019
(1675216799.650100) can0 025#00160FC37878787D
(1675216799.655997) can0 0B0#00000000110E
(1675216799.656003) can0 0B2#00000000110E
(1675216799.656006) can0 224#0000000000000008
(1675216799.656439) can0 235#00000000003D
(1675216799.657114) can0 2C4#038A00190880211D
(1675216799.661294) can0 2D0#069F090010000098
(1675216799.661680) can0 020#000007
(1675216799.661684) can0 0B4#00000000000000BC
(1675216799.661989) can0 024#020301FA620A8018
(1675216799.662208) can0 025#00160FC37878787D
(1675216799.665750) can0 260#0E00000000000078
(1675216799.667698) can0 0B0#00000000110F
(1675216799.667703) can0 0B2#00000000110F
(1675216799.668260) can0 223#000000000000002D
(1675216799.671660) can0 3A0#005300000000001E
(1675216799.671664) can0 2C1#08017C007BCB0096
(1675216799.673243) can0 620#1000022CF0402040
(1675216799.673779) can0 020#000007
(1675216799.673784) can0 0B4#00000000000000BC
(1675216799.674033) can0 025#00160FC37878787D
(1675216799.674445) can0 024#020301FB620A8019
(1675216799.680521) can0 0B0#000000001100
(1675216799.680528) can0 0B2#000000001100
(1675216799.680530) can0 224#0000000000000008
(1675216799.680532) can0 235#00000000003D
(1675216799.680891) can0 2C4#038A00190880211D
(1675216799.686108) can0 260#0E00000000000078
(1675216799.686119) can0 020#000007
(1675216799.686122) can0 0B4#00000000000000BC
(1675216799.686125) can0 025#00160FC37878787D
(1675216799.686436) can0 351#00000000
(1675216799.687575) can0 024#020201FA620B8119
(1675216799.691923) can0 0B0#000000001101
(1675216799.691928) can0 0B2#000000001101
(1675216799.692178) can0 223#000000000000002D
(1675216799.692776) can0 2D0#069D090010000096
(1675216799.697922) can0 020#000007
(1675216799.697928) can0 0B4#00000000000000BC
(1675216799.698247) can0 025#00160FC37878787D
(1675216799.698843) can0 024#020301FA620B8019
(1675216799.703131) can0 2C1#08017B007BCB0095
(1675216799.703875) can0 0B0#000000001102
(1675216799.703880) can0 0B2#000000001102
(1675216799.704482) can0 224#0000000000000008
(1675216799.704486) can0 235#00000000003D
(1675216799.704776) can0 2C4#038800190880211B
(1675216799.705611) can0 394#00
(1675216799.705614) can0 260#0E00000000000078
(1675216799.709923) can0 020#000007
(1675216799.709927) can0 0B4#00000000000000BC
(1675216799.710334) can0 024#020301FA620B8019
(1675216799.710336) can0 025#00160FC37878787D
(1675216799.716265) can0 0B0#000000001103
(1675216799.716273) can0 0B2#000000001103
(1675216799.716276) can0 223#000000000000002D
(1675216799.720577) can0 3B1#0000012500000000
(1675216799.721893) can0 020#000007
(1675216799.721896) can0 0B4#00000000000000BC
(1675216799.722352) can0 025#00160FC37878787D
(1675216799.722356) can0 024#020301FB620A8019
(1675216799.724747) can0 2D0#069C090010000095
(1675216799.725485) can0 260#0E00000000000078
(1675216799.728676) can0 2C4#038C00190880211F
(1675216799.728681) can0 0B0#000000001104
(1675216799.729708) can0 0B2#000000001104
(1675216799.729712) can0 224#0000000000000008
(1675216799.731765) can0 235#00000000003D
(1675216799.731769) can0 3B7#0000800000000000
(1675216799.734427) can0 020#000007
(1675216799.734433) can0 0B4#00000000000000BC
(1675216799.734435) can0 025#00160FC37878787D
(1675216799.734845) can0 024#020301FB620A8019
(1675216799.736186) can0 2C1#080188007ACC00A2
(1675216799.737682) can0 442#4002000000000000
(1675216799.740431) can0 0B0#000000001105
(1675216799.740435) can0 0B2#000000001105
(1675216799.740437) can0 223#000000000000002D
(1675216799.746059) can0 260#0E00000000000078
(1675216799.746064) can0 020#000007
(1675216799.746067) can0 0B4#00000000000000BC
(1675216799.746433) can0 025#00160FC37878787D
(1675216799.746436) can0 351#00000000
(1675216799.746925) can0 024#020301F9620B8018
(1675216799.751436) can0 2C4#038A00190880211D
(1675216799.752311) can0 0B0#000000001106
(1675216799.752316) can0 0B2#000000001106
(1675216799.752318) can0 224#0000000000000008
(1675216799.752697) can0 235#00000000003D
(1675216799.756393) can0 2D0#069D090010000096
(1675216799.757884) can0 423#00
(1675216799.757888) can0 020#000007
(1675216799.757890) can0 0B4#00000000000000BC
(1675216799.758359) can0 024#020301FA620B8019
(1675216799.758912) can0 025#00160FC38282829B
(1675216799.764303) can0 0B0#000000001107
(1675216799.764307) can0 0B2#000000001107
(1675216799.765810) can0 223#000000000000002D
(1675216799.765814) can0 260#0E00000000000078
(1675216799.766597) can0 2C1#0801840079CC009D
(1675216799.770225) can0 020#000007
(1675216799.770231) can0 0B4#00000000000000BC
(1675216799.770750) can0 024#020301FA620B8019
(1675216799.770754) can0 025#00160FC37878787D
(1675216799.771209) can0 3A0#005300000000001E
(1675216799.775113) can0 2C4#038B00190880211E
(1675216799.776160) can0 0B0#000000001108
(1675216799.776164) can0 0B2#000000001108
(1675216799.776537) can0 224#0000000000000008
(1675216799.776541) can0 235#00000000003D
(1675216799.784314) can0 020#000007
(1675216799.785313) can0 0B4#00000000000000BC
(1675216799.785316) can0 024#020301FA620A8018
(1675216799.785318) can0 025#00160FC37878787D
(1675216799.785667) can0 260#0E00000000000078
(1675216799.786838) can0 4C8#0900010200000000
(1675216799.788439) can0 2D0#06A0090010000099
(1675216799.788447) can0 0B0#000000001109
(1675216799.788450) can0 0B2#000000001109
(1675216799.788453) can0 223#000000000000002D
(1675216799.794579) can0 020#000007
(1675216799.794584) can0 0B4#00000000000000BC
(1675216799.795038) can0 025#00160FC37878787D
(1675216799.795042) can0 024#020301FA620A8018
(1675216799.798554) can0 2C1#0801890071CC009A
(1675216799.798558) can0 2C4#038A00190880211D
(1675216799.800790) can0 0B0#00000000110A
(1675216799.800795) can0 0B2#00000000110A
(1675216799.800796) can0 224#0000000000000008
(1675216799.802439) can0 235#00000000003D
(1675216799.806091) can0 260#0E00000000000078
(1675216799.806097) can0 020#000007
(1675216799.806501) can0 0B4#00000000000000BC
(1675216799.806505) can0 351#00000000
(1675216799.806882) can0 025#00160FC37878787D
(1675216799.807359) can0 024#020301FA620B8019
(1675216799.812693) can0 0B0#00000000110B
(1675216799.812697) can0 0B2#00000000110B
(1675216799.812699) can0 223#000000000000002D
(1675216799.818764) can0 020#000007
(1675216799.818769) can0 0B4#00000000000000BC
(1675216799.818771) can0 024#020301FA620B8019
(1675216799.819757) can0 025#00160FC37878787D
(1675216799.819761) can0 2D0#06A209001000009B
(1675216799.821915) can0 2C4#038800190880211B
(1675216799.825214) can0 0B0#00000000110C
(1675216799.825565) can0 0B2#00000000110C
(1675216799.826279) can0 224#0000000000000008
(1675216799.826283) can0 235#00000000003D
(1675216799.828507) can0 260#0E00000000000078
(1675216799.829860) can0 2C1#08018D0075CC00A2
(1675216799.830776) can0 020#000007
(1675216799.830781) can0 0B4#00000000000000BC
(1675216799.831180) can0 025#00160FC37878787D
(1675216799.831186) can0 024#020301FA620A8018
(1675216799.836533) can0 440#4202000001000000
(1675216799.836539) can0 0B0#00000000110D
(1675216799.836541) can0 0B2#00000000110D
(1675216799.837255) can0 223#000000000000002D
(1675216799.837259) can0 621#1100000000000000
(1675216799.842969) can0 020#000007
(1675216799.842974) can0 0B4#00000000000000BC
(1675216799.842975) can0 025#00160FC37878787D
(1675216799.844177) can0 024#020301FB620A8019
(1675216799.845550) can0 2C4#038A00190880211D
(1675216799.845553) can0 260#0E00000000000078
(1675216799.848961) can0 0B0#00000000110E
(1675216799.848966) can0 0B2#00000000110E
(1675216799.848967) can0 224#0000000000000008
(1675216799.849231) can0 235#00000000003D
(1675216799.851761) can0 2D0#06A309001000009C
(1675216799.854723) can0 020#000007
(1675216799.854730) can0 0B4#00000000000000BC
(1675216799.854733) can0 025#00160FC37878787D
(1675216799.855631) can0 024#020301FA620A8018
(1675216799.860840) can0 0B0#00000000110F
(1675216799.860844) can0 0B2#00000000110F
(1675216799.861575) can0 223#000000000000002D
(1675216799.861580) can0 2C1#0801830072CC0095
(1675216799.865654) can0 260#0E00000000000078
(1675216799.865658) can0 3B3#038928
(1675216799.866340) can0 351#00000000
(1675216799.866343) can0 020#000007
(1675216799.866345) can0 0B4#00000000000000BC
(1675216799.866690) can0 024#020301FA620B8019
(1675216799.867220) can0 025#00160FC37878787D
(1675216799.869079) can0 2C4#038700190880211A
(1675216799.870404) can0 4DD#1E00000100000000
(1675216799.871178) can0 3A0#005300000000001E
(1675216799.872679) can0 0B0#000000001100
(1675216799.872686) can0 0B2#000000001100
(1675216799.873066) can0 224#0000000000000008
(1675216799.873070) can0 235#00000000003D
(1675216799.878969) can0 020#000007
(1675216799.878975) can0 0B4#00000000000000BC
(1675216799.878977) can0 025#00160FC37878787D
(1675216799.879283) can0 024#020301FA620B8019
(1675216799.883858) can0 2D0#06A309001000009C
(1675216799.884626) can0 0B0#000000001101
(1675216799.884631) can0 0B2#000000001101
(1675216799.885121) can0 223#000000000000002D
(1675216799.885553) can0 260#0E00000000000078
(1675216799.890930) can0 020#000007
(1675216799.890934) can0 0B4#00000000000000BC
(1675216799.890935) can0 025#00160FC37878787D
(1675216799.891186) can0 024#020301FB620A8019
(1675216799.894478) can0 2C4#038A00190880211D
(1675216799.894484) can0 2C1#08017B0076CB0090
(1675216799.897088) can0 0B0#000000001102
(1675216799.897093) can0 0B2#000000001102
(1675216799.897469) can0 224#0000000000000008
(1675216799.897471) can0 235#00000000003D
(1675216799.898221) can0 610#20000064C0FFFEE0
(1675216799.903177) can0 020#000007
(1675216799.903184) can0 0B4#00000000000000BC
(1675216799.903186) can0 025#00160FC37878787D
(1675216799.903489) can0 024#020301FB620A8019
(1675216799.905633) can0 260#0E00000000000078
(1675216799.908886) can0 0B0#000000001103
(1675216799.908891) can0 0B2#000000001103
(1675216799.909237) can0 223#000000000000002D
(1675216799.914656) can0 020#000007
(1675216799.914660) can0 0B4#00000000000000BC
(1675216799.915084) can0 025#00160FC37878787D
(1675216799.915343) can0 2D0#06A309001000009C
(1675216799.915844) can0 024#020301F9620A8017
(1675216799.915850) can0 2C4#038A00190880211D
(1675216799.920752) can0 0B0#000000001104
(1675216799.920755) can0 0B2#000000001104
(1675216799.921194) can0 224#0000000000000008
(1675216799.921199) can0 235#00000000003D
(1675216799.925718) can0 2C1#08017D0075CB0091
(1675216799.925722) can0 260#0E00000000000078
(1675216799.926325) can0 351#00000000
(1675216799.926706) can0 020#000007
(1675216799.926916) can0 0B4#00000000000000BC
(1675216799.927240) can0 024#020301F9620A8017
(1675216799.927243) can0 025#00160FC37878787D
(1675216799.927614) can0 442#4002000000000000
(1675216799.933120) can0 0B0#000000001105
(1675216799.933125) can0 0B2#000000001105
(1675216799.934351) can0 223#000000000000002D
(1675216799.939196) can0 020#000007
(1675216799.939202) can0 0B4#00000000000000BC
(1675216799.939204) can0 025#00160FC37878787D
(1675216799.939487) can0 024#020301FA620A8018
(1675216799.939763) can0 2C4#038800190880211B
(1675216799.945259) can0 0B0#000000001106
(1675216799.945264) can0 0B2#000000001106
(1675216799.945686) can0 224#0000000000000008
(1675216799.945689) can0 235#00000000003D
(1675216799.946143) can0 260#0E00000000000078
(1675216799.946760) can0 2D0#06A409001000009D
(1675216799.950997) can0 020#000007
(1675216799.951002) can0 0B4#00000000000000BC
(1675216799.951379) can0 025#00160FC37878787D
(1675216799.951689) can0 024#020301FA620A8018
(1675216799.957281) can0 0B0#000000001107
(1675216799.957285) can0 0B2#000000001107
(1675216799.957287) can0 223#000000000000002D
(1675216799.957698) can0 2C1#08018A0075CC009F
(1675216799.963182) can0 020#000007
(1675216799.963188) can0 0B4#00000000000000BC
(1675216799.963189) can0 025#00160FC37878787D
(1675216799.963450) can0 2C4#038800190880211B
(1675216799.963953) can0 024#020301FA620A8018
(1675216799.965946) can0 260#0E00000000000078
(1675216799.969219) can0 0B0#000000001108
(1675216799.969222) can0 0B2#000000001108
(1675216799.969594) can0 224#0000000000000008
(1675216799.970322) can0 235#00000000003D
(1675216799.971094) can0 3A0#005300000000001E
(1675216799.971102) can0 620#1000022DF0402040
(1675216799.975168) can0 020#000007
(1675216799.975172) can0 0B4#00000000000000BC
(1675216799.975824) can0 024#020301F9620B8018
(1675216799.976747) can0 025#00160FC38282829B
(1675216799.978977) can0 2D0#06A309001000009C
(1675216799.981301) can0 0B0#000000001109
(1675216799.981305) can0 0B2#000000001109
(1675216799.981306) can0 223#000000000000002D
(1675216799.985595) can0 260#0E00000000000078
(1675216799.986499) can0 351#00000000
(1675216799.986502) can0 2C4#038900190880211C
(1675216799.986855) can0 020#000007
(1675216799.987403) can0 0B4#00000000000000BC
(1675216799.987407) can0 024#020301FA620B8019
(1675216799.987757) can0 025#00160FC37878787D
(1675216799.988767) can0 2C1#0801850070CC0095
(1675216799.993175) can0 0B0#00000000110A
(1675216799.993180) can0 0B2#00000000110A
(1675216799.993547) can0 224#0000000000000008
(1675216799.993549) can0 235#00000000003D
(1675216799.996477) can0 623#1900000000000000
(1675216799.999144) can0 020#000007
(1675216799.999148) can0 0B4#00000000000000BC
(1675216799.999887) can0 024#020201FA620A7F16
(1675216799.999890) can0 025#00160FC37878787D
(1675216800.004376) can0 394#00
(1675216800.005323) can0 0B0#00000000110B
(1675216800.005327) can0 0B2#00000000110B
(1675216800.005329) can0 223#000000000000002D
(1675216800.005510) can0 260#0E00000000000078
(1675216800.006210) can0 624#1A00414949400000
(1675216800.010156) can0 2D0#06A309001000009C
(1675216800.010604) can0 2C4#038D001908802120
(1675216800.010901) can0 020#000007
(1675216800.011389) can0 0B4#00000000000000BC
(1675216800.011701) can0 025#00160FC37878787D
(1675216800.012190) can0 024#020301FB620A8019
(1675216800.015381) can0 638#1300040000000000
(1675216800.017704) can0 0B0#00000000110C
(1675216800.017709) can0 0B2#00000000110C
(1675216800.018461) can0 224#0000000000000008
(1675216800.018464) can0 235#00000000003D
(1675216800.020535) can0 2C1#0801860076CC009C
(1675216800.023348) can0 020#000007
(1675216800.023352) can0 0B4#00000000000000BC
(1675216800.023821) can0 025#00160FC37878787D
(1675216800.024415) can0 024#020301FA620A8018
(1675216800.024418) can0 630#1700000000000000
(1675216800.026047) can0 260#0E00000000000078
(1675216800.026051) can0 440#4202000001000000
(1675216800.029208) can0 0B0#00000000110D
(1675216800.029212) can0 0B2#00000000110D
(1675216800.029449) can0 223#000000000000002D
(1675216800.029745) can0 3B7#0000800000000000
(1675216800.033878) can0 2C4#038C00190880211F
(1675216800.035180) can0 020#000007
(1675216800.035183) can0 0B4#00000000000000BC
(1675216800.035668) can0 024#020301F9620A8017
(1675216800.035670) can0 025#00160FC37878787D
(1675216800.041545) can0 0B0#00000000110E
(1675216800.041551) can0 0B2#00000000110E
(1675216800.041553) can0 224#0000000000000008
(1675216800.041994) can0 235#00000000003D
(1675216800.041997) can0 2D0#06A409001000009D
(1675216800.045662) can0 260#0E00000000000078
(1675216800.046291) can0 351#00000000
(1675216800.047246) can0 020#000007
(1675216800.047249) can0 0B4#00000000000000BC
(1675216800.048011) can0 025#00160FC37878787D
(1675216800.048014) can0 024#020301F9620A8017
(1675216800.052542) can0 2C1#08016D0074CB0080
(1675216800.053500) can0 0B0#00000000110F
(1675216800.053505) can0 0B2#00000000110F
(1675216800.053851) can0 223#000000000000002D
(1675216800.057422) can0 2C4#0390001908802123
(1675216800.059295) can0 020#000007
(1675216800.059299) can0 0B4#00000000000000BC
(1675216800.059880) can0 025#00160FC37878787D
(1675216800.060210) can0 024#020301FA620A8018
(1675216800.066159) can0 0B0#000000001100
(1675216800.066163) can0 0B2#000000001100
(1675216800.067692) can0 224#0000000000000008
(1675216800.067695) can0 235#00000000003D
(1675216800.068968) can0 260#0E00000000000078
(1675216800.071741) can0 020#000007
(1675216800.071746) can0 0B4#00000000000000BC
(1675216800.072066) can0 025#00160FC37878787D
(1675216800.072414) can0 3A0#005500000000001E
(1675216800.073160) can0 024#020301FB620A8019
(1675216800.073677) can0 2D0#06A509001000009E
(1675216800.077564) can0 0B0#000000001101
(1675216800.078088) can0 0B2#000000001101
(1675216800.078092) can0 223#000000000000002D
(1675216800.078952) can0 4C3#0300120100000000
(1675216800.081110) can0 2C4#0390001908802123
(1675216800.083461) can0 020#000007
(1675216800.083467) can0 0B4#00000000000000BC
(1675216800.083993) can0 024#020201F9620B8017
(1675216800.083997) can0 025#00160FC37878787D
(1675216800.084332) can0 2C1#0801680071CB0078
(1675216800.085666) can0 260#0E00000000000078
(1675216800.089406) can0 0B0#000000001102
(1675216800.089409) can0 0B2#000000001102
(1675216800.089717) can0 224#0000000000000008
(1675216800.090082) can0 235#00000000003D
(1675216800.095501) can0 020#000007
(1675216800.095505) can0 0B4#00000000000000BC
(1675216800.095783) can0 025#00160FC37878787D
(1675216800.096070) can0 024#020301FA620B8019
(1675216800.100988) can0 4DC#1D00030200000000
(1675216800.101459) can0 0B0#000000001103
(1675216800.101461) can0 0B2#000000001103
(1675216800.102033) can0 223#000000000000002D
(1675216800.104544) can0 2C4#0392001908802125
(1675216800.105533) can0 2D0#06A80900100000A1
(1675216800.105536) can0 260#0E00000000000078
(1675216800.106251) can0 351#00000000
(1675216800.107705) can0 020#000007
(1675216800.107712) can0 0B4#00000000000000BC
(1675216800.107714) can0 025#00160FC37878787D
(1675216800.108422) can0 024#020301FA620A8018
(1675216800.111253) can0 38C#0000000000000037
(1675216800.113678) can0 0B0#000000001104
(1675216800.113682) can0 0B2#000000001104
(1675216800.113846) can0 224#0000000000000008
(1675216800.114110) can0 235#00000000003D
(1675216800.115898) can0 2C1#0801720074CB0085
(1675216800.117852) can0 442#4002000000000000
(1675216800.119813) can0 020#000007
(1675216800.119817) can0 0B4#00000000000000BC
(1675216800.119818) can0 025#00160FC37878787D
(1675216800.120630) can0 024#020301FA620A8018
(1675216800.125812) can0 260#0E00000000000078
(1675216800.125816) can0 0B0#000000001105
(1675216800.126238) can0 0B2#000000001105
(1675216800.126240) can0 223#000000000000002D
(1675216800.126749) can0 398#00FA
(1675216800.128175) can0 2C4#038C00190880211F
(1675216800.131603) can0 020#000007
(1675216800.131606) can0 0B4#00000000000000BC
(1675216800.131908) can0 024#020301FA620A8018
(1675216800.132232) can0 025#00160FC37878787D
(1675216800.137338) can0 2D0#06AB0900100000A4
(1675216800.138084) can0 0B0#000000001106
(1675216800.138094) can0 0B2#000000001106
(1675216800.138096) can0 224#0000000000000008
(1675216800.138436) can0 235#00000000003D
(1675216800.140961) can0 3B0#0000002A0000
(1675216800.143891) can0 020#000007
(1675216800.143895) can0 0B4#00000000000000BC
(1675216800.144268) can0 025#00160FC37878787D
(1675216800.144276) can0 024#020301FA620B8019
(1675216800.145651) can0 260#0E00000000000078
(1675216800.147667) can0 2C1#0801690072CB007A
(1675216800.149865) can0 0B0#000000001107
(1675216800.149869) can0 0B2#000000001107
(1675216800.150265) can0 223#000000000000002D
(1675216800.151601) can0 2C4#038D001908802120
(1675216800.156165) can0 020#000007
(1675216800.156174) can0 0B4#00000000000000BC
(1675216800.156176) can0 025#00160FC37878787D
(1675216800.156326) can0 024#020301FA620B8019
(1675216800.162382) can0 0B0#000000001108
(1675216800.162388) can0 0B2#000000001108
(1675216800.162391) can0 224#0000000000000008
(1675216800.162393) can0 235#00000000003D
(1675216800.165927) can0 260#0E00000000000078
(1675216800.166503) can0 351#00000000
(1675216800.168157) can0 020#000007
(1675216800.168161) can0 0B4#00000000000000BC
(1675216800.168162) can0 025#00160FC37878787D
(1675216800.168806) can0 024#020301FA620A8018
(1675216800.168809) can0 2D0#06AD0900100000A6
(1675216800.171425) can0 3A0#005500000000001E
(1675216800.174318) can0 0B0#000000001109
(1675216800.174322) can0 0B2#000000001109
(1675216800.174324) can0 223#000000000000002D
(1675216800.175429) can0 2C4#038A00190880211D
(1675216800.179792) can0 2C1#080174006BCB007E
(1675216800.179796) can0 020#000007
(1675216800.180015) can0 0B4#00000000000000BC
(1675216800.180346) can0 025#00160FC37878787D
(1675216800.181039) can0 024#020301FB620A8019
(1675216800.186425) can0 260#0E00000000000078
(1675216800.186435) can0 0B0#00000000110A
(1675216800.186436) can0 0B2#00000000110A
(1675216800.186438) can0 224#0000000000000008
(1675216800.186440) can0 235#00000000003D
(1675216800.192400) can0 020#000007
(1675216800.192404) can0 0B4#00000000000000BC
(1675216800.192405) can0 025#00160FC37878787D
(1675216800.194153) can0 024#020301FA620A8018
(1675216800.198603) can0 0B0#00000000110B
(1675216800.198610) can0 0B2#00000000110B
(1675216800.198612) can0 223#000000000000002D
(1675216800.198614) can0 2C4#038C00190880211F
(1675216800.200834) can0 2D0#06AD0900100000A6
(1675216800.200838) can0 380#200808100000FD00
(1675216800.204071) can0 020#000007
(1675216800.204077) can0 0B4#00000000000000BC
(1675216800.204558) can0 025#00160FC37878787D
(1675216800.204562) can0 024#020201FA620B7F17
(1675216800.205537) can0 260#0E00000000000078
(1675216800.210607) can0 0B0#00000000110C
(1675216800.210613) can0 0B2#00000000110C
(1675216800.210616) can0 224#0000000000000008
(1675216800.210619) can0 235#00000000003D
(1675216800.211027) can0 2C1#080177006ECB0084
(1675216800.217149) can0 020#000007
(1675216800.217158) can0 0B4#00000000000000BC
(1675216800.217265) can0 025#00160FC37878787D
(1675216800.218020) can0 440#4202000001000000
(1675216800.218026) can0 024#020301FA620B8019
(1675216800.222340) can0 0B0#00000000110D
(1675216800.222353) can0 0B2#00000000110D
(1675216800.222665) can0 223#000000000000002D
(1675216800.223654) can0 2C4#038B00190880211E
(1675216800.225731) can0 260#0E00000000000078
(1675216800.226517) can0 351#00000000
(1675216800.228237) can0 020#000007
(1675216800.228242) can0 0B4#00000000000000BC
(1675216800.229120) can0 025#00160FC38282829B
(1675216800.229125) can0 024#020301FB620A8019
(1675216800.231493) can0 3A1#0000000000FF0000
(1675216800.232840) can0 2D0#06AD0900100000A6
(1675216800.234649) can0 0B0#00000000110E
(1675216800.234662) can0 0B2#00000000110E
(1675216800.234666) can0 224#0000000000000008
(1675216800.234669) can0 235#00000000003D
(1675216800.240358) can0 020#000007
(1675216800.240835) can0 0B4#00000000000000BC
(1675216800.240838) can0 024#020301FB620A8019
(1675216800.241680) can0 025#00160FC37878787D
(1675216800.242835) can0 2C1#0801740068CB007B
(1675216800.245971) can0 260#0E00000000000078
(1675216800.245976) can0 2C4#038C00190880211F
(1675216800.246065) can0 0B0#00000000110F
(1675216800.246069) can0 0B2#00000000110F
(1675216800.247648) can0 223#000000000000002D
(1675216800.251328) can0 383#0000000000000000
(1675216800.252732) can0 020#000007
(1675216800.252739) can0 0B4#00000000000000BC
(1675216800.252742) can0 024#020301F9620B8018
(1675216800.253306) can0 025#00160FC37878787D
(1675216800.258776) can0 0B0#000000001100
(1675216800.258785) can0 0B2#000000001100
(1675216800.258789) can0 224#0000000000000008
(1675216800.259993) can0 235#00000000003D
(1675216800.264857) can0 2D0#06AA0900100000A3
(1675216800.264864) can0 020#000007
(1675216800.264867) can0 0B4#00000000000000BC
(1675216800.264871) can0 025#00160FC37878787D
(1675216800.265216) can0 024#020301FA620B8019
(1675216800.265633) can0 260#0E00000000000078
(1675216800.269803) can0 2C4#038D001908802120
(1675216800.270695) can0 0B0#000000001101
(1675216800.270700) can0 0B2#000000001101
(1675216800.270894) can0 223#000000000000002D
(1675216800.271370) can0 3A0#005500000000001E
(1675216800.272240) can0 620#1000022DF0402040
(1675216800.274476) can0 2C1#08017B006ECB0088
(1675216800.276452) can0 020#000007
(1675216800.276457) can0 0B4#00000000000000BC
(1675216800.277335) can0 025#00160FC37878787D
(1675216800.277340) can0 024#020301FA620B8019
(1675216800.280397) can0 622#1200E83000000000
(1675216800.282484) can0 0B0#000000001102
(1675216800.282492) can0 0B2#000000001102
(1675216800.282913) can0 224#0000000000000008
(1675216800.282916) can0 235#00000000003D
(1675216800.285731) can0 260#0E00000000000078
(1675216800.286424) can0 351#00000000
(1675216800.288381) can0 020#000007
(1675216800.288385) can0 0B4#00000000000000BC
(1675216800.288843) can0 025#00160FC37878787D
(1675216800.289602) can0 024#020301FB620A8019
(1675216800.293234) can0 2C4#038700190880211A
(1675216800.294905) can0 0B0#000000001103
(1675216800.294911) can0 0B2#000000001103
(1675216800.294915) can0 223#000000000000002D
(1675216800.296269) can0 2D0#06A90900100000A2
(1675216800.300869) can0 020#000007
(1675216800.300878) can0 0B4#00000000000000BC
(1675216800.300880) can0 024#020301FA620A8018
(1675216800.300883) can0 025#00160FC37878787D
(1675216800.304496) can0 394#00
(1675216800.305741) can0 260#0E00000000000078
(1675216800.306035) can0 2C1#08017C006ACB0085
(1675216800.306266) can0 0B0#000000001104
(1675216800.306918) can0 0B2#000000001104
(1675216800.306922) can0 224#0000000000000008
(1675216800.307043) can0 235#00000000003D
(1675216800.307406) can0 442#4002000000000000
(1675216800.312673) can0 020#000007
(1675216800.312680) can0 0B4#00000000000000BC
(1675216800.312682) can0 025#00160FC37878787D
(1675216800.312991) can0 024#020301F9620B8018
(1675216800.316549) can0 2C4#0385001908802118
(1675216800.318777) can0 0B0#000000001105
(1675216800.318782) can0 0B2#000000001105
(1675216800.318785) can0 223#000000000000002D
(1675216800.324784) can0 020#000007
(1675216800.324788) can0 0B4#00000000000000BC
(1675216800.324789) can0 025#00160FC37878787D
(1675216800.325586) can0 024#020301FA620B8019
(1675216800.325591) can0 260#0E00000000000078
(1675216800.327786) can0 2D0#06A80900100000A1
(1675216800.330799) can0 0B0#000000001106
(1675216800.330804) can0 0B2#000000001106
(1675216800.330806) can0 224#0000000000000008
(1675216800.331214) can0 235#00000000003D
(1675216800.331217) can0 3B7#0000800000000000
(1675216800.336844) can0 020#000007
(1675216800.336848) can0 0B4#00000000000000BC
(1675216800.336849) can0 025#00160FC37878787D
(1675216800.337861) can0 024#020301FA620A8018
(1675216800.337865) can0 2C1#08017B006ECB0088
(1675216800.340046) can0 2C4#038700190880211A
(1675216800.342960) can0 0B0#000000001107
(1675216800.342964) can0 0B2#000000001107
(1675216800.342965) can0 223#000000000000002D
(1675216800.345780) can0 260#0E00000000000078
(1675216800.346351) can0 351#00000000
(1675216800.349171) can0 020#000007
(1675216800.349175) can0 0B4#00000000000000BC
(1675216800.349176) can0 025#00160FC37878787D
(1675216800.349177) can0 024#020301FB620A8019
(1675216800.354858) can0 0B0#000000001108
(1675216800.354866) can0 0B2#000000001108
(1675216800.354868) can0 224#0000000000000008
(1675216800.355166) can0 235#00000000003D
(1675216800.360356) can0 2D0#06A509001000009E
(1675216800.360359) can0 020#000007
(1675216800.360849) can0 0B4#00000000000000BC
(1675216800.360852) can0 025#00160FC37878787D
(1675216800.361344) can0 024#020301FA620A8018
(1675216800.363585) can0 2C4#0386001908802119
(1675216800.366513) can0 260#0E00000000000078
(1675216800.366518) can0 0B0#000000001109
(1675216800.366921) can0 0B2#000000001109
(1675216800.366923) can0 223#000000000000002D
(1675216800.370133) can0 2C1#0801780071CB0088
(1675216800.370674) can0 3A0#005500000000001E
(1675216800.372710) can0 020#000007
(1675216800.372714) can0 0B4#00000000000000BC
(1675216800.372833) can0 025#00160FC37878787D
(1675216800.373508) can0 024#020301FA620B8019
(1675216800.377836) can0 3B3#038A28
(1675216800.378881) can0 0B0#00000000110A
(1675216800.378884) can0 0B2#00000000110A
(1675216800.378886) can0 224#0000000000000008
(1675216800.379237) can0 235#00000000003D
(1675216800.384950) can0 020#000007
(1675216800.384954) can0 0B4#00000000000000BC
(1675216800.384955) can0 025#00160FC37878787D
(1675216800.385650) can0 260#0E00000000000078
(1675216800.385656) can0 024#020301FA620B8019
(1675216800.387012) can0 2C4#038E001908802121
(1675216800.390812) can0 0B0#00000000110B
(1675216800.390816) can0 0B2#00000000110B
(1675216800.390947) can0 223#000000000000002D
(1675216800.391298) can0 2D0#06A109001000009A
(1675216800.396947) can0 020#000007
(1675216800.396953) can0 0B4#00000000000000BC
(1675216800.397311) can0 024#020301FB620A8019
(1675216800.397315) can0 025#00160FC37878787D
(1675216800.397596) can0 610#20000064C0FFFEE0
(1675216800.401578) can0 2C1#08016F0073CB0081
(1675216800.403090) can0 0B0#00000000110C
(1675216800.403096) can0 0B2#00000000110C
(1675216800.403098) can0 224#0000000000000008
(1675216800.403539) can0 235#00000000003D
(1675216800.405805) can0 260#0E00000000000078
(1675216800.406290) can0 440#4202000001000000
(1675216800.406294) can0 351#00000000
(1675216800.409276) can0 020#000007
(1675216800.409283) can0 0B4#00000000000000BC
(1675216800.409286) can0 025#00160FC37878787D
(1675216800.410712) can0 024#020301FB620A8019
(1675216800.410715) can0 2C4#038B00190880211E
(1675216800.415451) can0 0B0#00000000110D
(1675216800.417375) can0 0B2#00000000110D
(1675216800.417382) can0 223#000000000000002D
(1675216800.421555) can0 020#000007
(1675216800.423299) can0 0B4#00000000000000BC
(1675216800.423303) can0 025#00160FC37878787D
(1675216800.423304) can0 024#020401F9620B8019
(1675216800.424656) can0 2D0#069F090010000098
(1675216800.425852) can0 260#0E00000000000078
(1675216800.427255) can0 0B0#00000000110E
(1675216800.427264) can0 0B2#00000000110E
(1675216800.427266) can0 224#0000000000000008
(1675216800.427611) can0 235#00000000003D
(1675216800.432954) can0 020#000007
(1675216800.432957) can0 0B4#00000000000000BC
(1675216800.433402) can0 025#00160FC37878787D
(1675216800.433406) can0 2C1#0801700077CB0086
(1675216800.434121) can0 024#020301F9620B8119
(1675216800.434123) can0 2C4#038C00190880211F
(1675216800.439198) can0 0B0#00000000110F
(1675216800.439202) can0 0B2#00000000110F
(1675216800.439204) can0 223#000000000000002D
(1675216800.439601) can0 3B4#00009AB080000000
(1675216800.445203) can0 020#000007
(1675216800.445207) can0 0B4#00000000000000BC
(1675216800.445208) can0 025#00160FC37878787D
(1675216800.445672) can0 260#0E00000000000078
(1675216800.446327) can0 024#020401FA620B801A
(1675216800.451049) can0 0B0#000000001100
(1675216800.451052) can0 0B2#000000001100
(1675216800.451594) can0 224#0000000000000008
(1675216800.451599) can0 235#00000000003D
(1675216800.455267) can0 2D0#06A0090010000099
(1675216800.457112) can0 020#000007
(1675216800.457115) can0 0B4#00000000000000BC
(1675216800.457541) can0 025#00160FC37878787D
(1675216800.457546) can0 024#020301FA62097F16
(1675216800.457739) can0 2C4#038E001908802121
(1675216800.463572) can0 0B0#000000001101
(1675216800.463577) can0 0B2#000000001101
(1675216800.463580) can0 223#000000000000002D
(1675216800.464851) can0 2C1#0801750076CB008A
(1675216800.465731) can0 260#0E00000000000078
(1675216800.466321) can0 351#00000000
(1675216800.469273) can0 020#000007
(1675216800.469789) can0 0B4#00000000000000BC
(1675216800.469792) can0 024#020301FA62098017
(1675216800.469793) can0 025#00160FC38282829B
(1675216800.470487) can0 3A0#005500000000001E
(1675216800.475747) can0 0B0#000000001102
(1675216800.475750) can0 0B2#000000001102
(1675216800.476835) can0 224#0000000000000008
(1675216800.476838) can0 235#00000000003D
(1675216800.481126) can0 020#000007
(1675216800.481132) can0 0B4#00000000000000BC
(1675216800.481398) can0 2C4#038900190880211C
(1675216800.481947) can0 025#00160FC37878787D
(1675216800.481950) can0 024#020301F9620B7F17
(1675216800.483914) can0 4C6#0700010000000000
(1675216800.485752) can0 260#0E00000000000078
(1675216800.486344) can0 2D0#06A309001000009C
(1675216800.487166) can0 0B0#000000001103
(1675216800.487168) can0 0B2#000000001103
(1675216800.487523) can0 223#000000000000002D
(1675216800.493200) can0 020#000007
(1675216800.493203) can0 0B4#00000000000000BC
(1675216800.493842) can0 025#00160FC37878787D
(1675216800.494275) can0 024#020301FA620B811A
(1675216800.496759) can0 2C1#0801740072CB0085
(1675216800.496764) can0 442#4002000000000000
(1675216800.499469) can0 0B0#000000001104
(1675216800.499516) can0 0B2#000000001104
(1675216800.499518) can0 224#0000000000000008
(1675216800.499864) can0 235#00000000003D
(1675216800.505043) can0 2C4#038C00190880211F
(1675216800.505047) can0 020#000007
(1675216800.505526) can0 0B4#00000000000000BC
(1675216800.505531) can0 024#020301FA620A8018
(1675216800.505909) can0 260#0E00000000000078
(1675216800.505913) can0 025#00160FC37878787D
(1675216800.511521) can0 0B0#000000001105
(1675216800.511525) can0 0B2#000000001105
(1675216800.511526) can0 223#000000000000002D
(1675216800.517571) can0 020#000007
(1675216800.517578) can0 0B4#00000000000000BC
(1675216800.517864) can0 024#020301FB620A8019
(1675216800.517868) can0 025#00160FC37878787D
(1675216800.518289) can0 2D0#06A409001000009D
(1675216800.520054) can0 4C7#0800012100000000
(1675216800.523560) can0 0B0#000000001106
(1675216800.523565) can0 0B2#000000001106
(1675216800.523566) can0 224#0000000000000008
(1675216800.523916) can0 235#00000000003D
(1675216800.526460) can0 260#0E00000000000078
(1675216800.527814) can0 351#00000000
(1675216800.528438) can0 2C1#08016E0072CB007F
(1675216800.528441) can0 2C4#038900190880211C
(1675216800.529371) can0 020#000007
(1675216800.529373) can0 0B4#00000000000000BC
(1675216800.529914) can0 025#00160FC37878787D
(1675216800.529918) can0 024#020301FA620A8119
(1675216800.530197) can0 38A#0800040000
(1675216800.535723) can0 0B0#000000001107
(1675216800.535727) can0 0B2#000000001107
(1675216800.535729) can0 223#000000000000002D
(1675216800.541738) can0 020#000007
(1675216800.541742) can0 0B4#00000000000000BC
(1675216800.541743) can0 025#00160FC37878787D
(1675216800.542389) can0 024#020301FA620B8019
(1675216800.545782) can0 260#0E00000000000078
(1675216800.545786) can0 4C1#0100090000000000
(1675216800.547860) can0 0B0#000000001108
(1675216800.547865) can0 0B2#000000001108
(1675216800.547867) can0 224#0000000000000008
(1675216800.548174) can0 235#00000000003D
(1675216800.550267) can0 2D0#06A609001000009F
(1675216800.552250) can0 2C4#038C00190880211F
(1675216800.553511) can0 020#000007
(1675216800.553515) can0 0B4#00000000000000BC
(1675216800.553861) can0 024#020301FA620B8019
(1675216800.553865) can0 025#00160FC37878787D
(1675216800.559896) can0 0B0#000000001109
(1675216800.559902) can0 0B2#000000001109
(1675216800.559904) can0 223#000000000000002D
(1675216800.560273) can0 2C1#08016E0070CB007D
(1675216800.565941) can0 020#000007
(1675216800.565946) can0 0B4#00000000000000BC
(1675216800.565947) can0 260#0E00000000000078
(1675216800.565950) can0 024#020301FA620A8018
(1675216800.566470) can0 025#00160FC37878787D
(1675216800.571700) can0 3A0#005500000000001E
(1675216800.571710) can0 620#1000022DF0402040
(1675216800.571713) can0 0B0#00000000110A
(1675216800.572190) can0 0B2#00000000110A
(1675216800.572197) can0 224#0000000000000008
(1675216800.573273) can0 235#00000000003D
(1675216800.575776) can0 2C4#038C00190880211F
(1675216800.578019) can0 020#000007
(1675216800.578027) can0 0B4#00000000000000BC
(1675216800.578030) can0 025#00160FC37878787D
(1675216800.578654) can0 024#020301FB620A8019
(1675216800.581971) can0 2D0#06A80900100000A1
(1675216800.584112) can0 0B0#00000000110B
(1675216800.584117) can0 0B2#00000000110B
(1675216800.584120) can0 223#000000000000002D
(1675216800.585850) can0 260#0E00000000000078
(1675216800.586575) can0 351#00000000
(1675216800.590558) can0 020#000007
(1675216800.590565) can0 0B4#00000000000000BC
(1675216800.591705) can0 025#00160FC37878787D
(1675216800.591709) can0 024#020301F9620A8017
(1675216800.591711) can0 2C1#08016A006ECB0077
(1675216800.596339) can0 0B0#00000000110C
(1675216800.596347) can0 0B2#00000000110C
(1675216800.596351) can0 224#0000000000000008
(1675216800.596354) can0 235#00000000003D
(1675216800.596357) can0 440#4202000001000000
(1675216800.597591) can0 611#210010A000028219
(1675216800.599412) can0 2C4#038E001908802121
(1675216800.602134) can0 020#000007
(1675216800.602141) can0 0B4#00000000000000BC
(1675216800.602143) can0 024#020301F9620B8018
(1675216800.602636) can0 025#00160FC37878787D
(1675216800.604647) can0 394#00
(1675216800.605872) can0 260#0E00000000000078
(1675216800.607910) can0 0B0#00000000110D
(1675216800.607917) can0 0B2#00000000110D
(1675216800.607920) can0 223#000000000000002D
(1675216800.614176) can0 2D0#06A80900100000A1
(1675216800.614185) can0 020#000007
(1675216800.614188) can0 0B4#00000000000000BC
(1675216800.614703) can0 025#00160FC37878787D
(1675216800.615552) can0 024#020301FA620B8019
(1675216800.620593) can0 0B0#00000000110E
(1675216800.620601) can0 0B2#00000000110E
(1675216800.620603) can0 224#0000000000000008
(1675216800.620605) can0 235#00000000003D
(1675216800.622738) can0 2C4#038B00190880211E
(1675216800.623762) can0 2C1#08016A006ECB0077
(1675216800.626338) can0 260#0E00000000000078
(1675216800.626347) can0 020#000007
(1675216800.626350) can0 0B4#00000000000000BC
(1675216800.626352) can0 025#00160FC37878787D
(1675216800.626898) can0 024#020301FB620A8019
(1675216800.632292) can0 0B0#00000000110F
(1675216800.632300) can0 0B2#00000000110F
(1675216800.632303) can0 223#000000000000002D
(1675216800.633264) can0 3B7#0000800000000000
(1675216800.638085) can0 020#000007
(1675216800.638091) can0 0B4#00000000000000BC
(1675216800.638093) can0 025#00160FC37878787D
(1675216800.638789) can0 024#020301FA620A8018
(1675216800.644636) can0 0B0#000000001100
(1675216800.645268) can0 0B2#000000001100
(1675216800.645893) can0 224#0000000000000008
(1675216800.645896) can0 235#00000000003D
(1675216800.645899) can0 2D0#06A90900100000A2
(1675216800.645901) can0 260#0E00000000000078
(1675216800.647163) can0 351#00000000
(1675216800.647167) can0 2C4#038B00190880211E
(1675216800.650690) can0 020#000007
(1675216800.650698) can0 0B4#00000000000000BC
(1675216800.650702) can0 025#00160FC37878787D
(1675216800.651161) can0 024#020301FA620B8019
(1675216800.656009) can0 2C1#08016C006ECB0079
(1675216800.656016) can0 0B0#000000001101
(1675216800.656018) can0 0B2#000000001101
(1675216800.656278) can0 223#000000000000002D
(1675216800.662622) can0 020#000007
(1675216800.662627) can0 0B4#00000000000000BC
(1675216800.662629) can0 024#020301FA620B8019
(1675216800.664214) can0 025#00160FC37878787D
(1675216800.666098) can0 260#0E00000000000078
(1675216800.668470) can0 0B0#000000001102
(1675216800.668477) can0 0B2#000000001102
(1675216800.668479) can0 224#0000000000000008
(1675216800.668947) can0 235#00000000003D
(1675216800.669953) can0 2C4#038B00190880211E
(1675216800.670538) can0 3A0#005500000000001E
(1675216800.674333) can0 020#000007
(1675216800.674340) can0 0B4#00000000000000BC
(1675216800.674802) can0 025#00160FC37878787D
(1675216800.675835) can0 024#020301FA620A8018
(1675216800.677143) can0 2D0#06AA0900100000A3
(1675216800.680403) can0 0B0#000000001103
(1675216800.680408) can0 0B2#000000001103
(1675216800.682030) can0 223#000000000000002D
(1675216800.686510) can0 260#0E00000000000078
(1675216800.686518) can0 020#000007
(1675216800.687298) can0 0B4#00000000000000BC
(1675216800.687305) can0 025#00160FC37878787D
(1675216800.687308) can0 024#020301FB620A8019
(1675216800.687311) can0 442#4002000000000000
(1675216800.687313) can0 2C1#08017B0072CB008C
(1675216800.692481) can0 0B0#000000001104
(1675216800.692489) can0 0B2#000000001104
(1675216800.692673) can0 224#0000000000000008
(1675216800.693314) can0 235#00000000003D
(1675216800.693844) can0 2C4#038B00190880211E
(1675216800.698589) can0 020#000007
(1675216800.698595) can0 0B4#00000000000000BC
(1675216800.698598) can0 025#00160FC37878787D
(1675216800.699184) can0 024#020301FA620B8019
(1675216800.704527) can0 0B0#000000001105
(1675216800.704532) can0 0B2#000000001105
(1675216800.704534) can0 223#000000000000002D
(1675216800.705856) can0 260#0E00000000000078
(1675216800.705861) can0 351#00000000
(1675216800.709221) can0 2D0#06A90900100000A2
(1675216800.710392) can0 020#000007
(1675216800.710398) can0 0B4#00000000000000BC
(1675216800.711862) can0 025#00160FC38282829B
(1675216800.711874) can0 024#020301FA620B8019
(1675216800.716887) can0 0B0#000000001106
(1675216800.716893) can0 0B2#000000001106
(1675216800.716896) can0 224#0000000000000008
(1675216800.718791) can0 235#00000000003D
(1675216800.718797) can0 2C4#0384001908802117
(1675216800.718799) can0 2C1#08017D0072CB008E
(1675216800.720431) can0 3B1#0000012500000000
(1675216800.722721) can0 020#000007
(1675216800.722727) can0 0B4#00000000000000BC
(1675216800.722730) can0 024#020301FA620B8019
(1675216800.722961) can0 025#00160FC37878787D
(1675216800.725852) can0 260#0E00000000000078
(1675216800.728744) can0 0B0#000000001107
(1675216800.728759) can0 0B2#000000001107
(1675216800.730154) can0 223#000000000000002D
(1675216800.734428) can0 020#000007
(1675216800.734434) can0 0B4#00000000000000BC
(1675216800.735056) can0 024#020301FB620B801A
(1675216800.735059) can0 025#00160FC37878787D
(1675216800.741102) can0 0B0#000000001108
(1675216800.741109) can0 0B2#000000001108
(1675216800.741112) can0 224#0000000000000008
(1675216800.741115) can0 235#00000000003D
(1675216800.741390) can0 2C4#0385001908802118
(1675216800.742249) can0 2D0#06A80900100000A1
(1675216800.746336) can0 260#0E00000000000078
(1675216800.746343) can0 020#000007
(1675216800.747554) can0 0B4#00000000000000BC
(1675216800.747561) can0 025#00160FC37878787D
(1675216800.747563) can0 024#020301FB620A8019
(1675216800.751072) can0 2C1#0801790072CB008A
(1675216800.752747) can0 0B0#000000001109
(1675216800.752756) can0 0B2#000000001109
(1675216800.752760) can0 223#000000000000002D
(1675216800.759479) can0 020#000007
(1675216800.759485) can0 0B4#00000000000000BC
(1675216800.759487) can0 025#00160FC37878787D
(1675216800.760359) can0 024#020301FA620A8018
(1675216800.764398) can0 2C4#0383001908802116
(1675216800.764405) can0 0B0#00000000110A
(1675216800.764963) can0 0B2#00000000110A
(1675216800.764967) can0 224#0000000000000008
(1675216800.764969) can0 235#00000000003D
(1675216800.766071) can0 260#0E00000000000078
(1675216800.766075) can0 423#00
(1675216800.766077) can0 4C8#0900010200000000
(1675216800.766556) can0 351#00000000
(1675216800.770794) can0 3A0#005500000000001E
(1675216800.770801) can0 020#000007
(1675216800.770803) can0 0B4#00000000000000BC
(1675216800.771232) can0 025#00160FC37878787D
(1675216800.772133) can0 024#020301FA620B8019
(1675216800.772139) can0 2D0#06A509001000009E
(1675216800.777049) can0 0B0#00000000110B
(1675216800.777054) can0 0B2#00000000110B
(1675216800.777056) can0 223#000000000000002D
(1675216800.784385) can0 2C1#0801880071CC0099
(1675216800.785760) can0 020#000007
(1675216800.785765) can0 0B4#00000000000000BC
(1675216800.785767) can0 025#00160FC37878787D
(1675216800.786467) can0 024#020301FA620B8019
(1675216800.787020) can0 260#0E00000000000078
(1675216800.787023) can0 440#4202000001000000
(1675216800.787458) can0 2C4#0385001908802118
(1675216800.789095) can0 0B0#00000000110C
(1675216800.789101) can0 0B2#00000000110C
(1675216800.789104) can0 224#0000000000000008
(1675216800.790193) can0 235#00000000003D
(1675216800.795418) can0 020#000007
(1675216800.795425) can0 0B4#00000000000000BC
(1675216800.795428) can0 025#00160FC37878787D
(1675216800.795430) can0 024#020301FA620A8018
(1675216800.801260) can0 0B0#00000000110D
(1675216800.801268) can0 0B2#00000000110D
(1675216800.802521) can0 223#000000000000002D
(1675216800.803981) can0 2D0#06A0090010000099
(1675216800.806054) can0 260#0E00000000000078
(1675216800.807043) can0 020#000007
(1675216800.807048) can0 0B4#00000000000000BC
(1675216800.807050) can0 025#00160FC37878787D
(1675216800.807684) can0 024#020301FA620A8018
(1675216800.811573) can0 2C4#0384001908802117
(1675216800.812946) can0 0B0#00000000110E
(1675216800.812951) can0 0B2#00000000110E
(1675216800.812953) can0 224#0000000000000008
(1675216800.813304) can0 235#00000000003D
(1675216800.814393) can0 2C1#08017A0072CB008B
(1675216800.819274) can0 020#000007
(1675216800.819283) can0 0B4#00000000000000BC
(1675216800.819287) can0 024#020301FA620B8019
(1675216800.819290) can0 025#00160FC37878787D
(1675216800.825100) can0 0B0#00000000110F
(1675216800.825106) can0 0B2#00000000110F
(1675216800.826114) can0 223#000000000000002D
(1675216800.826119) can0 260#0E00000000000078
(1675216800.826121) can0 351#00000000
(1675216800.831266) can0 020#000007
(1675216800.831273) can0 0B4#00000000000000BC
(1675216800.831276) can0 025#00160FC37878787D
(1675216800.832396) can0 024#020301FA620A8018
(1675216800.834755) can0 2C4#038800190880211B
(1675216800.835774) can0 2D0#069C090010000095
(1675216800.836928) can0 621#1100000000000000
(1675216800.836932) can0 0B0#000000001100
(1675216800.836934) can0 0B2#000000001100
(1675216800.837299) can0 224#0000000000000008
(1675216800.838303) can0 235#00000000003D
(1675216800.842930) can0 020#000007
(1675216800.842936) can0 0B4#00000000000000BC
(1675216800.843388) can0 025#00160FC37878787D
(1675216800.843392) can0 024#020301FA620A8018
(1675216800.846167) can0 260#0E00000000000078
(1675216800.846178) can0 2C1#08017C0076CB0091
(1675216800.849105) can0 0B0#000000001101
(1675216800.849113) can0 0B2#000000001101
(1675216800.850206) can0 223#000000000000002D
(1675216800.855351) can0 020#000007
(1675216800.855358) can0 0B4#00000000000000BC
(1675216800.856072) can0 025#00160FC37878787D
(1675216800.856076) can0 024#020301FA620A8018
(1675216800.858488) can0 2C4#038A00190880211D
(1675216800.861313) can0 0B0#000000001102
(1675216800.861372) can0 0B2#000000001102
(1675216800.861378) can0 224#0000000000000008
(1675216800.861382) can0 235#00000000003D
(1675216800.866104) can0 260#0E00000000000078
(1675216800.867095) can0 020#000007
(1675216800.867103) can0 0B4#00000000000000BC
(1675216800.867617) can0 024#020301FA620A8018
(1675216800.867622) can0 025#00160FC37878787D
(1675216800.868613) can0 2D0#069A090010000093
(1675216800.870570) can0 3A0#005500000000001E
(1675216800.871407) can0 620#1000022CF0402040
(1675216800.873213) can0 0B0#000000001103
(1675216800.873219) can0 0B2#000000001103
(1675216800.873480) can0 223#000000000000002D
(1675216800.877733) can0 442#4002000000000000
(1675216800.879260) can0 2C1#0801870078CC009F
(1675216800.879267) can0 020#000007
(1675216800.879270) can0 0B4#00000000000000BC
(1675216800.879272) can0 025#00160FC37878787D
(1675216800.879275) can0 024#020301F9620B8018
(1675216800.880044) can0 4DD#1E00000100000000
(1675216800.881635) can0 2C4#038E001908802121
(1675216800.884963) can0 0B0#000000001104
(1675216800.884967) can0 0B2#000000001104
(1675216800.885346) can0 224#0000000000000008
(1675216800.885351) can0 235#00000000003D
(1675216800.885780) can0 260#0E00000000000078
(1675216800.886545) can0 351#00000000
(1675216800.889810) can0 3B3#038F28
(1675216800.890965) can0 020#000007
(1675216800.890975) can0 0B4#00000000000000BC
(1675216800.891178) can0 025#00160FC37878787D
(1675216800.891432) can0 024#020301FA620B8019
(1675216800.897277) can0 0B0#000000001105
(1675216800.897286) can0 0B2#000000001105
(1675216800.897709) can0 223#000000000000002D
(1675216800.898832) can0 610#20000064C0FFFEE0
(1675216800.898837) can0 2D0#0699090010000092
(1675216800.903017) can0 020#000007
(1675216800.903023) can0 0B4#00000000000000BC
(1675216800.903598) can0 025#00160FC37878787D
(1675216800.903606) can0 024#020301FA620A8018
(1675216800.904439) can0 394#00
(1675216800.905202) can0 2C4#038E001908802121
(1675216800.905668) can0 260#0E00000000000078
(1675216800.909143) can0 0B0#000000001106
(1675216800.909147) can0 0B2#000000001106
(1675216800.909600) can0 224#0000000000000008
(1675216800.909602) can0 235#00000000003D
(1675216800.910013) can0 2C1#0801730073CB0085
(1675216800.915217) can0 020#000007
(1675216800.915223) can0 0B4#00000000000000BC
(1675216800.915607) can0 025#00160FC37878787D
(1675216800.916041) can0 024#020301FB620A8019
(1675216800.921394) can0 0B0#000000001107
(1675216800.921398) can0 0B2#000000001107
(1675216800.922386) can0 223#000000000000002D
(1675216800.925973) can0 260#0E00000000000078
(1675216800.927713) can0 020#000007
(1675216800.927717) can0 0B4#00000000000000BC
(1675216800.927718) can0 024#020301F9620A8017
(1675216800.929048) can0 025#00160FC37878787D
(1675216800.929052) can0 2C4#038C00190880211F
(1675216800.931168) can0 2D0#069E090010000097
(1675216800.933617) can0 0B0#000000001108
(1675216800.933634) can0 0B2#000000001108
(1675216800.933637) can0 224#0000000000000008
(1675216800.933965) can0 235#00000000003D
(1675216800.933968) can0 3B7#0000800000000000
(1675216800.939577) can0 020#000007
(1675216800.939580) can0 0B4#00000000000000BC
(1675216800.939955) can0 024#020301F9620B8018
(1675216800.940682) can0 025#00160FC38282829B
(1675216800.940954) can0 2C1#080182006DCC008F
(1675216800.945489) can0 0B0#000000001109
(1675216800.945494) can0 0B2#000000001109
(1675216800.945882) can0 223#000000000000002D
(1675216800.946591) can0 260#0E00000000000078
(1675216800.946595) can0 351#00000000
(1675216800.951594) can0 020#000007
(1675216800.951598) can0 0B4#00000000000000BC
(1675216800.952139) can0 024#020301FA620B8019
(1675216800.952147) can0 025#00160FC37878787D
(1675216800.952149) can0 2C4#0386001908802119
(1675216800.957328) can0 0B0#00000000110A
(1675216800.957333) can0 0B2#00000000110A
(1675216800.957863) can0 224#0000000000000008
(1675216800.957867) can0 235#00000000003D
(1675216800.962791) can0 2D0#06A309001000009C
(1675216800.963262) can0 020#000007
(1675216800.963265) can0 0B4#00000000000000BC
(1675216800.964098) can0 025#00160FC37878787D
(1675216800.964101) can0 024#020301FA620A8018
(1675216800.966163) can0 260#0E00000000000078
(1675216800.969488) can0 0B0#00000000110B
(1675216800.969492) can0 0B2#00000000110B
(1675216800.969625) can0 223#000000000000002D
(1675216800.970110) can0 3A0#005500000000001E
(1675216800.973365) can0 2C1#0801890071CC009A
(1675216800.975366) can0 020#000007
(1675216800.975370) can0 0B4#00000000000000BC
(1675216800.975866) can0 2C4#0385001908802118
(1675216800.975869) can0 025#00160FC37878787D
(1675216800.976345) can0 440#4202000001000000
(1675216800.976347) can0 024#020301FA620A8018
(1675216800.982096) can0 0B0#00000000110C
(1675216800.983220) can0 0B2#00000000110C
(1675216800.983224) can0 224#0000000000000008
(1675216800.985028) can0 235#00000000003D
(1675216800.985778) can0 260#0E00000000000078
(1675216800.987723) can0 020#000007
(1675216800.987727) can0 0B4#00000000000000BC
(1675216800.987729) can0 024#020301F9620B8018
(1675216800.987964) can0 025#00160FC37878787D
(1675216800.993599) can0 0B0#00000000110D
(1675216800.993605) can0 0B2#00000000110D
(1675216800.993607) can0 223#000000000000002D
(1675216800.994337) can0 2D0#06A609001000009F
(1675216800.997073) can0 623#1900000000000000
(1675216800.999666) can0 2C4#0385001908802118
(1675216800.999671) can0 020#000007
(1675216800.999675) can0 0B4#00000000000000BC
(1675216800.999928) can0 025#00160FC37878787D
(1675216801.000256) can0 024#020301FA620B8019
(1675216801.004977) can0 2C1#0801860070CC0096
(1675216801.005494) can0 0B0#00000000110E
(1675216801.005497) can0 0B2#00000000110E
(1675216801.006124) can0 224#0000000000000008
(1675216801.006128) can0 235#00000000003D
(1675216801.006448) can0 260#0E00000000000078
(1675216801.006452) can0 624#1A00414949400000
(1675216801.006631) can0 351#00000000
(1675216801.011929) can0 020#000007
(1675216801.011934) can0 0B4#00000000000000BC
(1675216801.011936) can0 4C3#0300120100000000
(1675216801.012237) can0 025#00160FC37878787D
(1675216801.013192) can0 024#020301FA620A8018
(1675216801.015686) can0 638#1300040000000000
(1675216801.017526) can0 0B0#00000000110F
(1675216801.017530) can0 0B2#00000000110F
(1675216801.018034) can0 223#000000000000002D
(1675216801.023235) can0 2C4#038700190880211A
(1675216801.023238) can0 020#000007
(1675216801.023832) can0 0B4#00000000000000BC
(1675216801.023837) can0 025#00160FC37878787D
(1675216801.024489) can0 024#020301FA620A8018
(1675216801.024789) can0 630#1700000000000000
(1675216801.025865) can0 260#0E00000000000078
(1675216801.025868) can0 2D0#06A509001000009E
(1675216801.029557) can0 0B0#000000001100
(1675216801.029561) can0 0B2#000000001100
(1675216801.030020) can0 224#0000000000000008
(1675216801.030027) can0 235#00000000003D
(1675216801.034097) can0 638#1380060000000000
(1675216801.036152) can0 020#000007
(1675216801.036155) can0 0B4#00000000000000BC
(1675216801.036157) can0 024#020301FA620A8018
(1675216801.036429) can0 025#00160FC37878787D
(1675216801.037544) can0 2C1#0801860074CC009A
(1675216801.041682) can0 0B0#000000001101
(1675216801.041688) can0 0B2#000000001101
(1675216801.041964) can0 223#000000000000002D
(1675216801.045923) can0 260#0E00000000000078
(1675216801.046512) can0 2C4#038700190880211A
(1675216801.047637) can0 020#000007
(1675216801.047640) can0 0B4#00000000000000BC
(1675216801.047880) can0 025#00160FC37878787D
(1675216801.048227) can0 024#020301FA620B8019
(1675216801.054124) can0 0B0#000000001102
(1675216801.054128) can0 0B2#000000001102
(1675216801.054129) can0 224#0000000000000008
(1675216801.054959) can0 235#00000000003D
(1675216801.058159) can0 2D0#06A109001000009A
(1675216801.059750) can0 020#000007
(1675216801.059756) can0 0B4#00000000000000BC
(1675216801.060097) can0 025#00160FC37878787D
(1675216801.060447) can0 024#020301FA620B8019
(1675216801.065683) can0 0B0#000000001103
(1675216801.065686) can0 0B2#000000001103
(1675216801.066097) can0 223#000000000000002D
(1675216801.066471) can0 260#0E00000000000078
(1675216801.066475) can0 351#00000000
(1675216801.068076) can0 2C1#0801780072CB0089
(1675216801.070206) can0 2C4#038A00190880211D
(1675216801.070210) can0 3A0#005300000000001E
(1675216801.071693) can0 020#000007
(1675216801.071743) can0 0B4#00000000000000BC
(1675216801.071891) can0 025#00160FC37878787D
(1675216801.072687) can0 024#020301FA620A8018
(1675216801.077153) can0 442#4002000000000000
(1675216801.077740) can0 0B0#000000001104
(1675216801.077744) can0 0B2#000000001104
(1675216801.078018) can0 224#0000000000000008
(1675216801.078610) can0 235#00000000003D
(1675216801.084571) can0 020#000007
(1675216801.085945) can0 0B4#00000000000000BC
(1675216801.085948) can0 024#020301FB620A8019
(1675216801.085949) can0 025#00160FC37878787D
(1675216801.087983) can0 260#0E00000000000078
(1675216801.089445) can0 2D0#069F090010000098
(1675216801.089648) can0 0B0#000000001105
(1675216801.089894) can0 0B2#000000001105
(1675216801.090174) can0 223#000000000000002D
(1675216801.093592) can0 2C4#038A00190880211D
(1675216801.095682) can0 020#000007
(1675216801.095901) can0 0B4#00000000000000BC
(1675216801.096346) can0 025#00160FC37878787D
(1675216801.096350) can0 024#020301FA620A8119
(1675216801.099774) can0 2C1#0801780074CB008B
(1675216801.100130) can0 4DC#1D00030200000000
(1675216801.102102) can0 0B0#000000001106
(1675216801.102107) can0 0B2#000000001106
(1675216801.102397) can0 224#0000000000000008
(1675216801.103800) can0 235#00000000003D
(1675216801.105993) can0 260#0E00000000000078
(1675216801.108046) can0 020#000007
(1675216801.108056) can0 0B4#00000000000000BC
(1675216801.108177) can0 025#00160FC37878787D
(1675216801.108571) can0 024#020301F9620B8018
(1675216801.110196) can0 38C#0000000000000037
(1675216801.114122) can0 0B0#000000001107
(1675216801.114128) can0 0B2#000000001107
(1675216801.115161) can0 223#000000000000002D
(1675216801.117431) can0 2C4#038D001908802120
(1675216801.119960) can0 020#000007
(1675216801.119964) can0 0B4#00000000000000BC
(1675216801.120163) can0 025#00160FC37878787D
(1675216801.120779) can0 024#020301FA620B8019
(1675216801.121214) can0 2D0#069F090010000098
(1675216801.126144) can0 260#0E00000000000078
(1675216801.126148) can0 0B0#000000001108
(1675216801.126570) can0 0B2#000000001108
(1675216801.126574) can0 224#0000000000000008
(1675216801.126979) can0 235#00000000003D
(1675216801.126982) can0 351#00000000
(1675216801.131546) can0 2C1#0801780077CB008E
(1675216801.132199) can0 020#000007
(1675216801.132208) can0 0B4#00000000000000BC
(1675216801.132210) can0 025#00160FC37878787D
(1675216801.133211) can0 024#020301FB620A8019
(1675216801.138429) can0 0B0#000000001109
(1675216801.138435) can0 0B2#000000001109
(1675216801.140050) can0 223#000000000000002D
(1675216801.140054) can0 3B0#0000002A0000
(1675216801.140596) can0 2C4#038900190880211C
(1675216801.144653) can0 020#000007
(1675216801.144659) can0 0B4#00000000000000BC
(1675216801.144661) can0 024#020301FA620A8018
(1675216801.144662) can0 025#00160FC37878787D
(1675216801.145905) can0 260#0E00000000000078
(1675216801.150786) can0 0B0#00000000110A
(1675216801.150792) can0 0B2#00000000110A
(1675216801.150793) can0 224#0000000000000008
(1675216801.150795) can0 235#00000000003D
(1675216801.153105) can0 2D0#069F090010000098
(1675216801.156504) can0 020#000007
(1675216801.156507) can0 0B4#00000000000000BC
(1675216801.156509) can0 024#020301FA620B8019
(1675216801.157047) can0 025#00160FC38282829B
(1675216801.162203) can0 0B0#00000000110B
(1675216801.162209) can0 0B2#00000000110B
(1675216801.162419) can0 223#000000000000002D
(1675216801.163172) can0 2C1#0801780072CB0089
(1675216801.164400) can0 2C4#038A00190880211D
(1675216801.166114) can0 260#0E00000000000078
(1675216801.168323) can0 020#000007
(1675216801.168327) can0 0B4#00000000000000BC
(1675216801.168935) can0 024#020301FA620B8019
(1675216801.169440) can0 025#00160FC37878787D
(1675216801.170008) can0 3A0#005300000000001E
(1675216801.171477) can0 620#1000022DF0402040
(1675216801.174536) can0 0B0#00000000110C
(1675216801.174539) can0 0B2#00000000110C
(1675216801.174913) can0 224#0000000000000008
(1675216801.175676) can0 235#00000000003D
(1675216801.176309) can0 440#4202000001000000
(1675216801.180371) can0 020#000007
(1675216801.180374) can0 0B4#00000000000000BC
(1675216801.181308) can0 025#00160FC37878787D
(1675216801.181311) can0 024#020301FA620A8018
(1675216801.185058) can0 2D0#06A209001000009B
(1675216801.185873) can0 260#0E00000000000078
(1675216801.186346) can0 0B0#00000000110D
(1675216801.186348) can0 0B2#00000000110D
(1675216801.186820) can0 223#000000000000002D
(1675216801.186822) can0 351#00000000
(1675216801.188099) can0 2C4#038B00190880211E
(1675216801.192452) can0 020#000007
(1675216801.192456) can0 0B4#00000000000000BC
(1675216801.193040) can0 025#00160FC37878787D
(1675216801.193481) can0 024#020301FB620A8019
(1675216801.195283) can0 2C1#08017E0074CB0091
(1675216801.198835) can0 0B0#00000000110E
(1675216801.198838) can0 0B2#00000000110E
(1675216801.198840) can0 224#0000000000000008
(1675216801.200044) can0 235#00000000003D
(1675216801.200048) can0 380#200808100000FD00
(1675216801.204480) can0 020#000007
(1675216801.204484) can0 0B4#00000000000000BC
(1675216801.204485) can0 394#00
(1675216801.204931) can0 024#020301FA620A8018
(1675216801.204933) can0 025#00160FC37878787D
(1675216801.205903) can0 260#0E00000000000078
(1675216801.210885) can0 0B0#00000000110F
(1675216801.210889) can0 0B2#00000000110F
(1675216801.210891) can0 223#000000000000002D
(1675216801.211320) can0 2C4#038700190880211A
(1675216801.217211) can0 020#000007
(1675216801.217217) can0 0B4#00000000000000BC
(1675216801.217220) can0 2D0#06A309001000009C
(1675216801.217221) can0 024#020301F9620B8018
(1675216801.217223) can0 025#00160FC37878787D
(1675216801.222733) can0 0B0#000000001100
(1675216801.222738) can0 0B2#000000001100
(1675216801.222741) can0 224#0000000000000008
(1675216801.222954) can0 235#00000000003D
(1675216801.226302) can0 260#0E00000000000078
(1675216801.226655) can0 2C1#08017D0070CB008C
(1675216801.228473) can0 020#000007
(1675216801.228477) can0 0B4#00000000000000BC
(1675216801.229053) can0 025#00160FC37878787D
(1675216801.229295) can0 024#020301FA620B8019
(1675216801.229977) can0 3A1#0000000000FF0000
(1675216801.234495) can0 0B0#000000001101
(1675216801.234499) can0 0B2#000000001101
(1675216801.234974) can0 223#000000000000002D
(1675216801.234977) can0 2C4#038C00190880211F
(1675216801.235289) can0 3B7#0000800000000000
(1675216801.240859) can0 020#000007
(1675216801.240862) can0 0B4#00000000000000BC
(1675216801.240864) can0 025#00160FC37878787D
(1675216801.241775) can0 024#020301FA620B8019
(1675216801.246328) can0 260#0E00000000000078
(1675216801.246333) can0 0B0#000000001102
(1675216801.246561) can0 0B2#000000001102
(1675216801.247048) can0 224#0000000000000008
(1675216801.247051) can0 235#00000000003D
(1675216801.247379) can0 351#00000000
(1675216801.248265) can0 2D0#06A409001000009D
(1675216801.253113) can0 020#000007
(1675216801.253117) can0 0B4#00000000000000BC
(1675216801.253118) can0 024#020301FB620A8019
(1675216801.254114) can0 025#00160FC37878787D
(1675216801.258989) can0 2C1#08017E0071CB008E
(1675216801.258995) can0 0B0#000000001103
(1675216801.258997) can0 0B2#000000001103
(1675216801.258999) can0 223#000000000000002D
(1675216801.259287) can0 2C4#038D001908802120
(1675216801.264868) can0 020#000007
(1675216801.264871) can0 0B4#00000000000000BC
(1675216801.265363) can0 025#00160FC37878787D
(1675216801.265367) can0 024#020301FA620A8018
(1675216801.265826) can0 260#0E00000000000078
(1675216801.267197) can0 442#4002000000000000
(1675216801.270027) can0 3A0#005300000000001E
(1675216801.270803) can0 0B0#000000001104
(1675216801.270806) can0 0B2#000000001104
(1675216801.270963) can0 224#0000000000000008
(1675216801.271211) can0 235#00000000003D
(1675216801.276950) can0 622#1200E83000000000
(1675216801.276954) can0 020#000007
(1675216801.276956) can0 0B4#00000000000000BC
(1675216801.276957) can0 025#00160FC37878787D
(1675216801.277345) can0 024#020301F9620B7F17
(1675216801.280416) can0 2D0#06A509001000009E
(1675216801.282028) can0 2C4#038700190880211A
(1675216801.282707) can0 0B0#000000001105
(1675216801.282710) can0 0B2#000000001105
(1675216801.283082) can0 223#000000000000002D
(1675216801.286372) can0 260#0E00000000000078
(1675216801.289094) can0 020#000007
(1675216801.289960) can0 0B4#00000000000000BC
(1675216801.289963) can0 025#00160FC37878787D
(1675216801.290147) can0 024#020301FA620B8019
(1675216801.290149) can0 2C1#0801760070CB0085
(1675216801.294817) can0 0B0#000000001106
(1675216801.294820) can0 0B2#000000001106
(1675216801.294944) can0 224#0000000000000008
(1675216801.295252) can0 235#00000000003D
(1675216801.300999) can0 020#000007
(1675216801.301004) can0 0B4#00000000000000BC
(1675216801.301006) can0 024#020301FA620A8018
(1675216801.301227) can0 025#00160FC37878787D
(1675216801.305481) can0 2C4#0383001908802116
(1675216801.305850) can0 260#0E00000000000078
(1675216801.307020) can0 351#00000000
(1675216801.307025) can0 0B0#000000001107
(1675216801.307027) can0 0B2#000000001107
(1675216801.307362) can0 223#000000000000002D
(1675216801.311733) can0 2D0#06A70900100000A0
(1675216801.312978) can0 020#000007
(1675216801.312982) can0 0B4#00000000000000BC
(1675216801.312983) can0 025#00160FC37878787D
(1675216801.313374) can0 024#020301FA620A8018
(1675216801.319376) can0 0B0#000000001108
(1675216801.319379) can0 0B2#000000001108
(1675216801.319380) can0 224#0000000000000008
(1675216801.319382) can0 235#00000000003D
(1675216801.322224) can0 2C1#080186006CCC0092
(1675216801.325015) can0 020#000007
(1675216801.325020) can0 0B4#00000000000000BC
(1675216801.325359) can0 025#00160FC37878787D
(1675216801.325362) can0 024#020301FA620B8019
(1675216801.325851) can0 260#0E00000000000078
(1675216801.329164) can0 2C4#0380001908802113
(1675216801.331010) can0 0B0#000000001109
(1675216801.331015) can0 0B2#000000001109
(1675216801.331298) can0 223#000000000000002D
(1675216801.336772) can0 020#000007
(1675216801.337232) can0 0B4#00000000000000BC
(1675216801.337235) can0 025#00160FC37878787D
(1675216801.337968) can0 024#020301FA620B8019
(1675216801.343198) can0 0B0#00000000110A
(1675216801.343208) can0 0B2#00000000110A
(1675216801.343210) can0 224#0000000000000008
(1675216801.343777) can0 235#00000000003D
(1675216801.343780) can0 2D0#06A409001000009D
(1675216801.346169) can0 260#0E00000000000078
(1675216801.349023) can0 020#000007
(1675216801.349028) can0 0B4#00000000000000BC
(1675216801.349503) can0 024#020301FA620B8019
(1675216801.349508) can0 025#00160FC37878787D
(1675216801.352634) can0 2C4#0385001908802118
(1675216801.353837) can0 2C1#0801890071CC009A
(1675216801.355191) can0 0B0#00000000110B
(1675216801.355195) can0 0B2#00000000110B
(1675216801.355197) can0 223#000000000000002D
(1675216801.361014) can0 020#000007
(1675216801.361020) can0 0B4#00000000000000BC
(1675216801.361402) can0 025#00160FC37878787D
(1675216801.361411) can0 024#020301FA620A8018
(1675216801.366127) can0 260#0E00000000000078
(1675216801.366132) can0 351#00000000
(1675216801.366134) can0 440#4202000001000000
(1675216801.367236) can0 0B0#00000000110C
(1675216801.367239) can0 0B2#00000000110C
(1675216801.367240) can0 224#0000000000000008
(1675216801.367536) can0 235#00000000003D
(1675216801.369928) can0 3A0#005300000000001E
(1675216801.373515) can0 020#000007
(1675216801.373519) can0 0B4#00000000000000BC
(1675216801.374674) can0 025#00160FC37878787D
(1675216801.374678) can0 024#020301FA620A8018
(1675216801.375118) can0 2D0#069F090010000098
(1675216801.376306) can0 2C4#038700190880211A
(1675216801.379485) can0 0B0#00000000110D
(1675216801.379489) can0 0B2#00000000110D
(1675216801.379491) can0 223#000000000000002D
(1675216801.385915) can0 020#000007
(1675216801.385921) can0 0B4#00000000000000BC
(1675216801.386141) can0 025#00160FC37878787D
(1675216801.386810) can0 2C1#0801770074CB008A
(1675216801.386813) can0 024#020301FA620B8019
(1675216801.388920) can0 260#0E00000000000078
(1675216801.391449) can0 0B0#00000000110E
(1675216801.391452) can0 0B2#00000000110E
(1675216801.391454) can0 224#0000000000000008
(1675216801.391796) can0 235#00000000003D
(1675216801.397472) can0 020#000007
(1675216801.397476) can0 0B4#00000000000000BC
(1675216801.398121) can0 610#20000064C0FFFEE0
(1675216801.398125) can0 025#00160FC38282829B
(1675216801.398443) can0 024#020301FA620B811A
(1675216801.399917) can0 2C4#0386001908802119
(1675216801.401826) can0 3B3#038628
(1675216801.403679) can0 0B0#00000000110F
(1675216801.403682) can0 0B2#00000000110F
(1675216801.403684) can0 223#000000000000002D
(1675216801.406173) can0 260#0E00000000000078
(1675216801.407016) can0 2D0#069B090010000094
(1675216801.409728) can0 020#000007
(1675216801.409732) can0 0B4#00000000000000BC
(1675216801.409735) can0 024#020301FA620B7F18
(1675216801.409874) can0 025#00160FC37878787D
(1675216801.415575) can0 0B0#000000001100
(1675216801.415579) can0 0B2#000000001100
(1675216801.415873) can0 224#0000000000000008
(1675216801.416995) can0 235#00000000003D
(1675216801.416999) can0 2C1#0801700078CB0087
(1675216801.421503) can0 020#000007
(1675216801.421507) can0 0B4#00000000000000BC
(1675216801.421894) can0 024#020301FB620A811A
(1675216801.421898) can0 025#00160FC37878787D
(1675216801.423692) can0 2C4#0385001908802118
(1675216801.425930) can0 260#0E00000000000078
(1675216801.426683) can0 351#00000000
(1675216801.427352) can0 0B0#000000001101
(1675216801.427354) can0 0B2#000000001101
(1675216801.427686) can0 223#000000000000002D
(1675216801.434081) can0 020#000007
(1675216801.434088) can0 0B4#00000000000000BC
(1675216801.434090) can0 025#00160FC37878787D
(1675216801.434091) can0 024#020301FA620A8018
(1675216801.438826) can0 2D0#0698090010000091
(1675216801.439464) can0 0B0#000000001102
(1675216801.439468) can0 0B2#000000001102
(1675216801.439936) can0 224#0000000000000008
(1675216801.439973) can0 235#00000000003D
(1675216801.443938) can0 4C6#0700010000000000
(1675216801.445364) can0 020#000007
(1675216801.445369) can0 0B4#00000000000000BC
(1675216801.445900) can0 260#0E00000000000078
(1675216801.446290) can0 025#00160FC37878787D
(1675216801.446293) can0 024#020301F9620B7F17
(1675216801.446910) can0 2C4#0384001908802117
(1675216801.449050) can0 2C1#08017E0078CB0095
(1675216801.451599) can0 0B0#000000001103
(1675216801.451603) can0 0B2#000000001103
(1675216801.453263) can0 223#000000000000002D
(1675216801.456052) can0 4C1#0100090000000000
(1675216801.457210) can0 442#4002000000000000
(1675216801.457215) can0 020#000007
(1675216801.457366) can0 0B4#00000000000000BC
(1675216801.457865) can0 024#020301FA620B8019
(1675216801.457868) can0 025#00160FC37878787D
(1675216801.463274) can0 3B4#00009AB080000000
(1675216801.463280) can0 0B0#000000001104
(1675216801.463526) can0 0B2#000000001104
(1675216801.463846) can0 224#0000000000000008
(1675216801.463849) can0 235#00000000003D
(1675216801.465974) can0 260#0E00000000000078
(1675216801.469508) can0 020#000007
(1675216801.469512) can0 0B4#00000000000000BC
(1675216801.469930) can0 3A0#005300000000001E
(1675216801.469933) can0 024#020301FA620A8018
(1675216801.470521) can0 025#00160FC37878787D
(1675216801.470525) can0 2C4#0386001908802119
(1675216801.470786) can0 2D0#0697090010000090
(1675216801.471458) can0 620#1000022CF0402040
(1675216801.475573) can0 0B0#000000001105
(1675216801.475577) can0 0B2#000000001105
(1675216801.475883) can0 223#000000000000002D
(1675216801.480696) can0 2C1#08017F007CCB009A
(1675216801.481495) can0 020#000007
(1675216801.481499) can0 0B4#00000000000000BC
(1675216801.482082) can0 025#00160FC37878787D
(1675216801.482084) can0 024#020301FB62098018
(1675216801.486172) can0 260#0E00000000000078
(1675216801.486799) can0 351#00000000
(1675216801.487783) can0 0B0#000000001106
(1675216801.487787) can0 0B2#000000001106
(1675216801.487789) can0 224#0000000000000008
(1675216801.487977) can0 235#00000000003D
(1675216801.489546) can0 4C7#0800012100000000
(1675216801.493551) can0 020#000007
(1675216801.493555) can0 0B4#00000000000000BC
(1675216801.493966) can0 2C4#038700190880211A
(1675216801.494185) can0 025#00160FC37878787D
(1675216801.494405) can0 024#020301FA620A8018
(1675216801.499982) can0 0B0#000000001107
(1675216801.499985) can0 0B2#000000001107
(1675216801.501181) can0 223#000000000000002D
(1675216801.502318) can0 2D0#0697090010000090
(1675216801.504647) can0 394#00
(1675216801.505602) can0 020#000007
(1675216801.505605) can0 0B4#00000000000000BC
(1675216801.505930) can0 260#0E00000000000078
(1675216801.506248) can0 025#00160FC37878787D
(1675216801.506813) can0 024#020301FA620B8019
(1675216801.511706) can0 0B0#000000001108
(1675216801.511711) can0 0B2#000000001108
(1675216801.512274) can0 224#0000000000000008
(1675216801.512278) can0 235#00000000003D
(1675216801.512279) can0 2C1#0801750074CB0088
(1675216801.517868) can0 2C4#038900190880211C
(1675216801.517874) can0 020#000007
(1675216801.517876) can0 0B4#00000000000000BC
(1675216801.518229) can0 025#00160FC37878787D
(1675216801.518233) can0 024#020301FA620A8018
(1675216801.523999) can0 0B0#000000001109
(1675216801.524002) can0 0B2#000000001109
(1675216801.524004) can0 223#000000000000002D
(1675216801.527068) can0 260#0E00000000000078
(1675216801.530029) can0 020#000007
(1675216801.530034) can0 0B4#00000000000000BC
(1675216801.530036) can0 025#00160FC37878787D
(1675216801.530298) can0 024#020301FA620A8018
(1675216801.534096) can0 2D0#0697090010000090
(1675216801.536239) can0 0B0#00000000110A
(1675216801.536242) can0 0B2#00000000110A
(1675216801.536311) can0 224#0000000000000008
(1675216801.536605) can0 235#00000000003D
(1675216801.537255) can0 3B7#0000800000000000
(1675216801.541366) can0 2C4#038800190880211B
(1675216801.541742) can0 020#000007
(1675216801.541746) can0 0B4#00000000000000BC
(1675216801.542137) can0 025#00160FC37878787D
(1675216801.542627) can0 024#020301FA620A8018
(1675216801.544453) can0 2C1#08016E0076CB0083
(1675216801.546543) can0 260#0E00000000000078
(1675216801.546547) can0 351#00000000
(1675216801.548177) can0 0B0#00000000110B
(1675216801.548181) can0 0B2#00000000110B
(1675216801.548182) can0 223#000000000000002D
(1675216801.554163) can0 020#000007
(1675216801.554166) can0 0B4#00000000000000BC
(1675216801.555367) can0 025#00160FC37878787D
(1675216801.555373) can0 024#020301FA620B8019
(1675216801.556282) can0 440#4202000001000000
(1675216801.560018) can0 0B0#00000000110C
(1675216801.560386) can0 0B2#00000000110C
(1675216801.560389) can0 224#0000000000000008
(1675216801.561354) can0 235#00000000003D
(1675216801.564607) can0 2C4#038800190880211B
(1675216801.565694) can0 2D0#0699090010000092
(1675216801.565700) can0 020#000007
(1675216801.566004) can0 0B4#00000000000000BC
(1675216801.566307) can0 024#020301FA620B8019
(1675216801.566309) can0 025#00160FC37878787D
(1675216801.566626) can0 260#0E00000000000078
(1675216801.569906) can0 3A0#005500000000001E
(1675216801.571973) can0 0B0#00000000110D
(1675216801.571980) can0 0B2#00000000110D
(1675216801.572277) can0 223#000000000000002D
(1675216801.576053) can0 2C1#08016B0073CB007D
(1675216801.578002) can0 020#000007
(1675216801.578007) can0 0B4#00000000000000BC
(1675216801.578409) can0 025#00160FC37878787D
(1675216801.578412) can0 024#020301FA620B8019
(1675216801.584264) can0 0B0#00000000110E
(1675216801.584269) can0 0B2#00000000110E
(1675216801.584271) can0 224#0000000000000008
(1675216801.584529) can0 235#00000000003D
(1675216801.586052) can0 260#0E00000000000078
(1675216801.589041) can0 2C4#038700190880211A
(1675216801.590193) can0 020#000007
(1675216801.590197) can0 0B4#00000000000000BC
(1675216801.590199) can0 025#00160FC37878787D
(1675216801.590786) can0 024#020301FB620B801A
(1675216801.596078) can0 0B0#00000000110F
(1675216801.596088) can0 0B2#00000000110F
(1675216801.596205) can0 223#000000000000002D
(1675216801.597551) can0 2D0#069B090010000094
(1675216801.597554) can0 611#210010A000028219
(1675216801.602015) can0 020#000007
(1675216801.602019) can0 0B4#00000000000000BC
(1675216801.602401) can0 025#00160FC37878787D
(1675216801.603007) can0 024#020301FA620A8018
(1675216801.606076) can0 260#0E00000000000078
(1675216801.606082) can0 351#00000000
(1675216801.607730) can0 2C1#08016E0070CB007D
(1675216801.608098) can0 0B0#000000001100
(1675216801.608101) can0 0B2#000000001100
(1675216801.608567) can0 224#0000000000000008
(1675216801.608571) can0 235#00000000003D
(1675216801.611782) can0 2C4#038700190880211A
(1675216801.614027) can0 020#000007
(1675216801.614380) can0 0B4#00000000000000BC
(1675216801.614382) can0 024#020301F9620B8018
(1675216801.614679) can0 025#00160FC37878787D
(1675216801.620901) can0 0B0#000000001101
(1675216801.622731) can0 0B2#000000001101
(1675216801.622734) can0 223#000000000000002D
(1675216801.626517) can0 260#0E00000000000078
(1675216801.626523) can0 020#000007
(1675216801.627081) can0 0B4#00000000000000BC
(1675216801.627520) can0 024#020301FA620B8019
(1675216801.627523) can0 025#00160FC38282829B
(1675216801.629688) can0 2D0#069D090010000096
(1675216801.632838) can0 0B0#000000001102
(1675216801.632845) can0 0B2#000000001102
(1675216801.632848) can0 224#0000000000000008
(1675216801.632852) can0 235#00000000003D
(1675216801.635369) can0 2C4#0381001908802114
(1675216801.638670) can0 020#000007
(1675216801.638677) can0 0B4#00000000000000BC
(1675216801.638682) can0 024#020301FA620A8018
(1675216801.638910) can0 025#00160FC37878787D
(1675216801.639305) can0 2C1#0801760075CB008A
(1675216801.644935) can0 0B0#000000001103
(1675216801.646793) can0 0B2#000000001103
(1675216801.646797) can0 223#000000000000002D
(1675216801.646799) can0 260#0E00000000000078
(1675216801.647348) can0 442#4002000000000000
(1675216801.650667) can0 020#000007
(1675216801.650672) can0 0B4#00000000000000BC
(1675216801.651406) can0 025#00160FC37878787D
(1675216801.651410) can0 024#020301FB620A8019
(1675216801.656927) can0 0B0#000000001104
(1675216801.656936) can0 0B2#000000001104
(1675216801.658343) can0 224#0000000000000008
(1675216801.658347) can0 235#00000000003D
(1675216801.658900) can0 2C4#0382001908802115
(1675216801.661319) can0 2D0#069E090010000097
(1675216801.662502) can0 020#000007
(1675216801.662507) can0 0B4#00000000000000BC
(1675216801.663532) can0 025#00160FC37878787D
(1675216801.663537) can0 024#020301FA620A8018
(1675216801.666846) can0 260#0E00000000000078
(1675216801.666855) can0 351#00000000
(1675216801.668944) can0 0B0#000000001105
(1675216801.668949) can0 0B2#000000001105
(1675216801.668952) can0 223#000000000000002D
(1675216801.669713) can0 3A0#005500000000001E
(1675216801.671383) can0 2C1#08017E0077CB0094
(1675216801.675033) can0 020#000007
(1675216801.675040) can0 0B4#00000000000000BC
(1675216801.675043) can0 024#020301FA620B8019
(1675216801.675096) can0 025#00160FC37878787D
(1675216801.680799) can0 0B0#000000001106
(1675216801.681197) can0 0B2#000000001106
(1675216801.682656) can0 224#0000000000000008
(1675216801.682663) can0 235#00000000003D
(1675216801.682666) can0 2C4#0382001908802115
(1675216801.683031) can0 38A#0800040000
(1675216801.686607) can0 260#0E00000000000078
(1675216801.686615) can0 020#000007
(1675216801.686619) can0 0B4#00000000000000BC
(1675216801.686983) can0 024#020301FA620B8019
(1675216801.687466) can0 025#00160FC37878787D
(1675216801.693120) can0 0B0#000000001107
(1675216801.693125) can0 0B2#000000001107
(1675216801.693127) can0 223#000000000000002D
(1675216801.694105) can0 2D0#069B090010000094
(1675216801.699080) can0 020#000007
(1675216801.699086) can0 0B4#00000000000000BC
(1675216801.699342) can0 025#00160FC37878787D
(1675216801.700514) can0 024#020401FA620A8019
(1675216801.703225) can0 2C1#0801740083CB0096
(1675216801.705338) can0 0B0#000000001108
(1675216801.705345) can0 0B2#000000001108
(1675216801.705349) can0 224#0000000000000008
(1675216801.705352) can0 235#00000000003D
(1675216801.706019) can0 2C4#038800190880211B
(1675216801.706023) can0 260#0E00000000000078
(1675216801.710952) can0 020#000007
(1675216801.710960) can0 0B4#00000000000000BC
(1675216801.710964) can0 025#00160FC37878787D
(1675216801.711715) can0 024#020301FB620A811A
(1675216801.717566) can0 0B0#000000001109
(1675216801.717573) can0 0B2#000000001109
(1675216801.717577) can0 223#000000000000002D
(1675216801.720064) can0 3B1#0000012500000000
(1675216801.723273) can0 020#000007
(1675216801.723282) can0 0B4#00000000000000BC
(1675216801.723286) can0 024#020301FA620B811A
(1675216801.723289) can0 025#00160FC37878787D
(1675216801.724467) can0 2D0#069B090010000094
