(1675219253.535523) can0 020#000007
(1675219253.535548) can0 0B4#00000000D8000094
(1675219253.535918) can0 025#0FDA0FC378787850
(1675219253.536225) can0 024#020301F462098011
(1675219253.541693) can0 0B0#000000001103
(1675219253.541697) can0 0B2#000000001103
(1675219253.542000) can0 223#0500000000000032
(1675219253.547359) can0 2C4#0373001608802103
(1675219253.547364) can0 020#000007
(1675219253.547849) can0 0B4#00000000D8000094
(1675219253.548174) can0 025#0FDA0FC378787850
(1675219253.548180) can0 024#020301F362098010
(1675219253.551327) can0 260#0E00000000000078
(1675219253.551647) can0 2D0#00001000100000FA
(1675219253.553658) can0 0B0#000000001104
(1675219253.553662) can0 0B2#000000001104
(1675219253.554105) can0 224#20000000008D0008
(1675219253.555276) can0 235#00000000003D
(1675219253.555618) can0 423#00
(1675219253.559978) can0 020#000007
(1675219253.559985) can0 0B4#00000000D8000094
(1675219253.560240) can0 025#0FDA0FC378787850
(1675219253.560737) can0 024#020301F3620A8011
(1675219253.561712) can0 2C1#0803990284DC00D1
(1675219253.565616) can0 623#1900000000000000
(1675219253.565620) can0 0B0#000000001105
(1675219253.566059) can0 0B2#000000001105
(1675219253.566223) can0 223#0500000000000032
(1675219253.571328) can0 2C4#0379001608802109
(1675219253.571736) can0 260#0E00000000000078
(1675219253.571740) can0 020#000007
(1675219253.571849) can0 0B4#00000000D8000094
(1675219253.572219) can0 025#0FDA0FC378787850
(1675219253.572551) can0 351#00000000
(1675219253.575010) can0 024#020301F4620A8012
(1675219253.575720) can0 624#1A00414949400000
(1675219253.578110) can0 0B0#000000001106
(1675219253.578149) can0 0B2#000000001106
(1675219253.578387) can0 224#20000000008D0008
(1675219253.579508) can0 235#00000000003D
(1675219253.583490) can0 2D0#00001000100000FA
(1675219253.583933) can0 020#000007
(1675219253.584230) can0 0B4#00000000D8000094
(1675219253.584233) can0 025#0FDA0FC378787850
(1675219253.585303) can0 024#020301F362098010
(1675219253.585307) can0 38A#0800040000
(1675219253.590049) can0 0B0#000000001107
(1675219253.590057) can0 0B2#000000001107
(1675219253.590412) can0 223#0500000000000032
(1675219253.590416) can0 394#00
(1675219253.591764) can0 260#0E00000000000078
(1675219253.593584) can0 2C1#0803A20287DD00DE
(1675219253.594628) can0 2C4#0379001608802109
(1675219253.596098) can0 020#000007
(1675219253.596105) can0 0B4#00000000D8000094
(1675219253.596411) can0 025#0FDA0FC378787850
(1675219253.596679) can0 024#020201F462098010
(1675219253.600947) can0 440#4202000001000000
(1675219253.600953) can0 630#1700000000000000
(1675219253.602407) can0 0B0#000000001108
(1675219253.602411) can0 0B2#000000001108
(1675219253.602416) can0 224#20000000008D0008
(1675219253.602749) can0 235#00000000003D
(1675219253.608236) can0 020#000007
(1675219253.608245) can0 0B4#00000000D8000094
(1675219253.608376) can0 025#0FDA0FC378787850
(1675219253.608828) can0 024#020301F462098011
(1675219253.609890) can0 4C6#0700010000000000
(1675219253.611538) can0 260#0E00000000000078
(1675219253.614288) can0 0B0#000000001109
(1675219253.614296) can0 0B2#000000001109
(1675219253.615038) can0 223#0500000000000032
(1675219253.615728) can0 2D0#00001000100000FA
(1675219253.618098) can0 2C4#037B00160880210B
(1675219253.620160) can0 020#000007
(1675219253.620168) can0 0B4#00000000D8000094
(1675219253.620174) can0 025#0FDA0FC378787850
(1675219253.621235) can0 024#020301F3620A8011
(1675219253.625561) can0 2C1#0803A6028ADD00E5
(1675219253.626411) can0 0B0#00000000110A
(1675219253.626414) can0 0B2#00000000110A
(1675219253.627442) can0 224#20000000008D0008
(1675219253.629428) can0 235#00000000003D
(1675219253.631596) can0 260#0E00000000000078
(1675219253.632005) can0 020#000007
(1675219253.632062) can0 0B4#00000000D8000094
(1675219253.632245) can0 025#0FDA0FC378787850
(1675219253.632718) can0 024#020301F3620A8011
(1675219253.632720) can0 351#00000000
(1675219253.633778) can0 3A0#004C00000000001A
(1675219253.638053) can0 0B0#00000000110B
(1675219253.638061) can0 0B2#00000000110B
(1675219253.638488) can0 223#0500000000000032
(1675219253.641631) can0 2C4#037F00160880210F
(1675219253.644431) can0 020#000007
(1675219253.644439) can0 0B4#00000000D8000094
(1675219253.644442) can0 025#0FDA0FC378787850
(1675219253.644613) can0 024#020301F462098011
(1675219253.646948) can0 2D0#00001000100000FA
(1675219253.650594) can0 0B0#00000000110C
(1675219253.650599) can0 0B2#00000000110C
(1675219253.651551) can0 224#20000000008D0008
(1675219253.651556) can0 235#00000000003D
(1675219253.653685) can0 260#0E00000000000078
(1675219253.655776) can0 020#000007
(1675219253.656311) can0 0B4#00000000D8000094
(1675219253.656315) can0 025#0FDA0FC378787850
(1675219253.656871) can0 024#020301F562098012
(1675219253.657046) can0 2C1#08039C0285DC00D5
(1675219253.662249) can0 0B0#00000000110D
(1675219253.662503) can0 0B2#00000000110D
(1675219253.663598) can0 223#0500000000000032
(1675219253.665740) can0 2C4#037D00160880210D
(1675219253.668179) can0 020#000007
(1675219253.668185) can0 0B4#00000000D8000094
(1675219253.668429) can0 025#0FDA0FC378787850
(1675219253.669401) can0 024#020301F362098010
(1675219253.671782) can0 260#0E00000000000078
(1675219253.674640) can0 0B0#00000000110E
(1675219253.674647) can0 0B2#00000000110E
(1675219253.674651) can0 224#20000000008D0008
(1675219253.675642) can0 235#00000000003D
(1675219253.678552) can0 2D0#00001000100000FA
(1675219253.680334) can0 020#000007
(1675219253.680339) can0 0B4#00000000D8000094
(1675219253.680489) can0 024#020301F3620A8011
(1675219253.680744) can0 025#0FDA0FC378787850
(1675219253.686604) can0 0B0#00000000110F
(1675219253.686612) can0 0B2#00000000110F
(1675219253.686616) can0 223#0500000000000032
(1675219253.689019) can0 2C1#08039A0286DC00D4
(1675219253.689025) can0 2C4#0382001608802112
(1675219253.691594) can0 260#0E00000000000078
(1675219253.692350) can0 020#000007
(1675219253.692533) can0 0B4#00000000D8000094
(1675219253.692777) can0 351#00000000
(1675219253.693139) can0 024#020301F3620A8011
(1675219253.693143) can0 025#0FDA0FC38282826E
(1675219253.699120) can0 0B0#000000001100
(1675219253.699127) can0 0B2#000000001100
(1675219253.699130) can0 224#20000000008D0008
(1675219253.699292) can0 235#00000000003D
(1675219253.700782) can0 442#4002000000000000
(1675219253.704484) can0 020#000007
(1675219253.704490) can0 0B4#00000000D8000094
(1675219253.705155) can0 025#0FDA0FC378787850
(1675219253.705398) can0 024#020301F462098011
(1675219253.710460) can0 2D0#00001000100000FA
(1675219253.710469) can0 0B0#000000001101
(1675219253.710474) can0 0B2#000000001101
(1675219253.711176) can0 223#0500000000000032
(1675219253.711464) can0 260#0E00000000000078
(1675219253.712308) can0 2C4#0380001608802110
(1675219253.716691) can0 020#000007
(1675219253.716757) can0 0B4#00000000D8000094
(1675219253.717119) can0 025#0FDA0FC378787850
(1675219253.717360) can0 024#020301F462088010
(1675219253.722538) can0 2C1#0803990287DC00D4
(1675219253.722542) can0 0B0#000000001102
(1675219253.723052) can0 0B2#000000001102
(1675219253.724750) can0 224#20000000008D0008
(1675219253.726799) can0 235#00000000003D
(1675219253.728888) can0 020#000007
(1675219253.729608) can0 0B4#00000000D8000094
(1675219253.729613) can0 025#0FDA0FC378787850
(1675219253.731764) can0 024#020301F3620A8011
(1675219253.732973) can0 260#0E00000000000078
(1675219253.734940) can0 3A0#004C00000000001A
(1675219253.734945) can0 0B0#000000001103
(1675219253.736155) can0 0B2#000000001103
(1675219253.736160) can0 223#0500000000000032
(1675219253.737295) can0 2C4#037D00160880210D
(1675219253.740817) can0 020#000007
(1675219253.740824) can0 0B4#00000000D8000094
(1675219253.741050) can0 621#1100000000000000
(1675219253.741349) can0 024#020301F4620A8012
(1675219253.741849) can0 025#0FDA0FC378787850
(1675219253.741857) can0 2D0#00001000100000FA
(1675219253.742980) can0 4C7#0800012100000000
(1675219253.746880) can0 0B0#000000001104
(1675219253.746887) can0 0B2#000000001104
(1675219253.746896) can0 224#20000000008D0008
(1675219253.747246) can0 235#00000000003D
(1675219253.751617) can0 260#0E00000000000078
(1675219253.752250) can0 2C1#08039C0282DC00D2
(1675219253.752546) can0 351#00000000
(1675219253.752551) can0 020#000007
(1675219253.752881) can0 0B4#00000000D8000094
(1675219253.753037) can0 025#0FDA0FC378787850
(1675219253.753323) can0 024#020301F362098010
(1675219253.758869) can0 0B0#000000001105
(1675219253.758876) can0 0B2#000000001105
(1675219253.758881) can0 223#0500000000000032
(1675219253.759520) can0 2C4#037D00160880210D
(1675219253.764548) can0 020#000007
(1675219253.764555) can0 0B4#00000000D8000094
(1675219253.765115) can0 025#0FDA0FC378787850
(1675219253.765464) can0 024#020301F462098011
(1675219253.770861) can0 0B0#000000001106
(1675219253.770872) can0 0B2#000000001106
(1675219253.770874) can0 224#20000000008D0008
(1675219253.771204) can0 235#00000000003D
(1675219253.771899) can0 260#0E00000000000078
(1675219253.771903) can0 3B7#0000800000000000
(1675219253.773952) can0 2D0#00001000100000FA
(1675219253.777024) can0 020#000007
(1675219253.777714) can0 0B4#00000000D8000094
(1675219253.777717) can0 025#0FDA0FC378787850
(1675219253.779104) can0 024#020301F562098012
(1675219253.782960) can0 0B0#000000001107
(1675219253.783151) can0 0B2#000000001107
(1675219253.784071) can0 223#0500000000000032
(1675219253.784077) can0 2C4#037C00160880210C
(1675219253.785608) can0 2C1#0803AF0282DD00E6
(1675219253.789172) can0 020#000007
(1675219253.789174) can0 0B4#00000000D8000094
(1675219253.789178) can0 024#020301F3620A8011
(1675219253.789181) can0 025#0FDA0FC378787850
(1675219253.791721) can0 260#0E00000000000078
(1675219253.795596) can0 0B0#000000001108
(1675219253.797252) can0 0B2#000000001108
(1675219253.798664) can0 224#20000000008D0008
(1675219253.800607) can0 235#00000000003D
(1675219253.800668) can0 440#4202000001000000
(1675219253.801196) can0 020#000007
(1675219253.801203) can0 0B4#00000000D8000094
(1675219253.801414) can0 025#0FDA0FC378787850
(1675219253.801423) can0 024#020301F3620A8011
(1675219253.805745) can0 2D0#00001000100000FA
(1675219253.806380) can0 620#1000025DF0402000
(1675219253.806741) can0 2C4#0376001608802106
(1675219253.807045) can0 0B0#000000001109
(1675219253.807339) can0 0B2#000000001109
(1675219253.808106) can0 223#0500000000000032
(1675219253.811649) can0 260#0E00000000000078
(1675219253.812472) can0 351#00000000
(1675219253.812869) can0 020#000007
(1675219253.812873) can0 0B4#00000000D8000094
(1675219253.813059) can0 025#0FDA0FC378787850
(1675219253.813565) can0 024#020301F3620A8011
(1675219253.815767) can0 2C1#0803B2027DDD00E4
(1675219253.819179) can0 0B0#00000000110A
(1675219253.819186) can0 0B2#00000000110A
(1675219253.819349) can0 224#20000000008D0008
(1675219253.819667) can0 235#00000000003D
(1675219253.825087) can0 020#000007
(1675219253.825095) can0 0B4#00000000D8000094
(1675219253.825251) can0 025#0FDA0FC378787850
(1675219253.825804) can0 024#020301F562098012
(1675219253.830153) can0 2C4#037A00160880210A
(1675219253.830774) can0 0B0#00000000110B
(1675219253.831133) can0 0B2#00000000110B
(1675219253.831244) can0 223#0500000000000032
(1675219253.831864) can0 260#0E00000000000078
(1675219253.832540) can0 3A0#004C00000000001A
(1675219253.837214) can0 020#000007
(1675219253.837220) can0 0B4#00000000D8000094
(1675219253.837283) can0 025#0FDA0FC378787850
(1675219253.837690) can0 2D0#00001000100000FA
(1675219253.838165) can0 024#020301F362098010
(1675219253.843322) can0 0B0#00000000110C
(1675219253.843330) can0 0B2#00000000110C
(1675219253.843688) can0 224#20000000008D0008
(1675219253.843699) can0 235#00000000003D
(1675219253.847682) can0 2C1#0803B60282DD00ED
(1675219253.849240) can0 020#000007
(1675219253.849244) can0 0B4#00000000D8000094
(1675219253.849486) can0 025#0FDA0FC378787850
(1675219253.849746) can0 024#020301F2620A8010
(1675219253.851618) can0 260#0E00000000000078
(1675219253.853723) can0 2C4#0377001608802107
(1675219253.855332) can0 0B0#00000000110D
(1675219253.855339) can0 0B2#00000000110D
(1675219253.855342) can0 223#0500000000000032
(1675219253.861477) can0 020#000007
(1675219253.861483) can0 0B4#00000000D8000094
(1675219253.861486) can0 025#0FDA0FC378787850
(1675219253.861602) can0 024#020301F3620A8011
(1675219253.865800) can0 3B3#037728
(1675219253.867230) can0 0B0#00000000110E
(1675219253.867235) can0 0B2#00000000110E
(1675219253.867633) can0 224#20000000008D0008
(1675219253.868920) can0 235#00000000003D
(1675219253.868923) can0 2D0#00001000100000FA
(1675219253.871028) can0 638#1300000000000000
(1675219253.871556) can0 260#0E00000000000078
(1675219253.872271) can0 351#00000000
(1675219253.873158) can0 020#000007
(1675219253.873164) can0 0B4#00000000D8000094
(1675219253.873417) can0 025#0FDA0FC378787850
(1675219253.874908) can0 024#020301F4620A8012
(1675219253.877234) can0 2C4#037A00160880210A
(1675219253.879304) can0 0B0#00000000110F
(1675219253.879311) can0 0B2#00000000110F
(1675219253.879682) can0 223#0500000000000032
(1675219253.879688) can0 2C1#0803B20281DD00E8
(1675219253.885354) can0 020#000007
(1675219253.885362) can0 0B4#00000000D8000094
(1675219253.885366) can0 025#0FDA0FC378787850
(1675219253.885690) can0 4C1#0100090000000000
(1675219253.886233) can0 024#020301F462098011
(1675219253.890525) can0 394#00
(1675219253.890969) can0 610#20000064C0FFFEE0
(1675219253.890973) can0 0B0#000000001100
(1675219253.891524) can0 0B2#000000001100
(1675219253.891530) can0 224#20000000008D0008
(1675219253.891667) can0 235#00000000003D
(1675219253.891996) can0 260#0E00000000000078
(1675219253.897419) can0 020#000007
(1675219253.897425) can0 0B4#00000000D8000094
(1675219253.897428) can0 024#020301F362098010
(1675219253.898336) can0 025#0FDA0FC38282826E
(1675219253.900768) can0 442#4002000000000000
(1675219253.900990) can0 2C4#037A00160880210A
(1675219253.900993) can0 2D0#00001000100000FA
(1675219253.903822) can0 0B0#000000001101
(1675219253.903828) can0 0B2#000000001101
(1675219253.905414) can0 223#0500000000000032
(1675219253.909866) can0 020#000007
(1675219253.909871) can0 0B4#00000000D8000094
(1675219253.910010) can0 024#020301F3620A8011
(1675219253.911050) can0 025#0FDA0FC378787850
(1675219253.911055) can0 2C1#0803A4027BDD00D4
(1675219253.911500) can0 260#0E00000000000078
(1675219253.913224) can0 61A#2400FFFEC000B560
(1675219253.915923) can0 0B0#000000001102
(1675219253.915931) can0 0B2#000000001102
(1675219253.915936) can0 224#20000000008D0008
(1675219253.917296) can0 235#00000000003D
(1675219253.921682) can0 020#000007
(1675219253.922265) can0 0B4#00000000D8000094
(1675219253.922270) can0 025#0FDA0FC378787850
(1675219253.922407) can0 024#020301F3620A8011
(1675219253.924347) can0 2C4#037B00160880210B
(1675219253.927793) can0 0B0#000000001103
(1675219253.927801) can0 0B2#000000001103
(1675219253.927804) can0 223#0500000000000032
(1675219253.931615) can0 3A0#004D00000000001B
(1675219253.931651) can0 260#0E00000000000078
(1675219253.932555) can0 2D0#00001000100000FA
(1675219253.932556) can0 351#00000000
(1675219253.933602) can0 020#000007
(1675219253.933605) can0 0B4#00000000D8000094
(1675219253.933865) can0 025#0FDA0FC378787850
(1675219253.934306) can0 024#020201F362097F0E
(1675219253.940088) can0 0B0#000000001104
(1675219253.940096) can0 0B2#000000001104
(1675219253.940102) can0 224#20000000008D0008
(1675219253.940106) can0 235#00000000003D
(1675219253.942843) can0 2C1#08039C0280DC00D0
(1675219253.945798) can0 020#000007
(1675219253.945805) can0 0B4#00000000D8000094
(1675219253.946875) can0 025#0FDA0FC378787850
(1675219253.946881) can0 024#020301F5620A8013
(1675219253.948107) can0 2C4#037B00160880210B
(1675219253.951641) can0 0B0#000000001105
(1675219253.951891) can0 0B2#000000001105
(1675219253.952129) can0 223#0500000000000032
(1675219253.953066) can0 260#0E00000000000078
(1675219253.957590) can0 020#000007
(1675219253.957596) can0 0B4#00000000D8000094
(1675219253.957886) can0 024#020301F3620A8011
(1675219253.958150) can0 025#0FDA0FC378787850
(1675219253.964362) can0 0B0#000000001106
(1675219253.964369) can0 0B2#000000001106
(1675219253.964670) can0 224#20000000008D0008
(1675219253.965485) can0 235#00000000003D
(1675219253.967492) can0 2D0#00001000100000FA
(1675219253.969941) can0 020#000007
(1675219253.969942) can0 0B4#00000000D8000094
(1675219253.969945) can0 025#0FDA0FC378787850
(1675219253.970171) can0 024#020301F3620A8011
(1675219253.971481) can0 2C4#037B00160880210B
(1675219253.971485) can0 260#0E00000000000078
(1675219253.974531) can0 2C1#0803A2028BDD00E2
(1675219253.975436) can0 0B0#000000001107
(1675219253.975959) can0 0B2#000000001107
(1675219253.975962) can0 223#0500000000000032
(1675219253.976545) can0 3B4#0000ACB001400000
(1675219253.981845) can0 020#000007
(1675219253.982068) can0 0B4#00000000D8000094
(1675219253.982643) can0 025#0FDA0FC378787850
(1675219253.982960) can0 024#020301F362098010
(1675219253.988011) can0 0B0#000000001108
(1675219253.988459) can0 0B2#000000001108
(1675219253.989250) can0 224#20000000008D0008
(1675219253.991636) can0 235#00000000003D
(1675219253.991642) can0 260#0E00000000000078
(1675219253.992692) can0 351#00000000
(1675219253.994063) can0 020#000007
(1675219253.994068) can0 0B4#00000000D8000094
(1675219253.995078) can0 025#0FDA0FC378787850
(1675219253.995083) can0 024#020201F562097F10
(1675219253.996356) can0 2C4#037D00160880210D
(1675219253.996361) can0 2D0#00001000100000FA
(1675219253.999962) can0 0B0#000000001109
(1675219253.999972) can0 0B2#000000001109
(1675219253.999977) can0 223#0500000000000032
(1675219254.000746) can0 440#4202000001000000
(1675219254.000750) can0 611#210010A00002821A
(1675219254.006472) can0 020#000007
(1675219254.006481) can0 0B4#00000000D8000094
(1675219254.006485) can0 024#020301F562098012
(1675219254.007977) can0 025#0FDA0FC378787850
(1675219254.010067) can0 2C1#0803A7028ADD00E6
(1675219254.011612) can0 260#0E00000000000078
(1675219254.011621) can0 0B0#00000000110A
(1675219254.012111) can0 0B2#00000000110A
(1675219254.012116) can0 224#20000000008D0008
(1675219254.012492) can0 235#00000000003D
(1675219254.018168) can0 020#000007
(1675219254.018173) can0 0B4#00000000D8000094
(1675219254.018685) can0 025#0FDA0FC378787850
(1675219254.019745) can0 024#020301F3620A8011
(1675219254.022077) can0 2C4#037D00160880210D
(1675219254.024544) can0 0B0#00000000110B
(1675219254.025845) can0 0B2#00000000110B
(1675219254.027970) can0 223#0500000000000032
(1675219254.027975) can0 2D0#00001000100000FA
(1675219254.029958) can0 020#000007
(1675219254.029965) can0 0B4#00000000D8000094
(1675219254.030190) can0 025#0FDA0FC378787850
(1675219254.030559) can0 024#020301F3620A8011
(1675219254.031599) can0 3A0#004D00000000001A
(1675219254.031603) can0 260#0E00000000000078
(1675219254.036045) can0 0B0#00000000110C
(1675219254.036394) can0 0B2#00000000110C
(1675219254.036399) can0 224#20000000008D0008
(1675219254.037579) can0 235#00000000003D
(1675219254.038030) can0 2C1#0803B2028DDD00F4
(1675219254.042206) can0 020#000007
(1675219254.042213) can0 0B4#00000000D8000094
(1675219254.042518) can0 025#0FDA0FC378787850
(1675219254.042871) can0 2C4#037A00160880210A
(1675219254.043528) can0 024#020301F362098010
(1675219254.048368) can0 0B0#00000000110D
(1675219254.048881) can0 0B2#00000000110D
(1675219254.050877) can0 223#0500000000000032
(1675219254.051798) can0 260#0E00000000000078
(1675219254.052169) can0 351#00000000
(1675219254.053911) can0 020#000007
(1675219254.053917) can0 0B4#00000000D8000094
(1675219254.054654) can0 024#020301F462098011
(1675219254.054920) can0 025#0FDA0FC378787850
(1675219254.059821) can0 2D0#00001000100000FA
(1675219254.060213) can0 0B0#00000000110E
(1675219254.060219) can0 0B2#00000000110E
(1675219254.060561) can0 224#20000000008D0008
(1675219254.060564) can0 235#00000000003D
(1675219254.061379) can0 4DC#1D00030200000000
(1675219254.065825) can0 2C4#0379001608802109
(1675219254.065882) can0 020#000007
(1675219254.065891) can0 0B4#00000000D8000094
(1675219254.066277) can0 025#0FDA0FC378787850
(1675219254.066481) can0 024#020301F462098011
(1675219254.070044) can0 2C1#0803A3028ADD00E2
(1675219254.072052) can0 38C#0000000000000037
(1675219254.072061) can0 260#0E00000000000078
(1675219254.072064) can0 0B0#00000000110F
(1675219254.072272) can0 0B2#00000000110F
(1675219254.072714) can0 223#0500000000000032
(1675219254.072996) can0 3B7#0000800000000000
(1675219254.078203) can0 020#000007
(1675219254.078208) can0 0B4#00000000D8000094
(1675219254.078606) can0 025#0FDA0FC378787850
(1675219254.079490) can0 024#020301F4620A8012
(1675219254.084621) can0 0B0#000000001100
(1675219254.084629) can0 0B2#000000001100
(1675219254.084634) can0 224#20000000008D0008
(1675219254.084844) can0 235#00000000003D
(1675219254.089478) can0 2C4#037F00160880210F
(1675219254.090096) can0 020#000007
(1675219254.090443) can0 0B4#00000000D8000094
(1675219254.090448) can0 025#0FDA0FC378787850
(1675219254.091185) can0 024#020301F462098011
(1675219254.091189) can0 2D0#00001000100000FA
(1675219254.091584) can0 260#0E00000000000078
(1675219254.096396) can0 0B0#000000001101
(1675219254.096402) can0 0B2#000000001101
(1675219254.096404) can0 223#0500000000000032
(1675219254.101173) can0 442#4002000000000000
(1675219254.101185) can0 3B0#0000002A0000
(1675219254.101749) can0 2C1#08039C0281DC00D1
(1675219254.101758) can0 020#000007
(1675219254.102211) can0 0B4#00000000D8000094
(1675219254.102215) can0 024#020301F36208800F
(1675219254.102810) can0 025#0FDA0FC378787850
(1675219254.105870) can0 620#1000025DF0402000
(1675219254.108422) can0 0B0#000000001102
(1675219254.108429) can0 0B2#000000001102
(1675219254.108713) can0 224#20000000008D0008
(1675219254.109361) can0 235#00000000003D
(1675219254.111660) can0 260#0E00000000000078
(1675219254.112744) can0 351#00000000
(1675219254.112750) can0 2C4#037E00160880210E
(1675219254.114659) can0 020#000007
(1675219254.114666) can0 0B4#00000000D8000094
(1675219254.114668) can0 025#0FDA0FC378787850
(1675219254.115824) can0 024#020201F562097F10
(1675219254.120277) can0 0B0#000000001103
(1675219254.120282) can0 0B2#000000001103
(1675219254.121257) can0 223#0500000000000032
(1675219254.123434) can0 2D0#00001000100000FA
(1675219254.126124) can0 020#000007
(1675219254.126561) can0 0B4#00000000D8000094
(1675219254.126568) can0 025#0FDA0FC378787850
(1675219254.127006) can0 024#020301F4620A8012
(1675219254.131717) can0 260#0E00000000000078
(1675219254.132235) can0 0B0#000000001104
(1675219254.132894) can0 0B2#000000001104
(1675219254.132900) can0 224#20000000008D0008
(1675219254.133056) can0 235#00000000003D
(1675219254.133435) can0 3A0#004D00000000001A
(1675219254.134880) can0 2C1#0803A50283DD00DD
(1675219254.136423) can0 2C4#037D00160880210D
(1675219254.138373) can0 020#000007
(1675219254.138378) can0 0B4#00000000D8000094
(1675219254.138994) can0 025#0FDA0FC38282826E
(1675219254.139298) can0 024#020201F3620A7F0F
(1675219254.144848) can0 0B0#000000001105
(1675219254.146734) can0 0B2#000000001105
(1675219254.148696) can0 223#0500000000000032
(1675219254.150630) can0 020#000007
(1675219254.150971) can0 0B4#00000000D8000094
(1675219254.151455) can0 025#0FDA0FC378787850
(1675219254.151634) can0 024#020201F36209800F
(1675219254.152817) can0 260#0E00000000000078
(1675219254.155048) can0 2D0#00001000100000FA
(1675219254.156979) can0 0B0#000000001106
(1675219254.156981) can0 0B2#000000001106
(1675219254.159923) can0 224#20000000008D0008
(1675219254.159929) can0 235#00000000003D
(1675219254.159934) can0 2C4#0381001608802111
(1675219254.161420) can0 380#200808000000F800
(1675219254.162971) can0 020#000007
(1675219254.163018) can0 0B4#00000000D8000094
(1675219254.163022) can0 024#020201F462098010
(1675219254.164113) can0 025#0FDA0FC378787850
(1675219254.164940) can0 2C1#08038F0284DC00C7
(1675219254.168811) can0 0B0#000000001107
(1675219254.168818) can0 0B2#000000001107
(1675219254.169107) can0 223#0500000000000032
(1675219254.171940) can0 260#0E00000000000078
(1675219254.172359) can0 351#00000000
(1675219254.174904) can0 020#000007
(1675219254.174960) can0 0B4#00000000D8000094
(1675219254.174963) can0 024#020201F562098112
(1675219254.175152) can0 025#0FDA0FC378787850
(1675219254.180693) can0 0B0#000000001108
(1675219254.181137) can0 0B2#000000001108
(1675219254.181148) can0 224#20000000008D0008
(1675219254.182143) can0 235#00000000003D
(1675219254.183684) can0 2C4#037E00160880210E
(1675219254.184158) can0 3B1#0000002400000000
(1675219254.187036) can0 2D0#00001000100000FA
(1675219254.187046) can0 020#000007
(1675219254.187047) can0 0B4#00000000D8000094
(1675219254.187050) can0 025#0FDA0FC378787850
(1675219254.188641) can0 024#020301F362098010
(1675219254.190353) can0 394#00
(1675219254.191494) can0 3A1#0000000000FF0000
(1675219254.191499) can0 260#0E00000000000078
(1675219254.192851) can0 0B0#000000001109
(1675219254.192856) can0 0B2#000000001109
(1675219254.192858) can0 223#0500000000000032
(1675219254.196742) can0 2C1#080386027DDC00B7
(1675219254.198859) can0 020#000007
(1675219254.198866) can0 0B4#00000000D8000094
(1675219254.199555) can0 025#0FDA0FC378787850
(1675219254.199558) can0 024#020301F3620A8011
(1675219254.200570) can0 440#4202000001000000
(1675219254.205149) can0 0B0#00000000110A
(1675219254.205157) can0 0B2#00000000110A
(1675219254.205162) can0 224#20000000008D0008
(1675219254.206377) can0 235#00000000003D
(1675219254.206772) can0 2C4#0380001608802110
(1675219254.211001) can0 020#000007
(1675219254.211058) can0 0B4#00000000D8000094
(1675219254.211270) can0 025#0FDA0FC378787850
(1675219254.211493) can0 383#0000000000000000
(1675219254.211788) can0 260#0E00000000000078
(1675219254.212368) can0 024#020301F3620A8011
(1675219254.216987) can0 0B0#00000000110B
(1675219254.216995) can0 0B2#00000000110B
(1675219254.218181) can0 223#0500000000000032
(1675219254.218184) can0 2D0#00001000100000FA
(1675219254.223246) can0 020#000007
(1675219254.223253) can0 0B4#00000000D8000094
(1675219254.223523) can0 025#0FDA0FC378787850
(1675219254.224211) can0 024#020301F462098011
(1675219254.226382) can0 4DD#1E00000100000000
(1675219254.229260) can0 2C1#08039A0289DC00D7
(1675219254.229267) can0 0B0#00000000110C
(1675219254.229270) can0 0B2#00000000110C
(1675219254.230293) can0 224#20000000008D0008
(1675219254.230297) can0 235#00000000003D
(1675219254.231538) can0 2C4#037B00160880210B
(1675219254.231545) can0 3A0#004D00000000001A
(1675219254.231549) can0 260#0E00000000000078
(1675219254.232333) can0 351#00000000
(1675219254.235313) can0 020#000007
(1675219254.235318) can0 0B4#00000000D8000094
(1675219254.236583) can0 025#0FDA0FC378787850
(1675219254.238628) can0 024#020301F462098011
(1675219254.240952) can0 622#1200E83000000000
(1675219254.241345) can0 0B0#00000000110D
(1675219254.241350) can0 0B2#00000000110D
(1675219254.242533) can0 223#0500000000000032
(1675219254.247277) can0 020#000007
(1675219254.248591) can0 0B4#00000000D8000094
(1675219254.250180) can0 025#0FDA0FC378787850
(1675219254.250188) can0 024#020301F3620A8011
(1675219254.251567) can0 2D0#00001000100000FA
(1675219254.253323) can0 260#0E00000000000078
(1675219254.253331) can0 0B0#00000000110E
(1675219254.253334) can0 0B2#00000000110E
(1675219254.253337) can0 224#20000000008D0008
(1675219254.257432) can0 235#00000000003D
(1675219254.257436) can0 2C4#037C00160880210C
(1675219254.258614) can0 020#000007
(1675219254.258974) can0 0B4#00000000D8000094
(1675219254.259216) can0 025#0FDA0FC378787850
(1675219254.260069) can0 024#020301F3620A8011
(1675219254.260073) can0 2C1#08039D0286DC00D7
(1675219254.265274) can0 0B0#00000000110F
(1675219254.265286) can0 0B2#00000000110F
(1675219254.267014) can0 223#0500000000000032
(1675219254.270922) can0 020#000007
(1675219254.270979) can0 0B4#00000000D8000094
(1675219254.271683) can0 025#0FDA0FC378787850
(1675219254.271693) can0 024#020301F362098010
(1675219254.271696) can0 260#0E00000000000078
(1675219254.277242) can0 0B0#000000001100
(1675219254.277252) can0 0B2#000000001100
(1675219254.277320) can0 224#20000000008D0008
(1675219254.277763) can0 235#00000000003D
(1675219254.277767) can0 2C4#037C00160880210C
(1675219254.281748) can0 2D0#00001000100000FA
(1675219254.282810) can0 020#000007
(1675219254.283103) can0 0B4#00000000D8000094
(1675219254.283516) can0 025#0FDA0FC378787850
(1675219254.283519) can0 024#020301F462098011
(1675219254.289329) can0 0B0#000000001101
(1675219254.289336) can0 0B2#000000001101
(1675219254.290165) can0 223#0500000000000032
(1675219254.292456) can0 260#0E00000000000078
(1675219254.293782) can0 2C1#0803980288DC00D4
(1675219254.295234) can0 351#00000000
(1675219254.295240) can0 020#000007
(1675219254.295245) can0 0B4#00000000D8000094
(1675219254.295663) can0 025#0FDA0FC378787850
(1675219254.296646) can0 024#020201F4620A7F10
(1675219254.301275) can0 442#4002000000000000
(1675219254.301293) can0 0B0#000000001102
(1675219254.301661) can0 0B2#000000001102
(1675219254.301668) can0 224#20000000008D0008
(1675219254.302140) can0 235#00000000003D
(1675219254.304417) can0 2C4#0379001608802109
(1675219254.307281) can0 020#000007
(1675219254.307287) can0 0B4#00000000D8000094
(1675219254.308147) can0 025#0FDA0FC378787850
(1675219254.308809) can0 024#020301F3620A8011
(1675219254.311886) can0 260#0E00000000000078
(1675219254.312810) can0 0B0#000000001103
(1675219254.312994) can0 0B2#000000001103
(1675219254.313469) can0 223#0500000000000032
(1675219254.313920) can0 2D0#00001000100000FA
(1675219254.319686) can0 020#000007
(1675219254.321408) can0 0B4#00000000D8000094
(1675219254.323537) can0 025#0FDA0FC378787850
(1675219254.323548) can0 024#020301F3620A8011
(1675219254.324810) can0 2C1#0803940283DC00CB
(1675219254.324816) can0 2C4#037D00160880210D
(1675219254.325143) can0 0B0#000000001104
(1675219254.325403) can0 0B2#000000001104
(1675219254.325621) can0 224#20000000008C0008
(1675219254.325629) can0 235#00000000003D
(1675219254.331165) can0 020#000007
(1675219254.331174) can0 0B4#00000000D8000094
(1675219254.331511) can0 025#0FDA0FC378787850
(1675219254.331742) can0 024#020301F4620A8012
(1675219254.331964) can0 260#0E00000000000078
(1675219254.333331) can0 3A0#004D00000000001A
(1675219254.337408) can0 0B0#000000001105
(1675219254.337414) can0 0B2#000000001105
(1675219254.337416) can0 223#0500000000000032
(1675219254.343875) can0 020#000007
(1675219254.343885) can0 0B4#00000000D8000094
(1675219254.345239) can0 025#0FDA0FC378787850
(1675219254.346592) can0 024#020301F562098012
(1675219254.348787) can0 2D0#00001000100000FA
(1675219254.348796) can0 2C4#037C00160880210C
(1675219254.349184) can0 0B0#000000001106
(1675219254.349448) can0 0B2#000000001106
(1675219254.349669) can0 224#2000000000880008
(1675219254.349675) can0 235#00000000003D
(1675219254.351661) can0 260#0E00000000000078
(1675219254.352642) can0 351#00000000
(1675219254.355281) can0 020#000007
(1675219254.355290) can0 0B4#00000000D8000094
(1675219254.355291) can0 025#0FDA0FC378787850
(1675219254.355858) can0 2C1#08039D0289DC00DA
(1675219254.356137) can0 024#020301F362098010
(1675219254.361743) can0 0B0#000000001107
(1675219254.363078) can0 0B2#000000001107
(1675219254.364376) can0 223#0500000000000032
(1675219254.366370) can0 4C3#0300120100000000
(1675219254.367437) can0 020#000007
(1675219254.367443) can0 0B4#00000000D8000094
(1675219254.367446) can0 024#020301F3620A8011
(1675219254.367724) can0 025#0FDA0FC378787850
(1675219254.371978) can0 260#0E00000000000078
(1675219254.371985) can0 2C4#0380001608802110
(1675219254.373394) can0 0B0#000000001108
(1675219254.373400) can0 0B2#000000001108
(1675219254.373736) can0 224#20000000007E0008
(1675219254.374067) can0 235#00000000003D
(1675219254.374583) can0 3B7#0000800000000000
(1675219254.376807) can0 2D0#00001000100000FA
(1675219254.377867) can0 3B3#038228
(1675219254.379289) can0 020#000007
(1675219254.379919) can0 0B4#00000000D8000094
(1675219254.379925) can0 024#020301F3620A8011
(1675219254.380396) can0 025#0FDA0FC38282826E
(1675219254.385570) can0 0B0#000000001109
(1675219254.385575) can0 0B2#000000001109
(1675219254.387301) can0 223#0500000000000032
(1675219254.387307) can0 2C1#080395028EDC00D7
(1675219254.391400) can0 610#20000064C0FFFEE0
(1675219254.391407) can0 020#000007
(1675219254.391917) can0 0B4#00000000D8000094
(1675219254.391924) can0 260#0E00000000000078
(1675219254.392267) can0 024#020201F4620A7F10
(1675219254.392272) can0 025#0FDA0FC378787850
(1675219254.395408) can0 2C4#0381001608802111
(1675219254.397995) can0 0B0#00000000110A
(1675219254.397996) can0 0B2#00000000110A
(1675219254.398000) can0 224#2000000000700008
(1675219254.399309) can0 235#00000000003D
(1675219254.400793) can0 440#4202000001000000
(1675219254.403624) can0 020#000007
(1675219254.403630) can0 0B4#00000000D8000094
(1675219254.404188) can0 025#0FDA0FC378787850
(1675219254.404329) can0 024#020301F462098011
(1675219254.405960) can0 620#1000025DF0402000
(1675219254.408612) can0 2D0#00001000100000FA
(1675219254.409755) can0 0B0#00000000110B
(1675219254.409760) can0 0B2#00000000110B
(1675219254.409942) can0 223#0500000000000032
(1675219254.411809) can0 260#0E00000000000078
(1675219254.412489) can0 351#00000000
(1675219254.416021) can0 020#000007
(1675219254.416608) can0 0B4#00000000D8000094
(1675219254.416959) can0 025#0FDA0FC378787850
(1675219254.419090) can0 024#020301F362098010
(1675219254.419097) can0 2C1#08039A0289DC00D7
(1675219254.420307) can0 2C4#0380001608802110
(1675219254.422086) can0 0B0#00000000110C
(1675219254.422095) can0 0B2#00000000110C
(1675219254.422098) can0 224#20000000005A0008
(1675219254.423427) can0 235#00000000003D
(1675219254.428194) can0 020#000007
(1675219254.428199) can0 0B4#00000000D8000094
(1675219254.429482) can0 024#020201F3620A7F0F
(1675219254.431642) can0 025#0FDA0FC378787850
(1675219254.431645) can0 3A0#004E00000000001A
(1675219254.432762) can0 260#0E00000000000078
(1675219254.434054) can0 0B0#00000000110D
(1675219254.434060) can0 0B2#00000000110D
(1675219254.435218) can0 223#0400000000000031
(1675219254.440041) can0 020#000007
(1675219254.440052) can0 0B4#00000000D8000094
(1675219254.440056) can0 025#0FDA0FC378787850
(1675219254.440528) can0 024#020201F36209800F
(1675219254.440529) can0 2D0#00001000100000FA
(1675219254.442378) can0 2C4#0380001608802110
(1675219254.445812) can0 0B0#00000000110E
(1675219254.445821) can0 0B2#00000000110E
(1675219254.446234) can0 224#20000000003D0008
(1675219254.447021) can0 235#00000000003D
(1675219254.451769) can0 2C1#08039C028FDC00DF
(1675219254.451772) can0 020#000007
(1675219254.451964) can0 0B4#00000000D8000094
(1675219254.452181) can0 025#0FDA0FC378787850
(1675219254.452410) can0 260#0E00000000000078
(1675219254.453748) can0 024#020301F462098011
(1675219254.458135) can0 0B0#00000000110F
(1675219254.458145) can0 0B2#00000000110F
(1675219254.458917) can0 223#000000000000002D
(1675219254.464137) can0 020#000007
(1675219254.464144) can0 0B4#00000000D8000094
(1675219254.464536) can0 025#0FDA0FC378787850
(1675219254.464728) can0 024#020301F462098011
(1675219254.465912) can0 2C4#0381001608802111
(1675219254.470346) can0 0B0#000000001100
(1675219254.470351) can0 0B2#000000001100
(1675219254.470354) can0 224#20000000001D0008
(1675219254.472103) can0 235#00000000003D
(1675219254.472108) can0 260#0E00000000000078
(1675219254.473380) can0 2D0#00001000100000FA
(1675219254.475666) can0 351#00000000
(1675219254.475674) can0 020#000007
(1675219254.476147) can0 0B4#00000000D8000094
(1675219254.476150) can0 025#0FDA0FC378787850
(1675219254.476914) can0 024#020301F2620B8011
(1675219254.482354) can0 0B0#000000001101
(1675219254.482363) can0 0B2#000000001101
(1675219254.482368) can0 223#000000000000002D
(1675219254.483698) can0 2C1#08039B0289DC00D8
(1675219254.488291) can0 020#000007
(1675219254.488299) can0 0B4#00000000D8000094
(1675219254.488303) can0 025#0FDA0FC378787850
(1675219254.489037) can0 024#020201F0620C800F
(1675219254.489444) can0 2C4#037C00160880210C
(1675219254.490510) can0 394#00
(1675219254.492133) can0 260#0E00000000000078
(1675219254.492139) can0 4C8#0900010200000000
(1675219254.493715) can0 0B0#000000001102
(1675219254.493982) can0 0B2#000000001102
(1675219254.494517) can0 224#2000000000090008
(1675219254.494520) can0 235#00000000003D
(1675219254.500151) can0 020#000007
(1675219254.500160) can0 0B4#00000000D8000094
(1675219254.500164) can0 025#0FDA0FC378787850
(1675219254.500666) can0 024#020201EF620C800E
(1675219254.500805) can0 442#4002000000000000
(1675219254.504523) can0 2D0#00001000100000FA
(1675219254.506331) can0 0B0#000000001103
(1675219254.506337) can0 0B2#000000001103
(1675219254.507538) can0 223#000000000000002D
(1675219254.512048) can0 260#0E00000000000078
(1675219254.512057) can0 020#000007
(1675219254.512061) can0 0B4#00000000D8000094
(1675219254.512331) can0 025#0FDA0FC378787850
(1675219254.513517) can0 024#020301F2620C8012
(1675219254.513520) can0 2C4#0382001608802112
(1675219254.514484) can0 2C1#08038E0285DC00C7
(1675219254.518407) can0 0B0#000000001104
(1675219254.518415) can0 0B2#000000001104
(1675219254.518420) can0 224#2000000000000008
(1675219254.518573) can0 235#00000000003D
(1675219254.524052) can0 020#000007
(1675219254.524409) can0 0B4#00000000D8000094
(1675219254.524413) can0 025#0FDA0FC378787850
(1675219254.525176) can0 024#020201F1620B800F
(1675219254.525179) can0 3B4#0000ACB000400000
(1675219254.530415) can0 0B0#000000001105
(1675219254.530417) can0 0B2#000000001105
(1675219254.531026) can0 223#000000000000002D
(1675219254.531865) can0 3A0#004E00000000001A
(1675219254.531869) can0 260#0E00000000000078
(1675219254.531872) can0 351#00000000
(1675219254.536050) can0 2D0#00001000100000FA
(1675219254.536060) can0 020#000007
(1675219254.536403) can0 0B4#00000000D8000094
(1675219254.536841) can0 025#0FDA0FC378787850
(1675219254.536846) can0 024#020301F0620C8010
(1675219254.539219) can0 2C4#0381001608802111
(1675219254.542566) can0 0B0#000000001106
(1675219254.542575) can0 0B2#000000001106
(1675219254.542579) can0 224#0000000000000008
(1675219254.543908) can0 235#00000000003D
(1675219254.545834) can0 2C1#0803A20287DD00DE
(1675219254.548893) can0 020#000007
(1675219254.550587) can0 0B4#00000000D8000094
(1675219254.550588) can0 025#0FDA0FC378787850
(1675219254.551948) can0 024#020301F0620C8010
(1675219254.551954) can0 260#0E00000000000078
(1675219254.554373) can0 0B0#000000001107
(1675219254.554378) can0 0B2#000000001107
(1675219254.554381) can0 223#000000000000002D
(1675219254.560405) can0 020#000007
(1675219254.560413) can0 0B4#00000000D8000094
(1675219254.560865) can0 025#0FDA0FC378787850
(1675219254.560869) can0 2C4#0380001608802110
(1675219254.561288) can0 024#020301F1620C8011
(1675219254.563851) can0 423#00
(1675219254.566134) can0 623#1900000000000000
(1675219254.566141) can0 0B0#000000001108
(1675219254.566572) can0 0B2#000000001108
(1675219254.566577) can0 224#0000000000000008
(1675219254.566767) can0 235#00000000003D
(1675219254.567386) can0 2D0#00001000100000FA
(1675219254.569910) can0 4C6#0700010000000000
(1675219254.572412) can0 260#0E00000000000078
(1675219254.572419) can0 020#000007
(1675219254.572422) can0 0B4#00000000D8000094
(1675219254.573283) can0 025#0FDA0FC378787850
(1675219254.573286) can0 024#020301F2620B8011
(1675219254.576460) can0 624#1A00414949400000
(1675219254.577741) can0 2C1#08038B029ADC00D9
(1675219254.578291) can0 0B0#000000001109
(1675219254.578297) can0 0B2#000000001109
(1675219254.578572) can0 223#000000000000002D
(1675219254.583875) can0 2C4#0381001608802111
(1675219254.584186) can0 020#000007
(1675219254.584189) can0 0B4#00000000D8000094
(1675219254.584578) can0 024#020301F2620B8011
(1675219254.585352) can0 025#0FDA0FC378787850
(1675219254.590626) can0 0B0#00000000110A
(1675219254.590933) can0 0B2#00000000110A
(1675219254.591665) can0 224#0000000000000008
(1675219254.592631) can0 235#00000000003D
(1675219254.592634) can0 260#0E00000000000078
(1675219254.595162) can0 351#00000000
(1675219254.596943) can0 020#000007
(1675219254.596948) can0 0B4#00000000D8000094
(1675219254.596951) can0 024#020301F2620C8012
(1675219254.598098) can0 025#0FDA0FC38282826E
(1675219254.599983) can0 2D0#00001000100000FA
(1675219254.600949) can0 440#4202000001000000
(1675219254.600952) can0 630#1700000000000000
(1675219254.602630) can0 0B0#00000000110B
(1675219254.604157) can0 0B2#00000000110B
(1675219254.604161) can0 223#000000000000002D
(1675219254.607386) can0 2C4#0381001608802111
(1675219254.608314) can0 020#000007
(1675219254.608318) can0 0B4#00000000D8000094
(1675219254.609287) can0 025#0FDA0FC378787850
(1675219254.609292) can0 024#020301F2620B8011
(1675219254.609514) can0 2C1#0803800291DC00C5
(1675219254.612097) can0 260#0E00000000000078
(1675219254.614458) can0 0B0#00000000110C
(1675219254.614465) can0 0B2#00000000110C
(1675219254.614992) can0 224#0000000000000008
(1675219254.615779) can0 235#00000000003D
(1675219254.620942) can0 020#000007
(1675219254.620951) can0 0B4#00000000D8000094
(1675219254.621210) can0 025#0FDA0FC378787850
(1675219254.622615) can0 024#020301F2620B8011
(1675219254.626609) can0 0B0#00000000110D
(1675219254.626616) can0 0B2#00000000110D
(1675219254.626925) can0 223#000000000000002D
(1675219254.631280) can0 2D0#00001000100000FA
(1675219254.631289) can0 2C4#037F00160880210F
(1675219254.631726) can0 3A0#004E00000000001A
(1675219254.632371) can0 260#0E00000000000078
(1675219254.632535) can0 020#000007
(1675219254.633009) can0 0B4#00000000D8000094
(1675219254.633495) can0 025#0FDA0FC378787850
(1675219254.633499) can0 024#020301F3620B8012
(1675219254.639076) can0 0B0#00000000110E
(1675219254.639081) can0 0B2#00000000110E
(1675219254.640296) can0 224#0000000000000008
(1675219254.642035) can0 235#00000000003D
(1675219254.644123) can0 2C1#0803C00299DE000F
(1675219254.644641) can0 020#000007
(1675219254.644649) can0 0B4#00000000D8000094
(1675219254.644978) can0 024#020301F2620C8012
(1675219254.645446) can0 025#0FDA0FC378787850
(1675219254.650914) can0 0B0#00000000110F
(1675219254.650922) can0 0B2#00000000110F
(1675219254.650925) can0 223#000000000000002D
(1675219254.651660) can0 260#0E00000000000078
(1675219254.653359) can0 351#00000000
(1675219254.654641) can0 2C4#037D00160880210D
(1675219254.657034) can0 020#000007
(1675219254.657039) can0 0B4#00000000D8000094
(1675219254.657215) can0 025#0FDA0FC378787850
(1675219254.658648) can0 024#020301F2620B8011
(1675219254.662809) can0 2D0#00001000100000FA
(1675219254.662816) can0 0B0#000000001100
(1675219254.662817) can0 0B2#000000001100
(1675219254.663251) can0 224#0000000000000008
(1675219254.663257) can0 235#00000000003D
(1675219254.669086) can0 020#000007
(1675219254.669163) can0 0B4#00000000D8000094
(1675219254.669479) can0 025#0FDA0FC378787850
(1675219254.670654) can0 024#020301F2620B8011
(1675219254.672052) can0 260#0E00000000000078
(1675219254.672962) can0 2C1#08039B029EDC00ED
(1675219254.674916) can0 0B0#000000001101
(1675219254.674923) can0 0B2#000000001101
(1675219254.675239) can0 223#000000000000002D
(1675219254.676467) can0 3B7#0000800000000000
(1675219254.678892) can0 2C4#0381001608802111
(1675219254.680810) can0 020#000007
(1675219254.680817) can0 0B4#00000000D8000094
(1675219254.681121) can0 025#0FDA0FC378787850
(1675219254.681975) can0 024#020301F3620B8012
(1675219254.687040) can0 0B0#000000001102
(1675219254.687047) can0 0B2#000000001102
(1675219254.687318) can0 224#0000000000000008
(1675219254.687960) can0 235#00000000003D
(1675219254.691803) can0 260#0E00000000000078
(1675219254.693336) can0 020#000007
(1675219254.693339) can0 0B4#00000000D8000094
(1675219254.693342) can0 024#020301F3620B8012
(1675219254.694323) can0 025#0FDA0FC378787850
(1675219254.695596) can0 2D0#00001000100000FA
(1675219254.699136) can0 0B0#000000001103
(1675219254.699141) can0 0B2#000000001103
(1675219254.700404) can0 223#000000000000002D
(1675219254.701783) can0 442#4002000000000000
(1675219254.701788) can0 2C4#0382001608802112
(1675219254.705380) can0 2C1#0803940297DC00DF
(1675219254.705389) can0 020#000007
(1675219254.705392) can0 0B4#00000000D8000094
(1675219254.706116) can0 025#0FDA0FC378787850
(1675219254.706119) can0 024#020201F1620B8110
(1675219254.707411) can0 620#1000025DF0402000
(1675219254.711269) can0 0B0#000000001104
(1675219254.711275) can0 0B2#000000001104
(1675219254.711389) can0 224#0000000000000008
(1675219254.711883) can0 235#00000000003D
(1675219254.712419) can0 260#0E00000000000078
(1675219254.712423) can0 351#00000000
(1675219254.713722) can0 4C7#0800012100000000
(1675219254.717187) can0 020#000007
(1675219254.717192) can0 0B4#00000000D8000094
(1675219254.717614) can0 025#0FDA0FC378787850
(1675219254.718846) can0 024#020301F1620C8011
(1675219254.723302) can0 0B0#000000001105
(1675219254.723308) can0 0B2#000000001105
(1675219254.724363) can0 223#000000000000002D
(1675219254.726047) can0 2C4#0385001608802115
(1675219254.726052) can0 2D0#00001000100000FA
(1675219254.729463) can0 020#000007
(1675219254.729886) can0 0B4#00000000D8000094
(1675219254.730694) can0 025#0FDA0FC378787850
(1675219254.731940) can0 024#020301F1620C8011
(1675219254.731948) can0 3A0#004E00000000001A
(1675219254.733269) can0 260#0E00000000000078
(1675219254.735133) can0 0B0#000000001106
(1675219254.735138) can0 0B2#000000001106
(1675219254.735455) can0 224#0000000000000008
(1675219254.736370) can0 235#00000000003D
(1675219254.736377) can0 2C1#0803B0029EDD0003
(1675219254.737627) can0 38A#0800040000
(1675219254.740994) can0 020#000007
(1675219254.741282) can0 0B4#00000000D8000094
(1675219254.741561) can0 024#020301F1620B8010
(1675219254.742015) can0 025#0FDA0FC378787850
(1675219254.744255) can0 621#1100000000000000
(1675219254.746377) can0 398#0140
(1675219254.747283) can0 0B0#000000001107
(1675219254.747289) can0 0B2#000000001107
(1675219254.748919) can0 223#000000000000002D
(1675219254.750426) can0 2C4#0384001608802114
(1675219254.751973) can0 260#0E00000000000078
(1675219254.752854) can0 020#000007
(1675219254.752861) can0 0B4#00000000D8000094
(1675219254.753443) can0 025#0FDA0FC378787850
(1675219254.753452) can0 024#020301F1620B8010
(1675219254.757911) can0 2D0#00001000100000FA
(1675219254.759062) can0 0B0#000000001108
(1675219254.759070) can0 0B2#000000001108
(1675219254.759559) can0 224#0000000000000008
(1675219254.760723) can0 235#00000000003D
(1675219254.765622) can0 020#000007
(1675219254.765630) can0 0B4#00000000D8000094
(1675219254.765869) can0 025#0FDA0FC378787850
(1675219254.767896) can0 024#020301F1620C8011
(1675219254.767897) can0 2C1#08039D0297DC00E8
(1675219254.771688) can0 0B0#000000001109
(1675219254.771699) can0 0B2#000000001109
(1675219254.771961) can0 223#000000000000002D
(1675219254.772121) can0 260#0E00000000000078
(1675219254.772729) can0 351#00000000
(1675219254.774808) can0 2C4#0386001608802116
(1675219254.777215) can0 020#000007
(1675219254.777221) can0 0B4#00000000D8000094
(1675219254.777460) can0 025#0FDA0FC378787850
(1675219254.778341) can0 024#020301F1620C8011
(1675219254.783481) can0 0B0#00000000110A
(1675219254.783489) can0 0B2#00000000110A
(1675219254.783492) can0 224#0000000000000008
(1675219254.784901) can0 235#00000000003D
(1675219254.789723) can0 020#000007
(1675219254.789730) can0 0B4#00000000D8000094
(1675219254.789733) can0 024#020301F0620B800F
(1675219254.790558) can0 025#0FDA0FC378787850
(1675219254.791364) can0 2D0#00001000100000FA
(1675219254.791782) can0 394#00
(1675219254.793240) can0 260#0E00000000000078
(1675219254.795295) can0 0B0#00000000110B
(1675219254.795299) can0 0B2#00000000110B
(1675219254.795301) can0 223#000000000000002D
(1675219254.795706) can0 2C4#0385001608802115
(1675219254.795891) can0 440#4202000001000000
(1675219254.796221) can0 4C1#0100090000000000
(1675219254.800042) can0 2C1#0803970296DC00E1
(1675219254.801066) can0 020#000007
(1675219254.801076) can0 0B4#00000000D8000094
(1675219254.801253) can0 025#0FDA0FC378787850
(1675219254.801724) can0 024#020301F1620B8010
(1675219254.807178) can0 0B0#00000000110C
(1675219254.807184) can0 0B2#00000000110C
(1675219254.807449) can0 224#0000000000000008
(1675219254.808086) can0 235#00000000003D
(1675219254.812010) can0 260#0E00000000000078
(1675219254.813432) can0 020#000007
(1675219254.813502) can0 0B4#00000000D8000094
(1675219254.813824) can0 025#0FDA0FC378787850
(1675219254.813829) can0 024#020301F1620C8011
(1675219254.819563) can0 0B0#00000000110D
(1675219254.819568) can0 0B2#00000000110D
(1675219254.819571) can0 223#000000000000002D
(1675219254.820258) can0 2C4#0386001608802116
(1675219254.821389) can0 2D0#00001000100000FA
(1675219254.825570) can0 020#000007
(1675219254.825579) can0 0B4#00000000D8000094
(1675219254.826128) can0 025#0FD90FC3323278C3
(1675219254.827297) can0 024#020301F1620C8011
(1675219254.831298) can0 3A0#004E000000000019
(1675219254.831305) can0 0B0#00000000110E
(1675219254.831893) can0 0B2#00000000110E
(1675219254.831898) can0 224#0000000000000008
(1675219254.832243) can0 235#00000000003D
(1675219254.832442) can0 260#0E00000000000078
(1675219254.833807) can0 2C1#08039C0296DC00E6
(1675219254.835073) can0 351#00000000
(1675219254.837259) can0 020#000007
(1675219254.837649) can0 0B4#00000000D8000094
(1675219254.837654) can0 025#0FD90FC37878784F
(1675219254.839274) can0 024#020301F1620B8010
(1675219254.843699) can0 2C4#038A00160880211A
(1675219254.844965) can0 0B0#00000000110F
(1675219254.847121) can0 0B2#00000000110F
(1675219254.849505) can0 223#000000000000002D
(1675219254.849508) can0 020#000007
(1675219254.849987) can0 0B4#00000000D8000094
(1675219254.850367) can0 024#020301F1620B8010
(1675219254.851711) can0 025#0FD90FC38282826D
(1675219254.851716) can0 260#0E00000000000078
(1675219254.853741) can0 2D0#00001000100000FA
(1675219254.855300) can0 0B0#000000001100
(1675219254.855305) can0 0B2#000000001100
(1675219254.855529) can0 224#0000000000000008
(1675219254.855753) can0 235#00000000003D
(1675219254.862049) can0 020#000007
(1675219254.862056) can0 0B4#00000000D8000094
(1675219254.862329) can0 024#020301F2620B8011
(1675219254.863151) can0 025#0FD80FC314147886
(1675219254.863155) can0 2C1#0803AB0296DD00F6
(1675219254.866676) can0 2C4#0389001608802119
(1675219254.867423) can0 0B0#000000001101
(1675219254.867432) can0 0B2#000000001101
(1675219254.867889) can0 223#000000000000002D
(1675219254.871147) can0 638#1300000000000000
(1675219254.871960) can0 260#0E00000000000078
(1675219254.873338) can0 020#000007
(1675219254.873343) can0 0B4#00000000D8000094
(1675219254.874123) can0 025#0FD80FC37878784E
(1675219254.874127) can0 024#020301F1620B8010
(1675219254.879895) can0 0B0#000000001102
(1675219254.879901) can0 0B2#000000001102
(1675219254.880934) can0 224#0000000000000008
(1675219254.882986) can0 235#00000000003D
(1675219254.884617) can0 2D0#00001000100000FA
(1675219254.885461) can0 020#000007
(1675219254.885468) can0 0B4#00000000D8000094
(1675219254.886030) can0 025#0FD70FC3505078FD
(1675219254.886570) can0 024#020301F1620B8010
(1675219254.890017) can0 2C4#038A00160880211A
(1675219254.890024) can0 3B3#038A28
(1675219254.890633) can0 442#4002000000000000
(1675219254.891228) can0 610#20000064C0FFFEE0
(1675219254.891482) can0 0B0#000000001103
(1675219254.891487) can0 0B2#000000001103
(1675219254.891906) can0 223#000000000000002D
(1675219254.892365) can0 260#0E00000000000078
(1675219254.893975) can0 351#00000000
(1675219254.895083) can0 2C1#08039E0293DC00E5
(1675219254.897744) can0 020#000007
(1675219254.898182) can0 0B4#00000000D8000094
(1675219254.898193) can0 024#020301F2620B8011
(1675219254.898928) can0 025#0FD70FC37878784D
(1675219254.904125) can0 0B0#000000001104
(1675219254.904131) can0 0B2#000000001104
(1675219254.905478) can0 224#0000000000000008
(1675219254.906745) can0 235#00000000003D
(1675219254.909617) can0 020#000007
(1675219254.910033) can0 0B4#00000000D8000094
(1675219254.910256) can0 024#020301F2620B8112
(1675219254.911772) can0 025#0FD60FC36E6E7838
(1675219254.911777) can0 260#0E00000000000078
(1675219254.913299) can0 2C4#0385001608802115
(1675219254.915893) can0 0B0#000000001105
(1675219254.915903) can0 0B2#000000001105
(1675219254.916428) can0 223#000000000000002D
(1675219254.916438) can0 2D0#00001000100000FA
(1675219254.922309) can0 020#000007
(1675219254.922310) can0 0B4#00000000D8000094
(1675219254.924108) can0 025#0FD60FC37878784C
(1675219254.925415) can0 024#020301F2620B8011
(1675219254.926971) can0 2C1#0803AB028CDD00EC
(1675219254.927870) can0 0B0#000000001106
(1675219254.927872) can0 0B2#000000001106
(1675219254.927990) can0 224#0000000000000008
(1675219254.928310) can0 235#00000000003D
(1675219254.930735) can0 3A0#004F000000000019
(1675219254.932046) can0 260#0E00000000000078
(1675219254.934088) can0 020#000007
(1675219254.934669) can0 0B4#00000000D8000094
(1675219254.935306) can0 025#0FD50FC37878784B
(1675219254.936513) can0 024#020301F1620B8010
(1675219254.937007) can0 2C4#0381001608802111
(1675219254.940106) can0 0B0#000000001107
(1675219254.940107) can0 0B2#000000001107
(1675219254.941511) can0 223#000000000000002D
(1675219254.945921) can0 020#000007
(1675219254.945932) can0 0B4#00000000D8000094
(1675219254.946063) can0 025#0FD50FC37878784B
(1675219254.946791) can0 024#020301F2620B7F10
(1675219254.948747) can0 2D0#00001000100000FA
(1675219254.950976) can0 260#0E00000000000078
(1675219254.951895) can0 0B0#000000001108
(1675219254.951901) can0 0B2#000000001108
(1675219254.952424) can0 224#0000000000000008
(1675219254.952428) can0 235#00000000003D
(1675219254.953826) can0 351#00000000
(1675219254.957832) can0 020#000007
(1675219254.957840) can0 0B4#00000000D8000094
(1675219254.958479) can0 025#0FD40FC37878784A
(1675219254.958483) can0 024#020301F2620A8010
(1675219254.958679) can0 2C1#0803B0028CDD00F1
(1675219254.960678) can0 2C4#0384001608802114
(1675219254.964141) can0 0B0#000000001109
(1675219254.964149) can0 0B2#000000001109
(1675219254.964779) can0 223#000000000000002D
(1675219254.969703) can0 020#000007
(1675219254.970347) can0 0B4#00000000D8000094
(1675219254.970360) can0 025#0FD40FC37878784A
(1675219254.970536) can0 024#020301F2620A8010
(1675219254.971937) can0 260#0E00000000000078
(1675219254.976382) can0 0B0#00000000110A
(1675219254.976391) can0 0B2#00000000110A
(1675219254.976397) can0 224#0000000000000008
(1675219254.976661) can0 235#00000000003D
(1675219254.977559) can0 3B7#0000800000000000
(1675219254.980037) can0 2D0#00001000100000FA
(1675219254.981865) can0 020#000007
(1675219254.981873) can0 0B4#00000000D8000094
(1675219254.982323) can0 025#0FD30FC35A5A780D
(1675219254.982896) can0 024#020301F2620B8011
(1675219254.984236) can0 2C4#0384001608802114
(1675219254.988224) can0 0B0#00000000110B
(1675219254.988231) can0 0B2#00000000110B
(1675219254.988509) can0 223#000000000000002D
(1675219254.990718) can0 2C1#08039E028CDC00DE
(1675219254.990989) can0 440#4202000001000000
(1675219254.992022) can0 260#0E00000000000078
(1675219254.994320) can0 020#000007
(1675219254.994326) can0 0B4#00000000D8000094
(1675219254.995079) can0 025#0FD30FC378787849
(1675219254.995735) can0 024#020301F1620B8010
(1675219254.999973) can0 0B0#00000000110C
(1675219254.999977) can0 0B2#00000000110C
(1675219255.000457) can0 224#0000000000000008
(1675219255.000460) can0 235#00000000003D
(1675219255.001122) can0 611#210010A00002821A
(1675219255.006429) can0 020#000007
(1675219255.006442) can0 0B4#00000000D8000094
(1675219255.006447) can0 025#0FD20FC3464678E4
(1675219255.006705) can0 024#020301F1620B8010
(1675219255.007427) can0 620#1000025EF0402000
(1675219255.008693) can0 2C4#0384001608802114
(1675219255.012042) can0 2D0#00001000100000FA
(1675219255.012055) can0 260#0E00000000000078
(1675219255.012246) can0 0B0#00000000110D
(1675219255.012558) can0 0B2#00000000110D
(1675219255.012777) can0 223#000000000000002D
(1675219255.012786) can0 351#00000000
(1675219255.018402) can0 020#000007
(1675219255.018410) can0 0B4#00000000D8000094
(1675219255.018414) can0 025#0FD20FC378787848
(1675219255.019643) can0 024#020401F2620B8012
(1675219255.021975) can0 2C1#080394028BDC00D3
(1675219255.024124) can0 0B0#00000000110E
(1675219255.024188) can0 0B2#00000000110E
(1675219255.024531) can0 224#0000000000000008
(1675219255.025125) can0 235#00000000003D
(1675219255.030599) can0 020#000007
(1675219255.030655) can0 0B4#00000000D8000094
(1675219255.030659) can0 025#0FD10FC33C3C78CF
(1675219255.031277) can0 3A0#004F00000000001A
(1675219255.031283) can0 024#020301F3620B7F11
(1675219255.031473) can0 612#2700FFFEE0FFFFFE
(1675219255.031867) can0 2C4#0389001608802119
(1675219255.033730) can0 260#0E00000000000078
(1675219255.036279) can0 0B0#00000000110F
(1675219255.036288) can0 0B2#00000000110F
(1675219255.036328) can0 223#000000000000002D
(1675219255.042421) can0 020#000007
(1675219255.042427) can0 0B4#00000000D8000094
(1675219255.042686) can0 025#0FD10FC378787847
(1675219255.043367) can0 024#020301F1620B8010
(1675219255.043563) can0 2D0#00001000100000FA
(1675219255.048737) can0 0B0#000000001100
(1675219255.048744) can0 0B2#000000001100
(1675219255.048747) can0 224#0000000000000008
(1675219255.050213) can0 235#00000000003D
(1675219255.052195) can0 260#0E00000000000078
(1675219255.054023) can0 2C1#0803980284DC00D0
(1675219255.054025) can0 020#000007
(1675219255.054435) can0 0B4#00000000D8000094
(1675219255.054718) can0 024#020301F1620B7F0F
(1675219255.055024) can0 025#0FD00FC3323278BA
(1675219255.056609) can0 2C4#0388001608802118
(1675219255.060756) can0 0B0#000000001101
(1675219255.060761) can0 0B2#000000001101
(1675219255.061747) can0 223#000000000000002D
(1675219255.063816) can0 4DC#1D00030200000000
(1675219255.066386) can0 020#000007
(1675219255.066393) can0 0B4#00000000D8000094
(1675219255.066397) can0 025#0FD00FC378787846
(1675219255.066694) can0 024#020301F2620B8011
(1675219255.070627) can0 38C#0000000000000037
(1675219255.072163) can0 260#0E00000000000078
(1675219255.072167) can0 351#00000000
(1675219255.072170) can0 0B0#000000001102
(1675219255.072333) can0 0B2#000000001102
(1675219255.072728) can0 224#0000000000000008
(1675219255.072735) can0 235#00000000003D
(1675219255.075813) can0 2D0#00001000100000FA
(1675219255.078527) can0 020#000007
(1675219255.078541) can0 0B4#00000000D8000094
(1675219255.078547) can0 025#0FCF0FC33C3C78CD
(1675219255.078862) can0 2C4#0386001608802116
(1675219255.079637) can0 024#020301F2620B8011
(1675219255.080570) can0 381#0000032000000000
(1675219255.084778) can0 0B0#000000001103
(1675219255.084783) can0 0B2#000000001103
(1675219255.085469) can0 223#000000000000002D
(1675219255.085920) can0 2C1#0803990285DC00D2
(1675219255.090300) can0 020#000007
(1675219255.090365) can0 0B4#00000000D8000094
(1675219255.090953) can0 260#0E00000000000078
(1675219255.090964) can0 394#00
(1675219255.090969) can0 442#4002000000000000
(1675219255.091436) can0 024#020301F2620B8011
(1675219255.092585) can0 025#0FCF0FC382828263
(1675219255.096911) can0 0B0#000000001104
(1675219255.096917) can0 0B2#000000001104
(1675219255.098255) can0 224#0000000000000008
(1675219255.100501) can0 235#00000000003D
(1675219255.101821) can0 3B0#0000002A0000
(1675219255.101827) can0 2C4#0387001608802117
(1675219255.102484) can0 020#000007
(1675219255.102487) can0 0B4#00000000D8000094
(1675219255.102711) can0 024#020301F1620B8010
(1675219255.102976) can0 025#0FCE0FC3505078F4
(1675219255.107170) can0 2D0#00001000100000FA
(1675219255.108591) can0 0B0#000000001105
(1675219255.108596) can0 0B2#000000001105
(1675219255.109869) can0 223#000000000000002D
(1675219255.112055) can0 260#0E00000000000078
(1675219255.114766) can0 020#000007
(1675219255.114768) can0 0B4#00000000D8000094
(1675219255.114772) can0 024#020301F2620B8011
(1675219255.115183) can0 025#0FCE0FC378787844
(1675219255.117354) can0 2C1#0803980284DC00D0
(1675219255.120835) can0 0B0#000000001106
(1675219255.120843) can0 0B2#000000001106
(1675219255.121960) can0 224#0000000000000008
(1675219255.123915) can0 235#00000000003D
(1675219255.125558) can0 2C4#0387001608802117
(1675219255.126670) can0 020#000007
(1675219255.126672) can0 0B4#00000000D8000094
(1675219255.127155) can0 025#0FCE0FC378787844
(1675219255.127288) can0 024#020301F2620A8010
(1675219255.131471) can0 3A0#004F00000000001A
(1675219255.132085) can0 260#0E00000000000078
(1675219255.132682) can0 0B0#000000001107
(1675219255.132686) can0 0B2#000000001107
(1675219255.132873) can0 223#000000000000002D
(1675219255.134273) can0 351#00000000
(1675219255.139102) can0 020#000007
(1675219255.139109) can0 0B4#00000000D8000094
(1675219255.139113) can0 2D0#00001000100000FA
(1675219255.139406) can0 025#0FCD0FC31E1E788F
(1675219255.140279) can0 024#020301F2620B8011
(1675219255.144985) can0 0B0#000000001108
(1675219255.145056) can0 0B2#000000001108
(1675219255.145065) can0 224#0000000000000008
(1675219255.145558) can0 235#00000000003D
(1675219255.149147) can0 2C1#08039C0289DC00D9
(1675219255.149153) can0 2C4#0384001608802114
(1675219255.150631) can0 020#000007
(1675219255.150633) can0 0B4#00000000D8000094
(1675219255.150818) can0 025#0FCD0FC378787843
(1675219255.151590) can0 024#020301F3620C8013
(1675219255.151813) can0 260#0E00000000000078
(1675219255.157028) can0 0B0#000000001109
(1675219255.157033) can0 0B2#000000001109
(1675219255.157946) can0 223#000000000000002D
(1675219255.160443) can0 380#200808000000F800
(1675219255.162716) can0 020#000007
(1675219255.162725) can0 0B4#00000000D8000094
(1675219255.163207) can0 024#020301F2620C8012
(1675219255.163474) can0 025#0FCC0FC35A5A7806
(1675219255.168832) can0 0B0#00000000110A
(1675219255.168840) can0 0B2#00000000110A
(1675219255.169302) can0 224#0000000000000008
(1675219255.169305) can0 235#00000000003D
(1675219255.170263) can0 2D0#00001000100000FA
(1675219255.172590) can0 260#0E00000000000078
(1675219255.173289) can0 2C4#0384001608802114
(1675219255.174947) can0 020#000007
(1675219255.174955) can0 0B4#00000000D8000094
(1675219255.175236) can0 025#0FCC0FC378787842
(1675219255.176191) can0 024#020201F2620B8010
(1675219255.181066) can0 2C1#080397028CDC00D7
(1675219255.181074) can0 0B0#00000000110B
(1675219255.181135) can0 0B2#00000000110B
(1675219255.182390) can0 223#000000000000002D
(1675219255.183971) can0 3B1#0000002400000000
(1675219255.187064) can0 020#000007
(1675219255.187073) can0 0B4#00000000D8000094
(1675219255.187373) can0 025#0FCC0FC378787842
(1675219255.188502) can0 024#020301F2620B8011
(1675219255.190862) can0 3A1#0000000000FF0000
(1675219255.190867) can0 260#0E00000000000078
(1675219255.192225) can0 440#4202000001000000
(1675219255.192805) can0 351#00000000
(1675219255.192809) can0 0B0#00000000110C
(1675219255.193246) can0 0B2#00000000110C
(1675219255.193256) can0 224#0000000000000008
(1675219255.194826) can0 235#00000000003D
(1675219255.196667) can0 2C4#0388001608802118
(1675219255.199088) can0 020#000007
(1675219255.199097) can0 0B4#00000000D8000094
(1675219255.199103) can0 025#0FCB0FC36E6E782D
(1675219255.199754) can0 024#020301F3620B8012
(1675219255.202522) can0 2D0#00001000100000FA
(1675219255.205322) can0 0B0#00000000110D
(1675219255.206943) can0 0B2#00000000110D
(1675219255.209144) can0 223#000000000000002D
(1675219255.210690) can0 382#1C1C
(1675219255.210695) can0 260#0E00000000000078
(1675219255.210959) can0 020#000007
(1675219255.211288) can0 0B4#00000000D8000094
(1675219255.211990) can0 025#0FCB0FC378787841
(1675219255.212046) can0 024#020301F2620B8011
(1675219255.212314) can0 2C1#08038E0288DC00CA
(1675219255.217237) can0 0B0#00000000110E
(1675219255.217244) can0 0B2#00000000110E
(1675219255.217516) can0 224#0000000000000008
(1675219255.218170) can0 235#00000000003D
(1675219255.219660) can0 2C4#0387001608802117
(1675219255.223182) can0 020#000007
(1675219255.223193) can0 0B4#00000000D8000094
(1675219255.223430) can0 025#0FCB0FC378787841
(1675219255.224367) can0 024#020301F1620B8010
(1675219255.229125) can0 0B0#00000000110F
(1675219255.229133) can0 0B2#00000000110F
(1675219255.229832) can0 223#000000000000002D
(1675219255.230262) can0 3A0#004F00000000001A
(1675219255.230696) can0 260#0E00000000000078
(1675219255.233781) can0 4DD#1E00000100000000
(1675219255.233787) can0 2D0#00001000100000FA
(1675219255.234966) can0 020#000007
(1675219255.234971) can0 0B4#00000000D8000094
(1675219255.235293) can0 025#0FCB0FC378787841
(1675219255.235558) can0 024#020301F2620B8011
(1675219255.241356) can0 0B0#000000001100
(1675219255.241359) can0 0B2#000000001100
(1675219255.241689) can0 224#0000000000000008
(1675219255.241725) can0 235#00000000003D
(1675219255.243014) can0 622#1200E83000000000
(1675219255.243020) can0 2C4#038A00160880211A
(1675219255.244651) can0 2C1#0803950297DC00E0
(1675219255.247256) can0 020#000007
(1675219255.247262) can0 0B4#00000000D8000094
(1675219255.247928) can0 025#0FCA0FC3505078F0
(1675219255.249112) can0 024#020301F2620B8011
(1675219255.252574) can0 260#0E00000000000078
(1675219255.252582) can0 351#00000000
(1675219255.253154) can0 0B0#000000001101
(1675219255.253156) can0 0B2#000000001101
(1675219255.253396) can0 223#000000000000002D
(1675219255.259252) can0 020#000007
(1675219255.259258) can0 0B4#00000000D8000094
(1675219255.259536) can0 024#020301F2620A8010
(1675219255.259540) can0 025#0FCA0FC378787840
(1675219255.265607) can0 0B0#000000001102
(1675219255.265615) can0 0B2#000000001102
(1675219255.265899) can0 224#0000000000000008
(1675219255.266721) can0 235#00000000003D
(1675219255.268779) can0 2D0#00001000100000FA
(1675219255.270100) can0 2C4#0388001608802118
(1675219255.271027) can0 020#000007
(1675219255.271032) can0 0B4#00000000D8000094
(1675219255.271295) can0 025#0FCA0FC378787840
(1675219255.271615) can0 024#020301F2620B8011
(1675219255.272888) can0 260#0E00000000000078
(1675219255.276280) can0 2C1#0003970296DC00D9
(1675219255.277073) can0 0B0#000000001103
(1675219255.277077) can0 0B2#000000001103
(1675219255.277470) can0 223#000000000000002D
(1675219255.277473) can0 3B7#0000800000000000
(1675219255.283597) can0 020#000007
(1675219255.285549) can0 0B4#00000000D8000094
(1675219255.286818) can0 025#0FCA0FC378787840
(1675219255.288979) can0 024#020301F2620B8011
(1675219255.288988) can0 0B0#000000001104
(1675219255.289264) can0 0B2#000000001104
(1675219255.289561) can0 224#0000000000000008
(1675219255.289567) can0 235#00000000003D
(1675219255.290241) can0 2C4#0385001608802115
(1675219255.290247) can0 442#4002000000000000
(1675219255.292005) can0 260#0E00000000000078
(1675219255.295602) can0 020#000007
(1675219255.295607) can0 0B4#00000000D8000094
(1675219255.295610) can0 025#0FCA0FC378787840
(1675219255.296817) can0 4C3#0300120100000000
(1675219255.297421) can0 024#020301F2620B8011
(1675219255.298922) can0 2D0#00001000100000FA
(1675219255.301622) can0 0B0#000000001105
(1675219255.301633) can0 0B2#000000001105
(1675219255.301636) can0 223#000000000000002D
(1675219255.306181) can0 620#1000025DF0402000
(1675219255.307540) can0 020#000007
(1675219255.307548) can0 0B4#00000000D8000094
(1675219255.307891) can0 024#020301F2620B8011
(1675219255.307898) can0 025#0FC90FC37878783F
(1675219255.308967) can0 2C1#000392029CDC01DB
(1675219255.310939) can0 260#0E00000000000078
(1675219255.312019) can0 351#00000000
(1675219255.313419) can0 0B0#000000001106
(1675219255.313426) can0 0B2#000000001106
(1675219255.313577) can0 224#0000000000000008
(1675219255.313891) can0 235#00000000003D
(1675219255.315184) can0 2C4#0388001608802118
(1675219255.319530) can0 020#000007
(1675219255.319539) can0 0B4#00000000D8000094
(1675219255.319543) can0 025#0FC90FC37878783F
(1675219255.320519) can0 024#020301F2620B8011
(1675219255.325602) can0 0B0#000000001107
(1675219255.325612) can0 0B2#000000001107
(1675219255.325617) can0 223#000000000000002D
(1675219255.329208) can0 2D0#00001000100000FA
(1675219255.330761) can0 3A0#004F000000000019
(1675219255.330763) can0 260#0E00000000000078
(1675219255.331322) can0 020#000007
(1675219255.331328) can0 0B4#00000000D8000094
(1675219255.331716) can0 025#0FC90FC37878783F
(1675219255.331758) can0 024#020301F2620B8011
(1675219255.337985) can0 0B0#000000001108
(1675219255.337990) can0 0B2#000000001108
(1675219255.339077) can0 224#0000000000000008
(1675219255.339407) can0 235#00000000003D
(1675219255.341207) can0 2C4#0385001608802115
(1675219255.343438) can0 2C1#00038A0294DC01CB
(1675219255.343450) can0 020#000007
(1675219255.343454) can0 0B4#00000000D8000094
(1675219255.344380) can0 025#0FC90FC37878783F
(1675219255.344388) can0 024#020301F2620B8011
(1675219255.349305) can0 0B0#000000001109
(1675219255.349606) can0 0B2#000000001109
(1675219255.349609) can0 223#000000000000002D
(1675219255.351070) can0 260#0E00000000000078
(1675219255.355517) can0 020#000007
(1675219255.355522) can0 0B4#00000000D8000094
(1675219255.355525) can0 025#0FC90FC37878783F
(1675219255.356860) can0 024#020301F2620B8011
(1675219255.361527) can0 2D0#00001000100000FA
(1675219255.361540) can0 2C4#0388001608802118
(1675219255.361543) can0 0B0#00000000110A
(1675219255.361847) can0 0B2#00000000110A
(1675219255.362144) can0 224#0000000000000008
(1675219255.362149) can0 235#00000000003D
(1675219255.367364) can0 020#000007
(1675219255.367369) can0 0B4#00000000D8000094
(1675219255.367637) can0 024#020301F3620B8012
(1675219255.368329) can0 025#0FC90FC38282825D
(1675219255.371125) can0 2C1#00038F0294DC02D1
(1675219255.372150) can0 260#0E00000000000078
(1675219255.372155) can0 351#00000000
(1675219255.373550) can0 0B0#00000000110B
(1675219255.374949) can0 0B2#00000000110B
(1675219255.377119) can0 223#000000000000002D
(1675219255.379595) can0 020#000007
(1675219255.380143) can0 0B4#00000000D8000094
(1675219255.380154) can0 024#020301F2620B8011
(1675219255.381468) can0 025#0FC90FC37878783F
(1675219255.384576) can0 2C4#038A00160880211A
(1675219255.385704) can0 0B0#00000000110C
(1675219255.385710) can0 0B2#00000000110C
(1675219255.385714) can0 224#0000000000000008
(1675219255.386133) can0 235#00000000003D
(1675219255.386137) can0 440#4202000001000000
(1675219255.391343) can0 394#00
(1675219255.391351) can0 610#20000064C0FFFEE0
(1675219255.391353) can0 020#000007
(1675219255.392019) can0 0B4#00000000D8000094
(1675219255.392191) can0 260#0E00000000000078
(1675219255.392376) can0 025#0FC90FC37878783F
(1675219255.392666) can0 024#020301F1620B8010
(1675219255.393667) can0 2D0#00001000100000FA
(1675219255.397759) can0 0B0#00000000110D
(1675219255.398145) can0 0B2#00000000110D
(1675219255.398151) can0 223#000000000000002D
(1675219255.401728) can0 3B3#038B2C
(1675219255.403126) can0 2C1#0003890299DC03D1
(1675219255.403676) can0 020#000007
(1675219255.403686) can0 0B4#00000000D8000094
(1675219255.403959) can0 025#0FC90FC37878783F
(1675219255.404483) can0 024#020301F2620B8011
(1675219255.408326) can0 2C4#0389001608802119
(1675219255.409708) can0 0B0#00000000110E
(1675219255.410132) can0 0B2#00000000110E
(1675219255.410136) can0 224#0000000000000008
(1675219255.410701) can0 235#00000000003D
(1675219255.412181) can0 260#0E00000000000078
(1675219255.415935) can0 020#000007
(1675219255.415943) can0 0B4#00000000D8000094
(1675219255.415948) can0 025#0FC90FC37878783F
(1675219255.416929) can0 024#020301F2620B8011
(1675219255.422010) can0 0B0#00000000110F
(1675219255.422017) can0 0B2#00000000110F
(1675219255.423545) can0 223#000000000000002D
(1675219255.424335) can0 2D0#00001000100000FA
(1675219255.428140) can0 020#000007
(1675219255.428147) can0 0B4#00000000D8000094
(1675219255.428151) can0 024#020301F2620B8011
(1675219255.428325) can0 025#0FC90FC37878783F
(1675219255.430210) can0 3A0#0050000000000019
(1675219255.431674) can0 2C4#0385001608802115
(1675219255.432092) can0 260#0E00000000000078
(1675219255.432095) can0 351#00000000
(1675219255.433724) can0 0B0#000000001100
(1675219255.434166) can0 0B2#000000001100
(1675219255.434172) can0 224#0000000000000008
(1675219255.434357) can0 235#00000000003D
(1675219255.434590) can0 2C1#0003920292DC04D4
(1675219255.440131) can0 020#000007
(1675219255.440467) can0 0B4#00000000D8000094
(1675219255.441254) can0 025#0FC90FC37878783F
(1675219255.442663) can0 024#020301F2620B8011
(1675219255.445930) can0 0B0#000000001101
(1675219255.445938) can0 0B2#000000001101
(1675219255.446064) can0 223#000000000000002D
(1675219255.451816) can0 020#000007
(1675219255.451825) can0 0B4#00000000D8000094
(1675219255.452513) can0 025#0FC90FC37878783F
(1675219255.452706) can0 260#0E00000000000078
(1675219255.453408) can0 024#020301F2620C8012
(1675219255.455138) can0 2C4#0386001608802116
(1675219255.456480) can0 2D0#00001000100000FA
(1675219255.457978) can0 0B0#000000001102
(1675219255.457984) can0 0B2#000000001102
(1675219255.458420) can0 224#0000000000000008
(1675219255.459021) can0 235#00000000003D
(1675219255.464109) can0 020#000007
(1675219255.464115) can0 0B4#00000000D8000094
(1675219255.464349) can0 025#0FC90FC37878783F
(1675219255.464939) can0 024#020301F2620A8010
(1675219255.466711) can0 2C1#0003910290DC05D2
(1675219255.470213) can0 0B0#000000001103
(1675219255.471415) can0 0B2#000000001103
(1675219255.472180) can0 223#000000000000002D
(1675219255.472455) can0 260#0E00000000000078
(1675219255.473654) can0 4C8#0900010200000000
(1675219255.475828) can0 020#000007
(1675219255.475835) can0 0B4#00000000D8000094
(1675219255.476182) can0 025#0FC90FC37878783F
(1675219255.476372) can0 024#020301F2620A8010
(1675219255.479127) can0 2C4#0384001608802114
(1675219255.480541) can0 442#4002000000000000
(1675219255.481960) can0 0B0#000000001104
(1675219255.481965) can0 0B2#000000001104
(1675219255.482372) can0 224#0000000000000008
(1675219255.482379) can0 235#00000000003D
(1675219255.488275) can0 020#000007
(1675219255.488283) can0 0B4#00000000D8000094
(1675219255.488289) can0 025#0FC90FC37878783F
(1675219255.488518) can0 2D0#00001000100000FA
(1675219255.490237) can0 024#020301F3620B8012
(1675219255.492137) can0 260#0E00000000000078
(1675219255.492744) can0 351#00000000
(1675219255.493980) can0 0B0#000000001105
(1675219255.493985) can0 0B2#000000001105
(1675219255.494293) can0 223#000000000000002D
(1675219255.498183) can0 2C1#0003900290DC06D2
(1675219255.500184) can0 020#000007
(1675219255.500187) can0 0B4#00000000D8000094
(1675219255.500834) can0 025#0FC90FC37878783F
(1675219255.501535) can0 024#020301F2620C8012
(1675219255.502245) can0 2C4#0385001608802115
(1675219255.506131) can0 0B0#000000001106
(1675219255.506611) can0 0B2#000000001106
(1675219255.506617) can0 224#0000000000000008
(1675219255.507986) can0 235#00000000003D
(1675219255.513706) can0 020#000007
(1675219255.513975) can0 0B4#00000000D8000094
(1675219255.515352) can0 025#0FC90FC37878783F
(1675219255.517569) can0 260#0E00000000000078
(1675219255.518182) can0 024#020301F2620B8011
(1675219255.518187) can0 0B0#000000001107
(1675219255.518732) can0 0B2#000000001107
(1675219255.519592) can0 223#000000000000002D
(1675219255.520227) can0 2D0#00001000100000FA
(1675219255.524347) can0 020#000007
(1675219255.524356) can0 0B4#00000000D8000094
(1675219255.524360) can0 025#0FC90FC37878783F
(1675219255.524613) can0 024#020301F2620B8011
(1675219255.525532) can0 2C4#0389001608802119
(1675219255.530318) can0 2C1#0003920290DC07D5
(1675219255.530325) can0 0B0#000000001108
(1675219255.530806) can0 0B2#000000001108
(1675219255.530809) can0 224#0000000000000008
(1675219255.531003) can0 235#00000000003D
(1675219255.532134) can0 3A0#0050000000000019
(1675219255.532138) can0 4C6#0700010000000000
(1675219255.533408) can0 260#0E00000000000078
(1675219255.536314) can0 020#000007
(1675219255.536778) can0 0B4#00000000D8000094
(1675219255.536790) can0 025#0FC90FC37878783F
(1675219255.538141) can0 024#020301F3620B8012
(1675219255.542366) can0 0B0#000000001109
(1675219255.542374) can0 0B2#000000001109
(1675219255.542707) can0 223#000000000000002D
(1675219255.548054) can0 020#000007
(1675219255.548330) can0 0B4#00000000D8000094
(1675219255.548334) can0 025#0FC90FC37878783F
(1675219255.548803) can0 024#020301F2620B8011
(1675219255.549457) can0 3B4#0000ACB000400000
(1675219255.549460) can0 2C4#0386001608802116
(1675219255.551345) can0 2D0#00001000100000FA
(1675219255.552163) can0 260#0E00000000000078
(1675219255.552167) can0 351#00000000
(1675219255.554602) can0 0B0#00000000110A
(1675219255.554605) can0 0B2#00000000110A
(1675219255.555792) can0 224#0000000000000008
(1675219255.557137) can0 235#00000000003D
(1675219255.560301) can0 020#000007
(1675219255.560309) can0 0B4#00000000D8000094
(1675219255.560313) can0 025#0FC90FC37878783F
(1675219255.561428) can0 024#020301F2620B8011
(1675219255.561433) can0 2C1#0004200292DC0968
(1675219255.566329) can0 0B0#00000000110B
(1675219255.566338) can0 0B2#00000000110B
(1675219255.566682) can0 223#000000000000002D
(1675219255.567655) can0 623#1900000000000000
(1675219255.571176) can0 260#0E00000000000078
(1675219255.571947) can0 423#00
(1675219255.571950) can0 020#000007
(1675219255.572388) can0 0B4#00000000D8000094
(1675219255.572393) can0 024#020301F2620B8011
(1675219255.572805) can0 025#0FC90FC37878783F
(1675219255.572811) can0 2C4#038B00160880211B
(1675219255.576550) can0 440#4202000001000000
(1675219255.578044) can0 624#1A00414949400000
(1675219255.578050) can0 0B0#00000000110C
(1675219255.578295) can0 0B2#00000000110C
(1675219255.578640) can0 224#0000000000000008
(1675219255.578854) can0 235#00000000003D
(1675219255.579102) can0 3B7#0000800000000000
(1675219255.583220) can0 2D0#00001000100000FA
(1675219255.584256) can0 020#000007
(1675219255.584261) can0 0B4#00000000D8000094
(1675219255.584472) can0 025#0FC90FC37878783F
(1675219255.584789) can0 024#020301F2620B8011
(1675219255.590521) can0 0B0#00000000110D
(1675219255.590526) can0 0B2#00000000110D
(1675219255.590529) can0 223#000000000000002D
(1675219255.592122) can0 260#0E00000000000078
(1675219255.593308) can0 2C1#0004EB028FDC0A31
(1675219255.596882) can0 020#000007
(1675219255.596890) can0 0B4#00000000D8000094
(1675219255.596895) can0 025#0FC90FC37878783F
(1675219255.597059) can0 2C4#0384001608802114
(1675219255.598296) can0 024#020301F2620B8011
(1675219255.601570) can0 630#1700000000000000
(1675219255.602404) can0 0B0#00000000110E
(1675219255.602414) can0 0B2#00000000110E
(1675219255.602775) can0 224#0000000000000008
(1675219255.602785) can0 235#00000000003D
(1675219255.608416) can0 020#000007
(1675219255.608422) can0 0B4#00000000D8000094
(1675219255.609413) can0 025#0FC80FC35A5A820C
(1675219255.609418) can0 024#020301F2620B8011
(1675219255.609933) can0 620#1000025DF0402000
(1675219255.612226) can0 260#0E00000000000078
(1675219255.612231) can0 351#00000000
(1675219255.614769) can0 0B0#00000000110F
(1675219255.614778) can0 0B2#00000000110F
(1675219255.614782) can0 223#000000000000002D
(1675219255.615056) can0 2D0#00001000100000FA
(1675219255.620776) can0 2C4#0383001708802114
(1675219255.620785) can0 020#000007
(1675219255.620790) can0 0B4#00000000D8000094
(1675219255.620982) can0 024#020301F2620B8011
(1675219255.622318) can0 025#0FC80FC37878783E
(1675219255.626056) can0 2C1#00058D0292DC0CD9
(1675219255.626470) can0 0B0#000000001100
(1675219255.626476) can0 0B2#000000001100
(1675219255.626892) can0 224#0000000000000008
(1675219255.627127) can0 235#00000000003D
(1675219255.630032) can0 3A0#004F000000000019
(1675219255.632671) can0 260#0E00000000000078
(1675219255.632679) can0 020#000007
(1675219255.632683) can0 0B4#00000000D8000094
(1675219255.633005) can0 024#020301F2620B8011
(1675219255.633009) can0 025#0FC80FC37878783E
(1675219255.638920) can0 0B0#000000001101
(1675219255.640084) can0 0B2#000000001101
(1675219255.642252) can0 223#000000000000002D
(1675219255.643557) can0 2C4#0383001708802114
(1675219255.644554) can0 020#000007
(1675219255.644560) can0 0B4#00000000D8000094
(1675219255.645081) can0 025#0FC80FC37878783E
(1675219255.645342) can0 024#020301F2620B8011
(1675219255.646769) can0 2D0#00001000100000FA
(1675219255.651012) can0 0B0#000000001102
(1675219255.651018) can0 0B2#000000001102
(1675219255.652224) can0 224#0000000000000008
(1675219255.654301) can0 235#00000000003D
(1675219255.655571) can0 260#0E00000000000078
(1675219255.656603) can0 020#000007
(1675219255.656605) can0 0B4#00000000D8000094
(1675219255.657010) can0 2C1#0005F90293DC0C46
(1675219255.657228) can0 025#0FC80FC37878783E
(1675219255.657951) can0 024#020301F2620B8011
(1675219255.662908) can0 0B0#000000001103
(1675219255.662917) can0 0B2#000000001103
(1675219255.663042) can0 223#000000000000002D
(1675219255.667231) can0 2C4#0381001708802112
(1675219255.668775) can0 020#000007
(1675219255.668781) can0 0B4#00000000D8000094
(1675219255.669117) can0 025#0FC80FC37878783E
(1675219255.669840) can0 024#020301F2620B8011
(1675219255.670821) can0 442#4002000000000000
(1675219255.672159) can0 260#0E00000000000078
(1675219255.672169) can0 351#00000000
(1675219255.674604) can0 0B0#000000001104
(1675219255.674924) can0 0B2#000000001104
(1675219255.675281) can0 224#0000000000000008
(1675219255.676066) can0 235#00000000003D
(1675219255.678675) can0 2D0#00001000100000FA
(1675219255.680848) can0 020#000007
(1675219255.681243) can0 0B4#00000000D8000094
(1675219255.681248) can0 024#020301F2620B8011
(1675219255.682103) can0 025#0FC80FC37878783E
(1675219255.684103) can0 4C7#0800012100000000
(1675219255.687719) can0 0B0#000000001105
(1675219255.688799) can0 0B2#000000001105
(1675219255.688800) can0 223#000000000000002D
(1675219255.688807) can0 2C1#00063D029DDC0C95
(1675219255.690833) can0 2C4#0384001708802115
(1675219255.690840) can0 260#0F00000000000079
(1675219255.691285) can0 394#00
(1675219255.692977) can0 020#000007
(1675219255.692988) can0 0B4#00000000D8000094
(1675219255.692990) can0 025#0FC80FC37878783E
(1675219255.693221) can0 024#020301F2620B8011
(1675219255.699065) can0 0B0#000000001106
(1675219255.699073) can0 0B2#000000001106
(1675219255.699079) can0 224#0000000000000008
(1675219255.699275) can0 235#00000000003D
(1675219255.704867) can0 020#000007
(1675219255.704875) can0 0B4#00000000D8000094
(1675219255.705097) can0 025#0FC70FC36E6E7829
(1675219255.705495) can0 024#020301F3620B8012
(1675219255.705911) can0 4C1#0100090000000000
(1675219255.710181) can0 2D0#00001000100000FA
(1675219255.711020) can0 0B0#000000001107
(1675219255.711025) can0 0B2#000000001107
(1675219255.711227) can0 223#000000000000002D
(1675219255.711351) can0 260#0F00000000000079
(1675219255.714351) can0 2C4#0388001708802119
(1675219255.716900) can0 020#000007
(1675219255.716908) can0 0B4#00000000D8000094
(1675219255.717157) can0 025#0FC70FC37878783D
(1675219255.717953) can0 024#020301F2620B8011
(1675219255.720380) can0 2C1#00067802A8DC0DDC
(1675219255.722820) can0 0B0#000000001108
(1675219255.722826) can0 0B2#000000001108
(1675219255.723288) can0 224#0000000000000008
(1675219255.723425) can0 235#00000000003D
(1675219255.729305) can0 020#000007
(1675219255.729313) can0 0B4#00000000D8000094
(1675219255.729317) can0 024#020301F1620B8010
(1675219255.729494) can0 025#0FC70FC37878783D
(1675219255.729788) can0 3A0#004F000000000019
(1675219255.732481) can0 260#0F00000000000079
(1675219255.732489) can0 351#00000000
(1675219255.735096) can0 0B0#000000001109
(1675219255.735105) can0 0B2#000000001109
(1675219255.735438) can0 223#000000000000002D
(1675219255.737719) can0 2C4#038C00170880211D
(1675219255.741131) can0 020#000007
(1675219255.741140) can0 0B4#00000000D8000094
(1675219255.741337) can0 025#0FC70FC37878783D
(1675219255.741727) can0 024#020301F2620B8011
(1675219255.741732) can0 621#1100000000000000
(1675219255.742207) can0 2D0#00001000100000FA
(1675219255.747365) can0 0B0#00000000110A
(1675219255.747375) can0 0B2#00000000110A
(1675219255.747382) can0 224#0000000000000008
(1675219255.748975) can0 235#00000000003D
(1675219255.752126) can0 2C1#00066D02BCDC0DE5
(1675219255.752131) can0 260#0F00000000000079
(1675219255.752857) can0 020#000007
(1675219255.752862) can0 0B4#00000000D8000094
(1675219255.753211) can0 025#0FC70FC37878783D
(1675219255.753487) can0 024#020301F2620B8011
(1675219255.759222) can0 0B0#00000000110B
(1675219255.759230) can0 0B2#00000000110B
(1675219255.760314) can0 223#000000000000002D
(1675219255.761428) can0 2C4#038E00170880211F
(1675219255.765568) can0 020#000007
(1675219255.765980) can0 0B4#00000000D8000094
(1675219255.766404) can0 025#0FC70FC37878783D
(1675219255.766409) can0 024#020301F2620B8011
(1675219255.768029) can0 440#4202000001000000
(1675219255.771058) can0 0B0#00000000110C
(1675219255.771387) can0 0B2#00000000110C
(1675219255.771391) can0 224#0000000000000008
(1675219255.771590) can0 235#00000000003D
(1675219255.772040) can0 260#0F00000000000079
(1675219255.773547) can0 2D0#00001000100000FA
(1675219255.777308) can0 020#000007
(1675219255.777314) can0 0B4#00000000D8000094
(1675219255.777562) can0 025#0FC70FC37878783D
(1675219255.778271) can0 024#020301F2620B8011
(1675219255.783191) can0 0B0#00000000110D
(1675219255.783198) can0 0B2#00000000110D
(1675219255.783429) can0 223#000000000000002D
(1675219255.783660) can0 2C1#0006F202DADC0E89
(1675219255.785005) can0 2C4#0390001708802121
(1675219255.789114) can0 020#000007
(1675219255.789119) can0 0B4#00000000D8000094
(1675219255.789446) can0 025#0FC70FC37878783D
(1675219255.790237) can0 024#020301F2620C8012
(1675219255.792382) can0 260#0F00000000000079
(1675219255.793572) can0 351#00000000
(1675219255.795685) can0 0B0#00000000110E
(1675219255.795695) can0 0B2#00000000110E
(1675219255.795698) can0 224#0000000000000008
(1675219255.797592) can0 235#00000000003D
(1675219255.801601) can0 020#000007
(1675219255.801604) can0 0B4#00000000D8000094
(1675219255.801608) can0 025#0FC70FC37878783D
(1675219255.803502) can0 024#020301F2620B8011
(1675219255.807435) can0 2D0#00001000100000FA
(1675219255.807442) can0 0B0#00000000110F
(1675219255.807486) can0 0B2#00000000110F
(1675219255.808746) can0 223#000000000000002D
(1675219255.810055) can0 2C4#0394001708802125
(1675219255.812578) can0 260#0F00000000000079
(1675219255.813266) can0 020#000007
(1675219255.813604) can0 0B4#00000000D8000094
(1675219255.813992) can0 025#0FC70FC37878783D
(1675219255.814728) can0 024#020301F1620B8010
(1675219255.815584) can0 2C1#0007320307DC0EF8
(1675219255.819458) can0 0B0#000000001100
(1675219255.819467) can0 0B2#000000001100
(1675219255.819698) can0 224#0000000000000008
(1675219255.821001) can0 235#00000000003D
(1675219255.825118) can0 020#000007
(1675219255.825480) can0 0B4#00000000D8000094
(1675219255.826560) can0 025#0FC70FC37878783D
(1675219255.826565) can0 024#020301F2620C8012
(1675219255.829915) can0 3A0#004F000000000019
(1675219255.831525) can0 0B0#000000001101
(1675219255.831534) can0 0B2#000000001101
(1675219255.832047) can0 223#000000000000002D
(1675219255.832966) can0 2C4#0397001708802128
(1675219255.835114) can0 260#0F00000000000079
(1675219255.837759) can0 2D0#00001000100000FA
(1675219255.837762) can0 020#000007
(1675219255.837765) can0 0B4#00000000D8000094
(1675219255.837773) can0 025#0FC70FC37878783D
(1675219255.839444) can0 024#020301F2620C8012
(1675219255.843410) can0 0B0#000000001102
(1675219255.843415) can0 0B2#000000001102
(1675219255.843851) can0 224#0000000000000008
(1675219255.843858) can0 235#00000000003D
(1675219255.847302) can0 2C1#00075E032BDB0F48
(1675219255.849371) can0 020#000007
(1675219255.849377) can0 0B4#00000000D8000094
(1675219255.849938) can0 024#020301F1620C8011
(1675219255.850123) can0 025#0FC70FC38282825B
(1675219255.852293) can0 260#0E00000000000078
(1675219255.852885) can0 351#00000000
(1675219255.855997) can0 0B0#000000001103
(1675219255.856004) can0 0B2#000000001103
(1675219255.857249) can0 223#000000000000002D
(1675219255.858920) can0 2C4#03A0001708802131
(1675219255.860776) can0 442#4002000000000000
(1675219255.861276) can0 020#000007
(1675219255.861561) can0 0B4#00000000D8000094
(1675219255.862120) can0 025#0FC70FC37878783D
(1675219255.862233) can0 024#020301F1620C8011
(1675219255.867576) can0 0B0#000000001104
(1675219255.867585) can0 0B2#000000001104
(1675219255.867920) can0 224#0000000000000008
(1675219255.868442) can0 235#00000000003D
(1675219255.868702) can0 2D0#00001000100000FA
(1675219255.871447) can0 638#1300000000000000
(1675219255.872828) can0 260#0E00000000000078
(1675219255.873390) can0 020#000007
(1675219255.873620) can0 0B4#00000000D8000094
(1675219255.874190) can0 025#0FC70FC37878783D
(1675219255.874194) can0 024#020301F2620C8012
(1675219255.879544) can0 2C1#0007D8034FDB10E7
(1675219255.879552) can0 2C4#03A6001708802137
(1675219255.879885) can0 0B0#000000001105
(1675219255.879889) can0 0B2#000000001105
(1675219255.880254) can0 223#000000000000002D
(1675219255.880257) can0 3B7#0000800000000000
(1675219255.885553) can0 020#000007
(1675219255.885559) can0 0B4#00000000D8000094
(1675219255.885836) can0 024#020301F1620C8011
(1675219255.886272) can0 025#0FC70FC37878783D
(1675219255.889412) can0 38A#0800040000
(1675219255.891355) can0 610#20000064C0FFFEE0
(1675219255.891361) can0 0B0#000000001106
(1675219255.891564) can0 0B2#000000001106
(1675219255.892095) can0 224#0000000000000008
(1675219255.892102) can0 235#00000000003D
(1675219255.892310) can0 260#0E00000000000078
(1675219255.897926) can0 020#000007
(1675219255.898272) can0 0B4#00000000D8000094
(1675219255.899085) can0 024#020301F1620C8011
(1675219255.900986) can0 025#0FC70FC37878783D
(1675219255.900992) can0 2D0#00001000100000FA
(1675219255.902420) can0 2C4#03AA00170880213B
(1675219255.904058) can0 0B0#000000001107
(1675219255.904066) can0 0B2#000000001107
(1675219255.904070) can0 223#000000000000002D
(1675219255.906569) can0 620#1000025DF0402000
(1675219255.909787) can0 020#000007
(1675219255.910241) can0 0B4#00000000D8000094
(1675219255.910243) can0 025#0FC70FC37878783D
(1675219255.910666) can0 024#020301F1620C8011
(1675219255.911737) can0 2C1#0008510382DB1094
(1675219255.912101) can0 260#0E00000000000078
(1675219255.913227) can0 351#00000000
(1675219255.913759) can0 3B3#03AA34
(1675219255.915906) can0 0B0#000000001108
(1675219255.915917) can0 0B2#000000001108
(1675219255.915920) can0 224#0000000000000008
(1675219255.916530) can0 235#00000000003D
(1675219255.921925) can0 020#000007
(1675219255.921930) can0 0B4#00000000D8000094
(1675219255.922098) can0 025#0FC70FC37878783D
(1675219255.922884) can0 024#020301F1620C8011
(1675219255.926261) can0 2C4#03B7001708802148
(1675219255.927803) can0 0B0#000000001109
(1675219255.928142) can0 0B2#000000001109
(1675219255.928146) can0 223#000000000000002D
(1675219255.929751) can0 3A0#004F000000000019
(1675219255.932494) can0 260#0E00000000000078
(1675219255.932500) can0 2D0#00001000100000FA
(1675219255.933818) can0 020#000007
(1675219255.933823) can0 0B4#00000000D8000094
(1675219255.934044) can0 025#0FC70FC37878783D
(1675219255.934889) can0 024#020301F1620C8011
(1675219255.940384) can0 0B0#00000000110A
(1675219255.940390) can0 0B2#00000000110A
(1675219255.940393) can0 224#0000000000000008
(1675219255.940396) can0 235#00000000003D
(1675219255.942847) can0 2C1#00088A03AADB11F6
(1675219255.945900) can0 020#000007
(1675219255.945970) can0 0B4#00000000D8000094
(1675219255.946403) can0 024#020301F0620C8010
(1675219255.946407) can0 025#0FC70FC37878783D
(1675219255.949758) can0 2C4#03BE00170880214F
(1675219255.952106) can0 0B0#00000000110B
(1675219255.952112) can0 0B2#00000000110B
(1675219255.952298) can0 223#000000000000002D
(1675219255.953623) can0 260#0E00000000000078
(1675219255.956480) can0 440#4202000001000000
(1675219255.958058) can0 020#000007
(1675219255.958063) can0 0B4#00000000D8000094
(1675219255.958455) can0 025#0FC70FC37878783D
(1675219255.959296) can0 024#020301F0620C8010
(1675219255.964063) can0 0B0#00000000110C
(1675219255.964070) can0 0B2#00000000110C
(1675219255.964605) can0 224#0000000000000008
(1675219255.964609) can0 235#00000000003D
(1675219255.964766) can0 2D0#00001000100000FA
(1675219255.969951) can0 020#000007
(1675219255.969952) can0 0B4#00000000D8000094
(1675219255.970467) can0 025#0FC70FC37878783D
(1675219255.970840) can0 024#020301F0620C8010
(1675219255.972333) can0 260#0E00000000000078
(1675219255.972339) can0 351#00000000
(1675219255.973497) can0 2C4#03D0001708802161
(1675219255.974988) can0 2C1#0008CB03E7DB1275
(1675219255.976024) can0 0B0#00000000110D
(1675219255.976029) can0 0B2#00000000110D
(1675219255.976258) can0 223#000000000000002D
(1675219255.982297) can0 020#000007
(1675219255.982303) can0 0B4#00000000D8000094
(1675219255.982971) can0 025#0FC70FC37878783D
(1675219255.983534) can0 024#020301F0620D8011
(1675219255.988504) can0 0B0#00000000110E
(1675219255.988512) can0 0B2#00000000110E
(1675219255.988515) can0 224#0000000000000008
(1675219255.988668) can0 235#00000000003D
(1675219255.991030) can0 394#00
(1675219255.992518) can0 260#0E00000000000078
(1675219255.994398) can0 020#000007
(1675219255.994405) can0 0B4#00000000D8000094
(1675219255.994707) can0 024#020301F0620E8012
(1675219255.995938) can0 025#0FC70FC37878783D
(1675219255.995943) can0 2D0#00001000100000FA
(1675219255.997355) can0 2C4#03E3001708802174
(1675219256.000378) can0 0B0#00000000110F
(1675219256.000383) can0 0B2#00000000110F
(1675219256.001410) can0 223#000000000000002D
(1675219256.001418) can0 611#210010A00002821A
(1675219256.006654) can0 2C1#00092C042BDA121B
(1675219256.006661) can0 020#000007
(1675219256.006665) can0 0B4#00000000D8000094
(1675219256.006669) can0 024#020301EF620E8011
(1675219256.007941) can0 025#0FC70FC37878783D
(1675219256.012274) can0 0B0#000000001100
(1675219256.012658) can0 0B2#000000001100
(1675219256.012666) can0 224#0000000000000008
(1675219256.012943) can0 235#00000000003D
(1675219256.012947) can0 260#0E00000000000078
(1675219256.018183) can0 020#000007
(1675219256.018491) can0 0B4#00000000D8000094
(1675219256.018757) can0 025#0FC70FC37878783D
(1675219256.019538) can0 024#020301EF620D8010
(1675219256.020323) can0 2C4#03F5001708802186
(1675219256.024432) can0 0B0#000000001101
(1675219256.024440) can0 0B2#000000001101
(1675219256.025806) can0 223#000000000000002D
(1675219256.028037) can0 2D0#00001000100000FA
(1675219256.029695) can0 3A0#004F000000000019
(1675219256.030476) can0 020#000007
(1675219256.030480) can0 0B4#00000000D8000094
(1675219256.031021) can0 025#0FC70FC37878783D
(1675219256.031026) can0 260#0E00000000000078
(1675219256.031602) can0 024#020301F0620E8012
(1675219256.032106) can0 351#00000000
(1675219256.036426) can0 0B0#000000001102
(1675219256.036823) can0 0B2#000000001102
(1675219256.037805) can0 224#0000000000000008
(1675219256.037807) can0 235#00000000003D
(1675219256.039201) can0 2C1#0009740467D9139F
(1675219256.042416) can0 020#000007
(1675219256.042424) can0 0B4#00000000D8000094
(1675219256.042823) can0 025#0FC70FC37878783D
(1675219256.043293) can0 024#020301EF620E8011
(1675219256.043890) can0 2C4#0400001708802192
(1675219256.048735) can0 0B0#000000001103
(1675219256.048741) can0 0B2#000000001103
(1675219256.050714) can0 223#000000000000002D
(1675219256.050722) can0 442#4002000000000000
(1675219256.052233) can0 260#0E00000000000078
(1675219256.054413) can0 020#000007
(1675219256.054421) can0 0B4#00000000D8000094
(1675219256.054721) can0 024#020301EF620E8011
(1675219256.055081) can0 025#0FC60FC36E6E8232
(1675219256.059755) can0 2D0#00001000100000FA
(1675219256.060413) can0 4DC#1D00030200000000
(1675219256.060722) can0 0B0#000000001104
(1675219256.060728) can0 0B2#000000001104
(1675219256.060981) can0 224#0000000000000008
(1675219256.062200) can0 235#00000000003D
(1675219256.066471) can0 020#000007
(1675219256.066477) can0 0B4#00000000D8000094
(1675219256.067095) can0 024#020301EE620F8011
(1675219256.067099) can0 025#0FC60FC37878783C
(1675219256.067367) can0 2C4#04130017088021A5
(1675219256.070200) can0 2C1#00098704A8D813F2
(1675219256.071728) can0 38C#0000000000000037
(1675219256.072387) can0 260#0E00000000000078
(1675219256.072392) can0 0B0#000000001105
(1675219256.072498) can0 0B2#000000001105
(1675219256.072965) can0 223#000000000000002D
(1675219256.078557) can0 020#000007
(1675219256.078565) can0 0B4#00000000D8000094
(1675219256.079272) can0 025#0FC60FC37878783C
(1675219256.079276) can0 024#020301EE620F8011
(1675219256.085002) can0 0B0#000000001106
(1675219256.085008) can0 0B2#000000001106
(1675219256.086113) can0 224#0000000000000008
(1675219256.088178) can0 235#00000000003D
(1675219256.090831) can0 020#000007
(1675219256.090844) can0 0B4#00000000D8000094
(1675219256.091037) can0 2D0#00001000100000FA
(1675219256.091626) can0 025#0FC60FC37878783C
(1675219256.091633) can0 260#0E00000000000078
(1675219256.091636) can0 024#020301ED620F8010
(1675219256.091854) can0 2C4#04260017088021B8
(1675219256.092115) can0 351#00000000
(1675219256.096721) can0 0B0#000000001107
(1675219256.096726) can0 0B2#000000001107
(1675219256.096728) can0 223#000000000000002D
(1675219256.099645) can0 3B0#0000002A0000
(1675219256.101270) can0 2C1#0009DB04E3D71481
(1675219256.102793) can0 020#000007
(1675219256.102800) can0 0B4#00000000D8000094
(1675219256.102804) can0 024#020301ED62108011
(1675219256.103009) can0 025#0FC60FC37878783C
(1675219256.109092) can0 0B0#000000001108
(1675219256.109094) can0 0B2#000000001108
(1675219256.109098) can0 224#0000000000000008
(1675219256.110032) can0 235#00000000003D
(1675219256.112264) can0 260#0E00000000000078
(1675219256.114847) can0 2C4#04440017088021D6
(1675219256.114904) can0 020#000007
(1675219256.114906) can0 0B4#00000000D8000094
(1675219256.115474) can0 024#020301EE62108012
(1675219256.116233) can0 025#0FC60FC37878783C
(1675219256.120882) can0 0B0#000000001109
(1675219256.120891) can0 0B2#000000001109
(1675219256.120894) can0 223#000000000000002D
(1675219256.123087) can0 2D0#00001000100000FA
(1675219256.126728) can0 020#000007
(1675219256.127096) can0 0B4#00000000D8000094
(1675219256.127332) can0 025#0FC50FC33C3C78C3
(1675219256.128313) can0 024#020301EC620F800F
(1675219256.129555) can0 3A0#0050000000000019
(1675219256.131293) can0 260#0E00000000000078
(1675219256.132774) can0 0B0#00000000110A
(1675219256.132781) can0 0B2#00000000110A
(1675219256.133147) can0 224#0000000000000008
(1675219256.133357) can0 235#00000000003D
(1675219256.133579) can0 2C1#0009F7051DD614D7
(1675219256.138091) can0 2C4#04590017088021EB
(1675219256.138634) can0 020#000007
(1675219256.139027) can0 0B4#00000000D8000094
(1675219256.139031) can0 025#0FC50FC37878783B
(1675219256.139603) can0 024#020301EC62118011
(1675219256.145222) can0 0B0#00000000110B
(1675219256.146286) can0 0B2#00000000110B
(1675219256.146291) can0 223#000000000000002D
(1675219256.147536) can0 440#4202000001000000
(1675219256.150800) can0 020#000007
(1675219256.150805) can0 0B4#00000000D8000094
(1675219256.151161) can0 025#0FC50FC37878783B
(1675219256.151407) can0 260#0E00000000000078
(1675219256.152004) can0 024#020301EC62118011
(1675219256.153986) can0 351#00000000
(1675219256.154578) can0 2D0#00001000100000FA
(1675219256.157092) can0 0B0#00000000110C
(1675219256.157100) can0 0B2#00000000110C
(1675219256.157460) can0 224#0000000000000008
(1675219256.158077) can0 235#00000000003D
(1675219256.159634) can0 380#200808000000F800
(1675219256.161961) can0 2C4#0477001708802109
(1675219256.162707) can0 020#000007
(1675219256.162957) can0 0B4#00000000D8000094
(1675219256.163268) can0 024#020301EC62118011
(1675219256.163472) can0 025#0FC50FC37878783B
(1675219256.164859) can0 2C1#0009EF054FD51501
(1675219256.169142) can0 0B0#00000000110D
(1675219256.169427) can0 0B2#00000000110D
(1675219256.171048) can0 223#000000000000002D
(1675219256.172732) can0 260#0E00000000000078
(1675219256.175084) can0 020#000007
(1675219256.175493) can0 0B4#00000000D8000094
(1675219256.175547) can0 025#0FC40FC36E6E7826
(1675219256.175550) can0 024#020301EB62118010
(1675219256.181294) can0 0B0#00000000110E
(1675219256.181304) can0 0B2#00000000110E
(1675219256.181308) can0 224#0000000000000008
(1675219256.181675) can0 235#00000000003D
(1675219256.182317) can0 3B7#0000800000000000
(1675219256.183376) can0 3B1#0000002400000000
(1675219256.185211) can0 2C4#048D00170880211F
(1675219256.186585) can0 2D0#00001000100000FA
(1675219256.186952) can0 020#000007
(1675219256.186957) can0 0B4#00000000D8000094
(1675219256.187376) can0 025#0FC40FC37878783A
(1675219256.187728) can0 024#020301EB62128011
(1675219256.189599) can0 3A1#0000000000FF0000
(1675219256.192487) can0 260#0E00000000000078
(1675219256.193079) can0 0B0#00000000110F
(1675219256.193084) can0 0B2#00000000110F
(1675219256.193301) can0 223#000000000000002D
(1675219256.196842) can0 2C1#0009B80585D415FF
(1675219256.199095) can0 020#000007
(1675219256.199102) can0 0B4#00000000D8000094
(1675219256.199285) can0 025#0FC40FC37878783A
(1675219256.199978) can0 024#020301EB62138012
(1675219256.205169) can0 0B0#000000001100
(1675219256.205522) can0 0B2#000000001100
(1675219256.205529) can0 224#0000000000000008
(1675219256.206372) can0 235#00000000003D
(1675219256.206376) can0 620#1000025EF0402000
(1675219256.208594) can0 2C4#04A5001708802137
(1675219256.209627) can0 383#0000000000000000
(1675219256.211195) can0 020#000007
