(1675219323.704577) can0 2D0#008B100010000085
(1675219323.704875) can0 020#000007
(1675219323.705982) can0 0B4#00000000AC000068
(1675219323.705985) can0 025#0FC50FC37878783B
(1675219323.707241) can0 024#020301F4620E8016
(1675219323.707246) can0 2C4#037B00160880210B
(1675219323.709905) can0 0B0#000000001102
(1675219323.709908) can0 0B2#000000001102
(1675219323.710362) can0 224#0000000000000008
(1675219323.710365) can0 235#00000000003D
(1675219323.711985) can0 260#0E00000000000078
(1675219323.714073) can0 2C1#0804100294E0005D
(1675219323.715858) can0 020#000007
(1675219323.715860) can0 0B4#00000000AC000068
(1675219323.716123) can0 024#020301F5620E8017
(1675219323.716340) can0 025#0FC50FC37878783B
(1675219323.722395) can0 0B0#000000001103
(1675219323.723909) can0 0B2#000000001103
(1675219323.723913) can0 223#000000000000002D
(1675219323.725094) can0 440#4202000001000000
(1675219323.728016) can0 020#000007
(1675219323.728022) can0 0B4#00000000AC000068
(1675219323.728409) can0 025#0FC50FC37878783B
(1675219323.728412) can0 024#020301F4620E8016
(1675219323.729935) can0 620#1000024BF0402000
(1675219323.730209) can0 2C4#0376001608802106
(1675219323.731943) can0 260#0E00000000000078
(1675219323.732815) can0 351#00000000
(1675219323.733997) can0 0B0#000000001104
(1675219323.734000) can0 0B2#000000001104
(1675219323.734399) can0 224#0000000000000008
(1675219323.734401) can0 235#00000000003D
(1675219323.735623) can0 2D0#008D100010000087
(1675219323.739931) can0 020#000007
(1675219323.739935) can0 0B4#00000000AC000068
(1675219323.740666) can0 025#0FC50FC37878783B
(1675219323.740672) can0 024#020301F4620E8016
(1675219323.746344) can0 2C1#0804130293E0005F
(1675219323.746347) can0 0B0#000000001105
(1675219323.746348) can0 0B2#000000001105
(1675219323.747929) can0 223#000000000000002D
(1675219323.752344) can0 260#0E00000000000078
(1675219323.752347) can0 020#000007
(1675219323.752825) can0 0B4#00000000AC000068
(1675219323.752828) can0 024#020301F4620E8016
(1675219323.753188) can0 025#0FC50FC382828259
(1675219323.754094) can0 2C4#0372001608802102
(1675219323.758283) can0 0B0#000000001106
(1675219323.758289) can0 0B2#000000001106
(1675219323.758292) can0 224#0000000000000008
(1675219323.758516) can0 235#00000000003D
(1675219323.764454) can0 020#000007
(1675219323.764463) can0 0B4#00000000AC000068
(1675219323.764466) can0 024#020301F5620D8016
(1675219323.764467) can0 025#0FC50FC36E6E6E1D
(1675219323.764778) can0 621#1100000000000000
(1675219323.767232) can0 3A0#005E000000000018
(1675219323.767236) can0 2D0#008D100010000087
(1675219323.770626) can0 0B0#000000001107
(1675219323.772690) can0 0B2#000000001107
(1675219323.772693) can0 223#000000000000002D
(1675219323.772695) can0 260#0E00000000000078
(1675219323.776273) can0 020#000007
(1675219323.776279) can0 0B4#00000000AC000068
(1675219323.776281) can0 025#0FC50FC37878783B
(1675219323.776538) can0 024#020301F5620D8016
(1675219323.777663) can0 2C1#0804100290E00059
(1675219323.777666) can0 2C4#0374001608802104
(1675219323.782524) can0 0B0#000000001108
(1675219323.782531) can0 0B2#000000001108
(1675219323.782533) can0 224#0000000000000008
(1675219323.782534) can0 235#00000000003D
(1675219323.788645) can0 020#000007
(1675219323.788654) can0 0B4#00000000AC000068
(1675219323.788657) can0 025#0FC50FC37878783B
(1675219323.789495) can0 024#020201F4620D8115
(1675219323.792360) can0 260#0E00000000000078
(1675219323.792986) can0 351#00000000
(1675219323.794349) can0 0B0#000000001109
(1675219323.794353) can0 0B2#000000001109
(1675219323.794359) can0 223#000000000000002D
(1675219323.799321) can0 2D0#008E100010000088
(1675219323.800365) can0 020#000007
(1675219323.800369) can0 0B4#00000000AC000068
(1675219323.801062) can0 025#0FC50FC382828259
(1675219323.801065) can0 024#020201F5620E7F15
(1675219323.801568) can0 2C4#037D00160880210D
(1675219323.806444) can0 0B0#00000000110A
(1675219323.806448) can0 0B2#00000000110A
(1675219323.806450) can0 224#0000000000000008
(1675219323.806832) can0 235#00000000003D
(1675219323.809444) can0 2C1#08041B0299E0006D
(1675219323.811128) can0 394#00
(1675219323.812463) can0 260#0E00000000000078
(1675219323.812471) can0 020#000007
(1675219323.812473) can0 0B4#00000000AC000068
(1675219323.812894) can0 025#0FC50FC37878783B
(1675219323.813383) can0 024#020201F4620D7F13
(1675219323.818777) can0 0B0#00000000110B
(1675219323.818781) can0 0B2#00000000110B
(1675219323.820155) can0 223#000000000000002D
(1675219323.820159) can0 442#4002000000000000
(1675219323.824224) can0 020#000007
(1675219323.824229) can0 0B4#00000000AC000068
(1675219323.824689) can0 2C4#037F00160880210F
(1675219323.824694) can0 024#020201F4620D8014
(1675219323.824945) can0 025#0FC50FC37878783B
(1675219323.830414) can0 0B0#00000000110C
(1675219323.830418) can0 0B2#00000000110C
(1675219323.830744) can0 224#0000000000000008
(1675219323.830747) can0 235#00000000003D
(1675219323.831069) can0 2D0#008F100010000089
(1675219323.832156) can0 260#0E00000000000078
(1675219323.836818) can0 020#000007
(1675219323.836823) can0 0B4#00000000AC000068
(1675219323.837150) can0 024#020301F4620E8016
(1675219323.837980) can0 025#0FC50FC37878783B
(1675219323.841301) can0 2C1#0803F8029EDF004D
(1675219323.842523) can0 0B0#00000000110D
(1675219323.842529) can0 0B2#00000000110D
(1675219323.842932) can0 223#000000000000002D
(1675219323.848320) can0 2C4#0385001608802115
(1675219323.848326) can0 020#000007
(1675219323.848687) can0 0B4#00000000AC000068
(1675219323.849192) can0 025#0FC50FC37878783B
(1675219323.849195) can0 024#020201F4620F7F15
(1675219323.852156) can0 260#0E00000000000078
(1675219323.852725) can0 351#00000000
(1675219323.854794) can0 0B0#00000000110E
(1675219323.854801) can0 0B2#00000000110E
(1675219323.854803) can0 224#0000000000000008
(1675219323.855018) can0 235#00000000003D
(1675219323.861016) can0 020#000007
(1675219323.861455) can0 0B4#00000000AC000068
(1675219323.861458) can0 025#0FC50FC37878783B
(1675219323.861459) can0 024#020201F3620E7F13
(1675219323.862788) can0 2D0#008F100010000089
(1675219323.867010) can0 0B0#00000000110F
(1675219323.867014) can0 0B2#00000000110F
(1675219323.867349) can0 223#000000000000002D
(1675219323.867353) can0 3A0#005E000000000018
(1675219323.871922) can0 2C4#0389001608802119
(1675219323.871926) can0 260#0E00000000000078
(1675219323.872647) can0 020#000007
(1675219323.872651) can0 0B4#00000000AC000068
(1675219323.872824) can0 025#0FC50FC37878783B
(1675219323.873039) can0 2C1#0803FD02A0DF0054
(1675219323.873829) can0 024#020201F3620E8014
(1675219323.878959) can0 0B0#000000001100
(1675219323.878963) can0 0B2#000000001100
(1675219323.878965) can0 224#0000000000000008
(1675219323.879374) can0 235#00000000003D
(1675219323.882476) can0 4DD#1E00000100000000
(1675219323.885245) can0 020#000007
(1675219323.885249) can0 0B4#00000000AC000068
(1675219323.885251) can0 025#0FC50FC37878783B
(1675219323.885253) can0 024#020201F4620E8116
(1675219323.889424) can0 610#20000064C0FFFEE0
(1675219323.891206) can0 0B0#000000001101
(1675219323.891212) can0 0B2#000000001101
(1675219323.892608) can0 223#000000000000002D
(1675219323.892615) can0 260#0E00000000000078
(1675219323.894639) can0 2D0#009110001000008B
(1675219323.895460) can0 638#1300000000000000
(1675219323.895466) can0 2C4#0388001608802118
(1675219323.897403) can0 020#000007
(1675219323.897411) can0 0B4#00000000AC000068
(1675219323.897414) can0 025#0FC50FC37878783B
(1675219323.897418) can0 024#020201F3620E7F13
(1675219323.903563) can0 0B0#000000001102
(1675219323.903571) can0 0B2#000000001102
(1675219323.903574) can0 224#0000000000000008
(1675219323.904635) can0 235#00000000003D
(1675219323.904641) can0 2C1#0803FD02A5DF0059
(1675219323.909415) can0 020#000007
(1675219323.909423) can0 0B4#00000000AC000068
(1675219323.910047) can0 025#0FC50FC37878783B
(1675219323.910888) can0 024#020201F3620E8014
(1675219323.911476) can0 61A#2400FFFEC000B560
(1675219323.912490) can0 260#0E00000000000078
(1675219323.914581) can0 351#00000000
(1675219323.915498) can0 0B0#000000001103
(1675219323.915510) can0 0B2#000000001103
(1675219323.915513) can0 223#000000000000002D
(1675219323.915517) can0 440#4202000001000000
(1675219323.919575) can0 2C4#0390001608802120
(1675219323.921209) can0 020#000007
(1675219323.921215) can0 0B4#00000000AC000068
(1675219323.922536) can0 025#0FC50FC37878783B
(1675219323.922543) can0 024#020201F3620E8014
(1675219323.926328) can0 2D0#009410001000008E
(1675219323.927512) can0 0B0#000000001104
(1675219323.927524) can0 0B2#000000001104
(1675219323.927529) can0 224#0000000000000008
(1675219323.928051) can0 235#00000000003D
(1675219323.933360) can0 260#0E00000000000078
(1675219323.933370) can0 020#000007
(1675219323.933375) can0 0B4#00000000AC000068
(1675219323.933380) can0 025#0FC50FC37878783B
(1675219323.934319) can0 024#020201F3620E8014
(1675219323.936652) can0 2C1#0803EF02ACDF0052
(1675219323.939693) can0 0B0#000000001105
(1675219323.939702) can0 0B2#000000001105
(1675219323.939705) can0 223#000000000000002D
(1675219323.942962) can0 2C4#038E00160880211E
(1675219323.946318) can0 020#000007
(1675219323.946328) can0 0B4#00000000AC000068
(1675219323.947244) can0 025#0FC50FC37878783B
(1675219323.947250) can0 024#020201F4620E8015
(1675219323.951893) can0 0B0#000000001106
(1675219323.951900) can0 0B2#000000001106
(1675219323.952858) can0 224#0000000000000008
(1675219323.952864) can0 235#00000000003D
(1675219323.952867) can0 260#0E00000000000078
(1675219323.957597) can0 020#000007
(1675219323.958202) can0 0B4#00000000AC000068
(1675219323.958208) can0 025#0FC50FC37878783B
(1675219323.959246) can0 2D0#009410001000008E
(1675219323.959251) can0 024#020201F3620E8014
(1675219323.959255) can0 3B4#0000ACB000400000
(1675219323.960593) can0 611#210010A00002821B
(1675219323.963712) can0 0B0#000000001107
(1675219323.963721) can0 0B2#000000001107
(1675219323.964288) can0 223#000000000000002D
(1675219323.965649) can0 3B7#0000800000000000
(1675219323.966884) can0 2C4#038C00160880211C
(1675219323.966891) can0 3A0#005E000000000018
(1675219323.968488) can0 2C1#0803F902ACDF005C
(1675219323.969488) can0 020#000007
(1675219323.969497) can0 0B4#00000000AC000068
(1675219323.969502) can0 025#0FC50FC37878783B
(1675219323.970974) can0 024#020201F4620F8016
(1675219323.972504) can0 260#0E00000000000078
(1675219323.973232) can0 351#00000000
(1675219323.975792) can0 0B0#000000001108
(1675219323.975801) can0 0B2#000000001108
(1675219323.975805) can0 224#0000000000000008
(1675219323.977260) can0 235#00000000003D
(1675219323.979571) can0 4C1#0100090000000000
(1675219323.981194) can0 020#000007
(1675219323.981807) can0 0B4#00000000AC000068
(1675219323.982792) can0 025#0FC50FC37878783B
(1675219323.982795) can0 024#020201F4620E8015
(1675219323.987304) can0 0B0#000000001109
(1675219323.987308) can0 0B2#000000001109
(1675219323.987702) can0 223#000000000000002D
(1675219323.989768) can0 2D0#009510001000008F
(1675219323.991019) can0 2C4#0392001608802122
(1675219323.992174) can0 260#0E00000000000078
(1675219323.992993) can0 020#000007
(1675219323.992996) can0 0B4#00000000AC000068
(1675219323.993498) can0 025#0FC50FC37878783B
(1675219323.993505) can0 024#020201F4620E8015
(1675219323.996844) can0 4DC#1D00030200000000
(1675219323.999225) can0 0B0#00000000110A
(1675219323.999229) can0 0B2#00000000110A
(1675219323.999768) can0 224#0000000000000008
(1675219323.999776) can0 235#00000000003D
(1675219324.000625) can0 2C1#0803F402B2DF005D
(1675219324.005279) can0 020#000007
(1675219324.005283) can0 0B4#00000000AC000068
(1675219324.005506) can0 025#0FC50FC37878783B
(1675219324.005939) can0 024#020201F4620E8015
(1675219324.006665) can0 38C#0000000000000037
(1675219324.008032) can0 3B3#039128
(1675219324.009771) can0 442#4002000000000000
(1675219324.011927) can0 0B0#00000000110B
(1675219324.011930) can0 0B2#00000000110B
(1675219324.011932) can0 223#000000000000002D
(1675219324.013136) can0 260#0E00000000000078
(1675219324.013139) can0 2C4#0394001608802124
(1675219324.017431) can0 020#000007
(1675219324.017434) can0 0B4#00000000AC000068
(1675219324.017672) can0 025#0FC50FC37878783B
(1675219324.018172) can0 024#020201F3620E8014
(1675219324.021372) can0 2D0#009510001000008F
(1675219324.023209) can0 0B0#00000000110C
(1675219324.023214) can0 0B2#00000000110C
(1675219324.023660) can0 224#0000000000000008
(1675219324.023663) can0 235#00000000003D
(1675219324.029266) can0 020#000007
(1675219324.029270) can0 0B4#00000000AC000068
(1675219324.029517) can0 024#020201F3620E8014
(1675219324.030151) can0 025#0FC50FC37878783B
(1675219324.030155) can0 620#1000024BF0402000
(1675219324.031632) can0 2C1#0803E702ACDF004A
(1675219324.032092) can0 260#0E00000000000078
(1675219324.032936) can0 351#00000000
(1675219324.035384) can0 0B0#00000000110D
(1675219324.035390) can0 0B2#00000000110D
(1675219324.035392) can0 223#000000000000002D
(1675219324.036685) can0 2C4#0396001608802126
(1675219324.036688) can0 3B0#0000002A0000
(1675219324.041571) can0 020#000007
(1675219324.041575) can0 0B4#00000000AC000068
(1675219324.041576) can0 024#020201F3620E7F13
(1675219324.042015) can0 025#0FC50FC382828259
(1675219324.047452) can0 0B0#00000000110E
(1675219324.047457) can0 0B2#00000000110E
(1675219324.047459) can0 224#0000000000000008
(1675219324.047694) can0 235#00000000003D
(1675219324.052212) can0 260#0E00000000000078
(1675219324.053191) can0 2D0#0096100010000090
(1675219324.053195) can0 020#000007
(1675219324.053197) can0 0B4#00000000AC000068
(1675219324.054045) can0 024#020201F4620E8015
(1675219324.054048) can0 025#0FC50FC37878783B
(1675219324.059319) can0 0B0#00000000110F
(1675219324.059323) can0 0B2#00000000110F
(1675219324.059988) can0 223#000000000000002D
(1675219324.060017) can0 2C4#0393001608802123
(1675219324.061222) can0 38A#0800040000
(1675219324.063316) can0 2C1#0803E302ABDF0045
(1675219324.065312) can0 020#000007
(1675219324.065315) can0 0B4#00000000AC000068
(1675219324.066240) can0 025#0FC50FC37878783B
(1675219324.066244) can0 024#020201F3620E8115
(1675219324.066597) can0 3A0#005E000000000018
(1675219324.072045) can0 0B0#000000001100
(1675219324.072052) can0 0B2#000000001100
(1675219324.072057) can0 224#0000000000000008
(1675219324.073052) can0 235#00000000003D
(1675219324.073055) can0 260#0E00000000000078
(1675219324.077906) can0 020#000007
(1675219324.077910) can0 0B4#00000000AC000068
(1675219324.077911) can0 024#020301F3620E8015
(1675219324.077913) can0 025#0FC50FC37878783B
(1675219324.083890) can0 0B0#000000001101
(1675219324.083896) can0 0B2#000000001101
(1675219324.083899) can0 223#000000000000002D
(1675219324.084221) can0 2C4#0392001608802122
(1675219324.084788) can0 2D0#0098100010000092
(1675219324.090269) can0 020#000007
(1675219324.090275) can0 0B4#00000000AC000068
(1675219324.090277) can0 024#020201F3620E8014
(1675219324.092161) can0 025#0FC50FC37878783B
(1675219324.092170) can0 38A#0000040000
(1675219324.092174) can0 260#0E00000000000078
(1675219324.093072) can0 4C8#0900010200000000
(1675219324.093078) can0 351#00000000
(1675219324.095766) can0 2C1#0803EC02ACDF004F
(1675219324.095774) can0 0B0#000000001102
(1675219324.095777) can0 0B2#000000001102
(1675219324.095780) can0 224#0000000000000008
(1675219324.096545) can0 235#00000000003D
(1675219324.096928) can0 380#A00808000000F800
(1675219324.102092) can0 020#000007
(1675219324.102097) can0 0B4#00000000AC000068
(1675219324.102099) can0 025#0FC50FC37878783B
(1675219324.103199) can0 024#020301F3620E8015
(1675219324.105483) can0 440#4202000001000000
(1675219324.107964) can0 2C4#038B00160880211B
(1675219324.107970) can0 0B0#000000001103
(1675219324.107974) can0 0B2#000000001103
(1675219324.108421) can0 223#000000000000002D
(1675219324.111231) can0 394#00
(1675219324.111237) can0 398#0143
(1675219324.112525) can0 260#0E00000000000078
(1675219324.113918) can0 020#000007
(1675219324.114338) can0 0B4#00000000AC000068
(1675219324.114342) can0 025#0FC50FC37878783B
(1675219324.115801) can0 024#020201F3620E8014
(1675219324.116629) can0 2D0#0098100010000092
(1675219324.120213) can0 0B0#000000001104
(1675219324.120221) can0 0B2#000000001104
(1675219324.120224) can0 224#0000000000000008
(1675219324.120227) can0 235#00000000003D
(1675219324.120231) can0 423#00
(1675219324.126311) can0 020#000007
(1675219324.126317) can0 0B4#00000000AC000068
(1675219324.126319) can0 025#0FC50FC37878783B
(1675219324.126631) can0 3A1#0000000000FF0000
(1675219324.127525) can0 024#020201F3620F8015
(1675219324.127529) can0 2C1#0803EA02ADDF004E
(1675219324.131285) can0 2C4#038A00160880211A
(1675219324.132058) can0 0B0#000000001105
(1675219324.132064) can0 0B2#000000001105
(1675219324.132067) can0 223#000000000000002D
(1675219324.132559) can0 260#0E00000000000078
(1675219324.138229) can0 020#000007
(1675219324.138240) can0 0B4#00000000AC000068
(1675219324.138243) can0 024#020301F3620F8016
(1675219324.139278) can0 025#0FC50FC37878783B
(1675219324.144317) can0 0B0#000000001106
(1675219324.144323) can0 0B2#000000001106
(1675219324.144325) can0 224#0000000000000008
(1675219324.145997) can0 235#00000000003D
(1675219324.146915) can0 383#0000000000000000
(1675219324.148568) can0 2D0#009A100010000094
(1675219324.149932) can0 020#000007
(1675219324.149937) can0 0B4#00000000AC000068
(1675219324.150271) can0 025#0FC50FC37878783B
(1675219324.150274) can0 024#020301F3620E8015
(1675219324.152404) can0 260#0E00000000000078
(1675219324.152408) can0 3B1#0000002400000000
(1675219324.153126) can0 351#00000000
(1675219324.154547) can0 2C4#0390001608802120
(1675219324.156145) can0 0B0#000000001107
(1675219324.156157) can0 0B2#000000001107
(1675219324.156161) can0 223#000000000000002D
(1675219324.158630) can0 2C1#08044D02A9E200B1
(1675219324.162119) can0 020#000007
(1675219324.162125) can0 0B4#00000000AC000068
(1675219324.162511) can0 025#0FC50FC37878783B
(1675219324.162517) can0 024#020301F4620D8015
(1675219324.166918) can0 3A0#005E000000000018
(1675219324.168174) can0 0B0#000000001108
(1675219324.168178) can0 0B2#000000001108
(1675219324.168180) can0 224#0000000000000008
(1675219324.168510) can0 235#00000000003D
(1675219324.172697) can0 260#0E00000000000078
(1675219324.174215) can0 020#000007
(1675219324.174220) can0 0B4#00000000AC000068
(1675219324.174222) can0 025#0FC50FC37878783B
(1675219324.174994) can0 024#020301F4620E8016
(1675219324.178202) can0 2C4#038B00160880211B
(1675219324.180085) can0 0B0#000000001109
(1675219324.180092) can0 0B2#000000001109
(1675219324.181085) can0 223#000000000000002D
(1675219324.181093) can0 2D0#009A100010000094
(1675219324.186433) can0 020#000007
(1675219324.187298) can0 0B4#00000000AC000068
(1675219324.187303) can0 025#0FC50FC37878783B
(1675219324.187305) can0 024#020301F3620F8016
(1675219324.190789) can0 2C1#080446029EE2009F
(1675219324.192525) can0 0B0#00000000110A
(1675219324.192531) can0 0B2#00000000110A
(1675219324.192533) can0 224#0000000000000008
(1675219324.192536) can0 235#00000000003D
(1675219324.192992) can0 260#0E00000000000078
(1675219324.198447) can0 020#000007
(1675219324.198454) can0 0B4#00000000AC000068
(1675219324.198457) can0 025#0FC50FC37878783B
(1675219324.198807) can0 024#020201F3620F7F14
(1675219324.199993) can0 442#4002000000000000
(1675219324.201979) can0 2C4#0384001608802114
(1675219324.204298) can0 0B0#00000000110B
(1675219324.204310) can0 0B2#00000000110B
(1675219324.204313) can0 223#000000000000002D
(1675219324.210761) can0 020#000007
(1675219324.210770) can0 0B4#00000000AC000068
(1675219324.210774) can0 025#0FC50FC37878783B
(1675219324.210777) can0 024#020201F4620F8016
(1675219324.212230) can0 2D0#009A100010000094
(1675219324.212238) can0 260#0E00000000000078
(1675219324.213055) can0 351#00000000
(1675219324.216849) can0 0B0#00000000110C
(1675219324.216855) can0 0B2#00000000110C
(1675219324.217943) can0 224#0000000000000008
(1675219324.217947) can0 235#00000000003D
(1675219324.222570) can0 2C1#08043B0293E10088
(1675219324.222576) can0 020#000007
(1675219324.222578) can0 0B4#00000000AC000068
(1675219324.222934) can0 025#0FC50FC37878783B
(1675219324.224245) can0 024#020201F5620E8117
(1675219324.225260) can0 2C4#0380001608802110
(1675219324.228754) can0 0B0#00000000110D
(1675219324.228760) can0 0B2#00000000110D
(1675219324.228762) can0 223#000000000000002D
(1675219324.232651) can0 260#0E00000000000078
(1675219324.234670) can0 020#000007
(1675219324.234681) can0 0B4#00000000AC000068
(1675219324.234684) can0 025#0FC50FC37878783B
(1675219324.235304) can0 024#020201F4620E8015
(1675219324.240832) can0 0B0#00000000110E
(1675219324.240837) can0 0B2#00000000110E
(1675219324.240840) can0 224#0000000000000008
(1675219324.240842) can0 235#00000000003D
(1675219324.243877) can0 2D0#009B100010000095
(1675219324.246791) can0 020#000007
(1675219324.246799) can0 0B4#00000000AC000068
(1675219324.246802) can0 024#020201F3620E8014
(1675219324.248530) can0 025#0FC50FC37878783B
(1675219324.248536) can0 2C4#037F00160880210F
(1675219324.252832) can0 260#0E00000000000078
(1675219324.252839) can0 0B0#00000000110F
(1675219324.252841) can0 0B2#00000000110F
(1675219324.252843) can0 223#000000000000002D
(1675219324.253899) can0 2C1#08044D0280E20088
(1675219324.258949) can0 020#000007
(1675219324.258954) can0 0B4#00000000AC000068
(1675219324.258957) can0 024#020301F4620E8016
(1675219324.260498) can0 025#0FC50FC382828259
(1675219324.264843) can0 0B0#000000001100
(1675219324.264851) can0 0B2#000000001100
(1675219324.264855) can0 224#0000000000000008
(1675219324.265590) can0 235#00000000003D
(1675219324.265595) can0 3B7#0000800000000000
(1675219324.265597) can0 622#1200E83000000000
(1675219324.266723) can0 3A0#005D000000FFFF18
(1675219324.270699) can0 020#000007
(1675219324.270708) can0 0B4#00000000AC000068
(1675219324.271239) can0 025#0FC50FC37878783B
(1675219324.271243) can0 024#020301F4620E8016
(1675219324.272365) can0 2C4#0382001608802112
(1675219324.272370) can0 260#0E00000000000078
(1675219324.273012) can0 351#00000000
(1675219324.275835) can0 2D0#009C100010000096
(1675219324.276896) can0 0B0#000000001101
(1675219324.276902) can0 0B2#000000001101
(1675219324.276906) can0 223#000000000000002D
(1675219324.282531) can0 020#000007
(1675219324.282540) can0 0B4#00000000AC000068
(1675219324.283279) can0 025#0FC50FC37878783B
(1675219324.283285) can0 024#020301F4620E8016
(1675219324.286178) can0 2C1#08044A027DE20082
(1675219324.289101) can0 0B0#000000001102
(1675219324.289110) can0 0B2#000000001102
(1675219324.289114) can0 224#0000000000000008
(1675219324.289509) can0 235#00000000003D
(1675219324.292495) can0 260#0E00000000000078
(1675219324.294803) can0 020#000007
(1675219324.294810) can0 0B4#00000000AC000068
(1675219324.294813) can0 024#020201F4620E7F14
(1675219324.294815) can0 440#4202000001000000
(1675219324.295571) can0 025#0FC50FC37878783B
(1675219324.295577) can0 2C4#0385001608802115
(1675219324.300755) can0 0B0#000000001103
(1675219324.300762) can0 0B2#000000001103
(1675219324.301452) can0 223#000000000000002D
(1675219324.306963) can0 020#000007
(1675219324.306970) can0 0B4#00000000AC000068
(1675219324.306974) can0 024#020301F4620E8016
(1675219324.307519) can0 025#0FC50FC37878783B
(1675219324.307523) can0 2D0#009E100010000098
(1675219324.313222) can0 260#0E00000000000078
(1675219324.313229) can0 0B0#000000001104
(1675219324.313233) can0 0B2#000000001104
(1675219324.313237) can0 224#0000000000000008
(1675219324.313708) can0 235#00000000003D
(1675219324.317766) can0 2C1#0804B3026EE500DF
(1675219324.318616) can0 020#000007
(1675219324.319173) can0 0B4#00000000AC000068
(1675219324.319180) can0 025#0FC50FC37878783B
(1675219324.319183) can0 024#020201F4620E8015
(1675219324.319825) can0 2C4#0388001608802118
(1675219324.325538) can0 0B0#000000001105
(1675219324.326730) can0 0B2#000000001105
(1675219324.326735) can0 223#000000000000002D
(1675219324.330543) can0 620#1000024BF0402000
(1675219324.330552) can0 020#000007
(1675219324.331000) can0 0B4#00000000AC000068
(1675219324.331004) can0 025#0FC50FC37878783B
(1675219324.331544) can0 024#020201F4620E7F14
(1675219324.332363) can0 260#0E00000000000078
(1675219324.332367) can0 351#00000000
(1675219324.337352) can0 0B0#000000001106
(1675219324.337357) can0 0B2#000000001106
(1675219324.337360) can0 224#0000000000000008
(1675219324.338367) can0 235#00000000003D
(1675219324.338776) can0 2D0#009E100010000098
(1675219324.343014) can0 020#000007
(1675219324.343020) can0 0B4#00000000AC000068
(1675219324.343022) can0 025#0FC50FC37878783B
(1675219324.343343) can0 2C4#0388001608802118
(1675219324.344316) can0 024#020201F4620F7F15
(1675219324.349508) can0 0B0#000000001107
(1675219324.349518) can0 0B2#000000001107
(1675219324.349521) can0 223#000000000000002D
(1675219324.349527) can0 2C1#0804A00261E500BF
(1675219324.352393) can0 260#0E00000000000078
(1675219324.354903) can0 020#000007
(1675219324.354910) can0 0B4#00000000AC000068
(1675219324.355782) can0 024#020201F3620F8015
(1675219324.355787) can0 025#0FC50FC37878783B
(1675219324.361151) can0 0B0#000000001108
(1675219324.361158) can0 0B2#000000001108
(1675219324.361540) can0 224#0000000000000008
(1675219324.362468) can0 235#00000000003D
(1675219324.366929) can0 2C4#0387001608802117
(1675219324.366937) can0 3A0#005D000000FFFF18
(1675219324.366939) can0 020#000007
(1675219324.367403) can0 0B4#00000000AC000068
(1675219324.367408) can0 025#0FC50FC37878783B
(1675219324.368011) can0 024#020201F3620E8014
(1675219324.370688) can0 2D0#00A010001000009A
(1675219324.372421) can0 260#0E00000000000078
(1675219324.373187) can0 0B0#000000001109
(1675219324.373190) can0 0B2#000000001109
(1675219324.373193) can0 223#000000000000002D
(1675219324.379762) can0 020#000007
(1675219324.379776) can0 0B4#00000000AC000068
(1675219324.379780) can0 025#0FC50FC37878783B
(1675219324.381180) can0 024#020201F3620E8014
(1675219324.381187) can0 2C1#0804AD0262E500CD
(1675219324.385532) can0 0B0#00000000110A
(1675219324.385539) can0 0B2#00000000110A
(1675219324.385543) can0 224#0000000000000008
(1675219324.385553) can0 235#00000000003D
(1675219324.389006) can0 442#4002000000000000
(1675219324.389361) can0 610#20000064C0FFFEE0
(1675219324.390059) can0 2C4#0389001608802119
(1675219324.391220) can0 020#000007
(1675219324.391224) can0 0B4#00000000AC000068
(1675219324.391227) can0 025#0FC50FC37878783B
(1675219324.392142) can0 024#020201F4620E8015
(1675219324.392147) can0 260#0E00000000000078
(1675219324.393140) can0 351#00000000
(1675219324.397406) can0 0B0#00000000110B
(1675219324.397413) can0 0B2#00000000110B
(1675219324.397863) can0 223#000000000000002D
(1675219324.402628) can0 2D0#00A210001000009C
(1675219324.403371) can0 020#000007
(1675219324.403375) can0 0B4#00000000AC000068
(1675219324.403377) can0 025#0FC50FC37878783B
(1675219324.403832) can0 4C3#0300120100000000
(1675219324.404318) can0 024#020201F4620E8015
(1675219324.409667) can0 0B0#00000000110C
(1675219324.409673) can0 0B2#00000000110C
(1675219324.409676) can0 224#0000000000000008
(1675219324.410926) can0 235#00000000003D
(1675219324.410930) can0 394#00
(1675219324.414807) can0 260#0E00000000000078
(1675219324.414813) can0 2C1#08048F0254E400A0
(1675219324.415555) can0 2C4#038B00160880211B
(1675219324.415561) can0 020#000007
(1675219324.415565) can0 0B4#00000000AC000068
(1675219324.415568) can0 025#0FC50FC37878783B
(1675219324.416901) can0 024#020201F3620E8014
(1675219324.421487) can0 0B0#00000000110D
(1675219324.421493) can0 0B2#00000000110D
(1675219324.423273) can0 223#000000000000002D
(1675219324.427375) can0 020#000007
(1675219324.427381) can0 0B4#00000000AC000068
(1675219324.427383) can0 025#0FC50FC37878783B
(1675219324.428201) can0 024#020201F3620E8014
(1675219324.432539) can0 260#0E00000000000078
(1675219324.433463) can0 0B0#00000000110E
(1675219324.433468) can0 0B2#00000000110E
(1675219324.433906) can0 224#0000000000000008
(1675219324.433911) can0 235#00000000003D
(1675219324.435638) can0 2D0#00A410001000009E
(1675219324.437298) can0 2C4#038A00160880211A
(1675219324.439332) can0 020#000007
(1675219324.439337) can0 0B4#00000000AC000068
(1675219324.439339) can0 025#0FC50FC37878783B
(1675219324.440231) can0 024#020201F3620E8014
(1675219324.444684) can0 2C1#08048F0248E40094
(1675219324.445477) can0 0B0#00000000110F
(1675219324.445481) can0 0B2#00000000110F
(1675219324.445484) can0 223#000000000000002D
(1675219324.451689) can0 020#000007
(1675219324.451699) can0 0B4#00000000AC000068
(1675219324.451702) can0 025#0FC50FC37878783B
(1675219324.452202) can0 260#0E00000000000078
(1675219324.452828) can0 024#020201F3620E8014
(1675219324.452833) can0 351#00000000
(1675219324.458165) can0 0B0#000000001100
(1675219324.459628) can0 0B2#000000001100
(1675219324.459633) can0 224#0000000000000008
(1675219324.460896) can0 235#00000000003D
(1675219324.460900) can0 2C4#0389001608802119
(1675219324.463613) can0 020#000007
(1675219324.463618) can0 0B4#00000000AC000068
(1675219324.463620) can0 024#020201F3620E8014
(1675219324.464086) can0 025#0FC50FC382828259
(1675219324.466043) can0 2D0#00A410001000009E
(1675219324.466449) can0 3A0#005E000000FFFF18
(1675219324.469794) can0 0B0#000000001101
(1675219324.469804) can0 0B2#000000001101
(1675219324.469807) can0 223#000000000000002D
(1675219324.472774) can0 260#0E00000000000078
(1675219324.475655) can0 020#000007
(1675219324.476474) can0 0B4#00000000AC000068
(1675219324.476487) can0 024#020201F3620E8014
(1675219324.476490) can0 025#0FC50FC37878783B
(1675219324.476494) can0 2C1#0804720241E3006F
(1675219324.481913) can0 0B0#000000001102
(1675219324.481919) can0 0B2#000000001102
(1675219324.482911) can0 224#0000000000000008
(1675219324.482916) can0 235#00000000003D
(1675219324.484536) can0 2C4#0383001608802113
(1675219324.485211) can0 440#4202000001000000
(1675219324.487756) can0 020#000007
(1675219324.487763) can0 0B4#00000000AC000068
(1675219324.488323) can0 025#0FC50FC37878783B
(1675219324.488327) can0 024#020201F3620E8014
(1675219324.492586) can0 260#0E00000000000078
(1675219324.493630) can0 0B0#000000001103
(1675219324.493635) can0 0B2#000000001103
(1675219324.493931) can0 223#000000000000002D
(1675219324.497788) can0 2D0#00A510001000009F
(1675219324.499854) can0 020#000007
(1675219324.499861) can0 0B4#00000000AC000068
(1675219324.500358) can0 025#0FC50FC37878783B
(1675219324.500362) can0 024#020201F3620D8013
(1675219324.506144) can0 0B0#000000001104
(1675219324.506149) can0 0B2#000000001104
(1675219324.506152) can0 224#0000000000000008
(1675219324.508072) can0 235#00000000003D
(1675219324.508078) can0 2C1#080477023FE30072
(1675219324.510253) can0 2C4#0388001608802118
(1675219324.511843) can0 020#000007
(1675219324.511850) can0 0B4#00000000AC000068
(1675219324.511852) can0 024#020201F4620D8014
(1675219324.512318) can0 025#0FC50FC37878783B
(1675219324.512322) can0 260#0E00000000000078
(1675219324.513247) can0 351#00000000
(1675219324.518020) can0 0B0#000000001105
(1675219324.519381) can0 0B2#000000001105
(1675219324.519386) can0 223#000000000000002D
(1675219324.520041) can0 3B3#038428
(1675219324.524120) can0 020#000007
(1675219324.524125) can0 0B4#00000000AC000068
(1675219324.524128) can0 024#020301F3620D8014
(1675219324.525368) can0 025#0FC50FC37878783B
(1675219324.530297) can0 2D0#00A510001000009F
(1675219324.530302) can0 0B0#000000001106
(1675219324.531058) can0 0B2#000000001106
(1675219324.531065) can0 224#0000000000000008
(1675219324.531069) can0 235#00000000003D
(1675219324.532474) can0 2C4#0385001608802115
(1675219324.532478) can0 260#0E00000000000078
(1675219324.536166) can0 020#000007
(1675219324.536175) can0 0B4#00000000AC000068
(1675219324.537354) can0 025#0FC50FC37878783B
(1675219324.537359) can0 024#020301F3620E8015
(1675219324.538563) can0 4C7#0800012100000000
(1675219324.539516) can0 2C1#0804670243E30066
(1675219324.542063) can0 0B0#000000001107
(1675219324.542071) can0 0B2#000000001107
(1675219324.543774) can0 223#000000000000002D
(1675219324.548180) can0 020#000007
(1675219324.548253) can0 0B4#00000000AC000068
(1675219324.548257) can0 025#0FC50FC37878783B
(1675219324.548947) can0 024#020201F3620E8014
(1675219324.552370) can0 260#0E00000000000078
(1675219324.554091) can0 0B0#000000001108
(1675219324.554099) can0 0B2#000000001108
(1675219324.554103) can0 224#0000000000000008
(1675219324.554338) can0 235#00000000003D
(1675219324.554882) can0 2C4#0386001608802116
(1675219324.560010) can0 020#000007
(1675219324.560016) can0 0B4#00000000AC000068
(1675219324.560449) can0 025#0FC50FC37878783B
(1675219324.560960) can0 024#020201F4620E8015
(1675219324.560964) can0 2D0#00A510001000009F
(1675219324.566626) can0 0B0#000000001109
(1675219324.566631) can0 0B2#000000001109
(1675219324.566634) can0 223#000000000000002D
(1675219324.567839) can0 3A0#1A5E000000FFFF18
(1675219324.567843) can0 3B7#0000800000000000
(1675219324.571819) can0 2C1#08044B023AE20040
(1675219324.571825) can0 020#000007
(1675219324.572694) can0 0B4#00000000AC000068
(1675219324.572700) can0 024#020201F4620E8015
(1675219324.572703) can0 025#0FC50FC37878783B
(1675219324.572705) can0 260#0E00000000000078
(1675219324.573125) can0 351#00000000
(1675219324.578398) can0 0B0#00000000110A
(1675219324.578403) can0 0B2#00000000110A
(1675219324.579295) can0 224#0000000000000008
(1675219324.579303) can0 235#00000000003D
(1675219324.579306) can0 2C4#0389001608802119
(1675219324.579308) can0 442#4002000000000000
(1675219324.584315) can0 020#000007
(1675219324.584323) can0 0B4#00000000AC000068
(1675219324.584569) can0 025#0FC50FC37878783B
(1675219324.585604) can0 024#020201F3620E8115
(1675219324.589961) can0 0B0#00000000110B
(1675219324.590257) can0 0B2#00000000110B
(1675219324.590541) can0 223#000000000000002D
(1675219324.591466) can0 623#1900000000000000
(1675219324.592568) can0 260#0E00000000000078
(1675219324.592573) can0 2D0#00A61000100000A0
(1675219324.596227) can0 020#000007
(1675219324.596232) can0 0B4#00000000AC000068
(1675219324.596393) can0 025#0FC50FC37878783B
(1675219324.597765) can0 024#020201F3620E8014
(1675219324.600686) can0 624#1A00414949400000
(1675219324.602077) can0 2C4#0389001608802119
(1675219324.602080) can0 0B0#00000000110C
(1675219324.602082) can0 0B2#00000000110C
(1675219324.602623) can0 224#0000000000000008
(1675219324.602633) can0 235#00000000003D
(1675219324.602918) can0 2C1#0804490240E20044
(1675219324.608349) can0 020#000007
(1675219324.608355) can0 0B4#00000000AC000068
(1675219324.608357) can0 025#0FC50FC37878783B
(1675219324.608920) can0 024#020201F3620E8014
(1675219324.612638) can0 260#0E00000000000078
(1675219324.614250) can0 0B0#00000000110D
(1675219324.614254) can0 0B2#00000000110D
(1675219324.614256) can0 223#000000000000002D
(1675219324.620000) can0 020#000007
(1675219324.620004) can0 0B4#00000000AC000068
(1675219324.620348) can0 025#0FC50FC37878783B
(1675219324.621195) can0 024#020201F3620E8014
(1675219324.624614) can0 2D0#00A81000100000A2
(1675219324.625279) can0 630#1700000000000000
(1675219324.625282) can0 2C4#0389001608802119
(1675219324.626007) can0 0B0#00000000110E
(1675219324.626010) can0 0B2#00000000110E
(1675219324.626525) can0 224#0000000000000008
(1675219324.626528) can0 235#00000000003D
(1675219324.632646) can0 020#000007
(1675219324.632709) can0 0B4#00000000AC000068
(1675219324.632713) can0 025#0FC50FC37878783B
(1675219324.632716) can0 024#020201F3620F8015
(1675219324.632719) can0 260#0E00000000000078
(1675219324.632982) can0 351#00000000
(1675219324.634552) can0 620#1000024CF0402000
(1675219324.634556) can0 2C1#08043F0240E10039
(1675219324.638453) can0 0B0#00000000110F
(1675219324.638457) can0 0B2#00000000110F
(1675219324.639862) can0 223#000000000000002D
(1675219324.644305) can0 020#000007
(1675219324.644310) can0 0B4#00000000AC000068
(1675219324.644313) can0 025#0FC50FC37878783B
(1675219324.644722) can0 024#020201F3620F8015
(1675219324.649087) can0 2C4#038E00160880211E
(1675219324.650475) can0 0B0#000000001100
(1675219324.650481) can0 0B2#000000001100
(1675219324.650484) can0 224#0000000000000008
(1675219324.650759) can0 235#00000000003D
(1675219324.652378) can0 260#0E00000000000078
(1675219324.654290) can0 4C6#0700010000000000
(1675219324.656547) can0 020#000007
(1675219324.656551) can0 0B4#00000000AC000068
(1675219324.656553) can0 025#0FC50FC37878783B
(1675219324.656555) can0 2D0#00AA1000100000A4
(1675219324.656993) can0 024#020201F3620F8015
(1675219324.662673) can0 0B0#000000001101
(1675219324.662678) can0 0B2#000000001101
(1675219324.663026) can0 223#000000000000002D
(1675219324.666308) can0 3A0#1F5E000000FFFF18
(1675219324.666312) can0 2C1#080440023CE20037
(1675219324.668364) can0 020#000007
(1675219324.668372) can0 0B4#00000000AC000068
(1675219324.668374) can0 025#0FC50FC37878783B
(1675219324.669439) can0 024#020201F3620E8014
(1675219324.672813) can0 260#0E00000000000078
(1675219324.672817) can0 2C4#0391001608802121
(1675219324.674586) can0 0B0#000000001102
(1675219324.674593) can0 0B2#000000001102
(1675219324.674597) can0 224#0000000000000008
(1675219324.674599) can0 235#00000000003D
(1675219324.675156) can0 440#4202000001000000
(1675219324.680370) can0 020#000007
(1675219324.680374) can0 0B4#00000000AC000068
(1675219324.680858) can0 025#0FC50FC37878783B
(1675219324.681630) can0 024#020201F4620F8016
(1675219324.686285) can0 0B0#000000001103
(1675219324.686291) can0 0B2#000000001103
(1675219324.686634) can0 223#000000000000002D
(1675219324.688075) can0 2D0#00AA1000100000A4
(1675219324.692266) can0 020#000007
(1675219324.692270) can0 0B4#00000000AC000068
(1675219324.692726) can0 260#0E00000000000078
(1675219324.692736) can0 024#020201F362108117
(1675219324.693180) can0 025#0FC50FC382828259
(1675219324.693183) can0 351#00000000
(1675219324.696365) can0 2C4#0391001608802121
(1675219324.698560) can0 2C1#08043E0244E1003C
(1675219324.698566) can0 0B0#000000001104
(1675219324.698568) can0 0B2#000000001104
(1675219324.698571) can0 224#0000000000000008
(1675219324.698844) can0 235#00000000003D
(1675219324.704321) can0 020#000007
(1675219324.704326) can0 0B4#00000000AC000068
(1675219324.705266) can0 025#0FC50FC37878783B
(1675219324.705269) can0 024#020201F3620F8015
(1675219324.710652) can0 0B0#000000001105
(1675219324.710658) can0 0B2#000000001105
(1675219324.710976) can0 223#000000000000002D
(1675219324.711579) can0 394#00
(1675219324.712393) can0 260#0E00000000000078
(1675219324.716504) can0 020#000007
(1675219324.716509) can0 0B4#00000000AC000068
(1675219324.717031) can0 025#0FC50FC37878783B
(1675219324.717835) can0 024#020201F3620F8015
(1675219324.719759) can0 2D0#00AC1000100000A6
(1675219324.719763) can0 2C4#0396001608802126
(1675219324.722584) can0 0B0#000000001106
(1675219324.722589) can0 0B2#000000001106
(1675219324.722868) can0 224#0000000000000008
(1675219324.722872) can0 235#00000000003D
(1675219324.729146) can0 020#000007
(1675219324.729153) can0 0B4#00000000AC000068
(1675219324.729937) can0 024#020201F4620F8016
(1675219324.729941) can0 025#0FC50FC37878783B
(1675219324.729943) can0 2C1#08040E0232E000F9
(1675219324.732495) can0 260#0E00000000000078
(1675219324.734619) can0 0B0#000000001107
(1675219324.734623) can0 0B2#000000001107
(1675219324.734804) can0 223#000000000000002D
(1675219324.740992) can0 020#000007
(1675219324.740999) can0 0B4#00000000AC000068
(1675219324.741003) can0 024#020201F4620E8015
(1675219324.741006) can0 025#0FC50FC37878783B
(1675219324.743635) can0 2C4#0398001608802128
(1675219324.746980) can0 0B0#000000001108
(1675219324.746987) can0 0B2#000000001108
(1675219324.746990) can0 224#0000000000000008
(1675219324.748541) can0 235#00000000003D
(1675219324.751497) can0 2D0#00AD1000100000A7
(1675219324.752595) can0 260#0E00000000000078
(1675219324.752600) can0 020#000007
(1675219324.752609) can0 0B4#00000000AC000068
(1675219324.752984) can0 025#0FC50FC37878783B
(1675219324.753444) can0 024#020201F3620E8014
(1675219324.753448) can0 351#00000000
(1675219324.759087) can0 0B0#000000001109
(1675219324.759093) can0 0B2#000000001109
(1675219324.759096) can0 223#000000000000002D
(1675219324.761812) can0 2C1#0804020213E000CE
(1675219324.765463) can0 020#000007
(1675219324.765469) can0 0B4#00000000AC000068
(1675219324.765472) can0 025#0FC50FC37878783B
(1675219324.765475) can0 621#1100000000000000
(1675219324.766234) can0 024#020201F3620E8014
(1675219324.766237) can0 3A0#205F000000FFFF18
(1675219324.766710) can0 2C4#0398001608802128
(1675219324.768879) can0 442#4002000000000000
(1675219324.771334) can0 0B0#00000000110A
(1675219324.771339) can0 0B2#00000000110A
(1675219324.771342) can0 224#0000000000000008
(1675219324.771344) can0 235#00000000003D
(1675219324.772651) can0 260#0E00000000000078
(1675219324.776850) can0 020#000007
(1675219324.776855) can0 0B4#00000000AC000068
(1675219324.777183) can0 025#0FC50FC37878783B
(1675219324.778110) can0 024#020201F4620F8016
(1675219324.783149) can0 0B0#00000000110B
(1675219324.783155) can0 0B2#00000000110B
(1675219324.783514) can0 223#000000000000002D
(1675219324.784514) can0 2D0#00B01000100000AA
(1675219324.789374) can0 020#000007
(1675219324.789379) can0 0B4#00000000AC000068
(1675219324.789381) can0 024#020201F4620F8016
(1675219324.790412) can0 025#0FC50FC37878783B
(1675219324.790417) can0 2C4#0399001608802129
(1675219324.792663) can0 260#0E00000000000078
(1675219324.793522) can0 2C1#0803FA020EDF00BF
(1675219324.795338) can0 0B0#00000000110C
(1675219324.795343) can0 0B2#00000000110C
(1675219324.795345) can0 224#0000000000000008
(1675219324.795848) can0 235#00000000003D
(1675219324.801527) can0 020#000007
(1675219324.801537) can0 0B4#00000000AC000068
(1675219324.801539) can0 025#0FC50FC37878783B
(1675219324.801542) can0 024#020201F3620F8015
(1675219324.807304) can0 0B0#00000000110D
(1675219324.807312) can0 0B2#00000000110D
(1675219324.807315) can0 223#000000000000002D
(1675219324.813177) can0 260#0E00000000000078
(1675219324.813184) can0 351#00000000
(1675219324.813187) can0 020#000007
(1675219324.813743) can0 0B4#00000000AC000068
(1675219324.813747) can0 025#0FC50FC37878783B
(1675219324.813750) can0 024#020201F3620F8015
(1675219324.814453) can0 2C4#0398001608802128
(1675219324.814924) can0 2D0#00B21000100000AC
(1675219324.819590) can0 0B0#00000000110E
(1675219324.819595) can0 0B2#00000000110E
(1675219324.819598) can0 224#0000000000000008
(1675219324.821333) can0 235#00000000003D
(1675219324.825212) can0 020#000007
(1675219324.825217) can0 0B4#00000000AC000068
(1675219324.825219) can0 025#0FC50FC37878783B
(1675219324.825429) can0 2C1#0804030215E000D1
(1675219324.826193) can0 024#020201F3620E8014
(1675219324.831403) can0 0B0#00000000110F
(1675219324.831408) can0 0B2#00000000110F
(1675219324.831410) can0 223#000000000000002D
(1675219324.832461) can0 260#0E00000000000078
(1675219324.837572) can0 020#000007
(1675219324.837580) can0 0B4#00000000AC000068
(1675219324.837583) can0 024#020101F3620E8114
(1675219324.838082) can0 025#0FC50FC37878783B
(1675219324.839206) can0 2C4#039C00160880212C
(1675219324.843601) can0 0B0#000000001100
(1675219324.843605) can0 0B2#000000001100
(1675219324.843607) can0 224#0000000000000008
(1675219324.843610) can0 235#00000000003D
(1675219324.846724) can0 2D0#00B21000100000AC
(1675219324.849346) can0 020#000007
(1675219324.849711) can0 0B4#00000000AC000068
(1675219324.850577) can0 025#0FC50FC37878783B
(1675219324.850581) can0 024#020201F3620F8015
(1675219324.852938) can0 260#0E00000000000078
(1675219324.855364) can0 0B0#000000001101
(1675219324.855369) can0 0B2#000000001101
(1675219324.855371) can0 223#000000000000002D
(1675219324.857102) can0 2C1#0803F40213DF00BE
(1675219324.861655) can0 2C4#039C00160880212C
(1675219324.861662) can0 020#000007
(1675219324.861666) can0 0B4#00000000AC000068
(1675219324.861669) can0 025#0FC50FC37878783B
(1675219324.862084) can0 024#020201F3620F8015
(1675219324.865699) can0 440#4202000001000000
(1675219324.866158) can0 3A0#215F000000FFFF18
(1675219324.867177) can0 0B0#000000001102
(1675219324.867181) can0 0B2#000000001102
(1675219324.867654) can0 224#0000000000000008
(1675219324.867658) can0 235#00000000003D
(1675219324.868286) can0 3B7#0000800000000000
(1675219324.872585) can0 260#0E00000000000078
(1675219324.873466) can0 020#000007
(1675219324.873473) can0 0B4#00000000AC000068
(1675219324.873477) can0 025#0FC50FC37878783B
(1675219324.873481) can0 351#00000000
(1675219324.873946) can0 024#020201F2620F8014
(1675219324.878520) can0 2D0#00B41000100000AE
(1675219324.879585) can0 0B0#000000001103
(1675219324.879589) can0 0B2#000000001103
(1675219324.879592) can0 223#000000000000002D
(1675219324.884793) can0 2C4#039F00160880212F
(1675219324.885356) can0 020#000007
(1675219324.885367) can0 0B4#00000000AC000068
(1675219324.885371) can0 025#0FC50FC37878783B
(1675219324.886514) can0 024#020201F3620F8015
(1675219324.889114) can0 2C1#0803FF0214DF00CA
(1675219324.889124) can0 610#20000064C0FFFEE0
(1675219324.889709) can0 4C1#0100090000000000
(1675219324.891643) can0 0B0#000000001104
(1675219324.891650) can0 0B2#000000001104
(1675219324.891652) can0 224#0000000000000008
(1675219324.892243) can0 235#00000000003D
(1675219324.892251) can0 4DD#1E00000100000000
(1675219324.892254) can0 260#0E00000000000078
(1675219324.896052) can0 638#1300000000000000
(1675219324.897322) can0 020#000007
(1675219324.897328) can0 0B4#00000000AC000068
(1675219324.897826) can0 025#0FC50FC37878783B
(1675219324.897829) can0 024#020201F4620F8016
(1675219324.903533) can0 0B0#000000001105
(1675219324.903539) can0 0B2#000000001105
(1675219324.903543) can0 223#000000000000002D
(1675219324.908468) can0 2C4#039F00160880212F
(1675219324.909561) can0 020#000007
(1675219324.909569) can0 0B4#00000000AC000068
(1675219324.910057) can0 024#020201F3620F8015
(1675219324.910062) can0 025#0FC50FC382828259
(1675219324.910395) can0 2D0#00B61000100000B0
(1675219324.913098) can0 260#0E00000000000078
(1675219324.915735) can0 0B0#000000001106
(1675219324.915741) can0 0B2#000000001106
(1675219324.915744) can0 224#0000000000000008
(1675219324.916153) can0 235#00000000003D
(1675219324.920426) can0 2C1#0803E60202DF009F
(1675219324.921552) can0 020#000007
(1675219324.921560) can0 0B4#00000000AC000068
(1675219324.922509) can0 025#0FC50FC37878783B
(1675219324.922515) can0 024#020201F2620E8013
(1675219324.927840) can0 0B0#000000001107
(1675219324.927844) can0 0B2#000000001107
(1675219324.929085) can0 223#000000000000002D
(1675219324.930748) can0 620#1000024CF0402000
(1675219324.931748) can0 2C4#03A3001608802133
(1675219324.932413) can0 260#0E00000000000078
(1675219324.933316) can0 351#00000000
(1675219324.933321) can0 020#000007
(1675219324.933903) can0 0B4#00000000AC000068
(1675219324.933913) can0 025#0FC50FC37878783B
(1675219324.934539) can0 024#020201F3620E8014
(1675219324.940102) can0 0B0#000000001108
(1675219324.940106) can0 0B2#000000001108
(1675219324.941841) can0 224#0000000000000008
(1675219324.941846) can0 235#00000000003D
(1675219324.941848) can0 2D0#00B81000100000B2
(1675219324.945523) can0 020#000007
(1675219324.945536) can0 0B4#00000000AC000068
(1675219324.946328) can0 024#020201F3620E7F13
(1675219324.946331) can0 025#0FC50FC37878783B
(1675219324.951607) can0 0B0#000000001109
(1675219324.951614) can0 0B2#000000001109
(1675219324.952275) can0 223#000000000000002D
(1675219324.952281) can0 2C1#0803F50211DF00BD
(1675219324.952286) can0 260#0E00000000000078
(1675219324.955229) can0 2C4#03A3001608802133
(1675219324.957672) can0 020#000007
(1675219324.957679) can0 0B4#00000000AC000068
(1675219324.958168) can0 024#020201F3620E7F13
(1675219324.958172) can0 025#0FC50FC37878783B
(1675219324.959068) can0 442#4002000000000000
(1675219324.959311) can0 611#210010A00002821B
(1675219324.963498) can0 0B0#00000000110A
(1675219324.963501) can0 0B2#00000000110A
(1675219324.963710) can0 224#0000000000000008
(1675219324.963902) can0 235#00000000003D
(1675219324.965808) can0 3A0#265E000000FFFF19
(1675219324.969430) can0 020#000007
(1675219324.969434) can0 0B4#00000000AC000068
(1675219324.970040) can0 025#0FC50FC37878783B
(1675219324.970258) can0 024#020301F3620F8016
(1675219324.972265) can0 260#0E00000000000078
(1675219324.973478) can0 2D0#00B81000100000B2
(1675219324.975700) can0 0B0#00000000110B
(1675219324.975704) can0 0B2#00000000110B
(1675219324.976046) can0 223#000000000000002D
(1675219324.978661) can0 2C4#03A2001608802132
(1675219324.981747) can0 020#000007
(1675219324.981751) can0 0B4#00000000AC000068
(1675219324.981988) can0 025#0FC50FC37878783B
(1675219324.982459) can0 024#020201F3620F8015
(1675219324.982695) can0 3B4#0000ACB000400000
(1675219324.983762) can0 2C1#0803C40202DE007C
(1675219324.987957) can0 0B0#00000000110C
(1675219324.987963) can0 0B2#00000000110C
(1675219324.987966) can0 224#0000000000000008
(1675219324.988398) can0 235#00000000003D
(1675219324.992909) can0 260#0E00000000000078
(1675219324.992913) can0 351#00000000
(1675219324.993905) can0 020#000007
(1675219324.993909) can0 0B4#00000000AC000068
(1675219324.993911) can0 025#0FC50FC37878783B
(1675219324.994879) can0 024#020301F3620F8016
(1675219324.996139) can0 4DC#1D00030200000000
(1675219324.999792) can0 0B0#00000000110D
(1675219324.999796) can0 0B2#00000000110D
(1675219325.000192) can0 223#000000000000002D
(1675219325.002561) can0 2C4#03A3001608802133
(1675219325.005733) can0 2D0#00B91000100000B3
(1675219325.005738) can0 020#000007
(1675219325.006122) can0 0B4#00000000AC000068
(1675219325.006127) can0 024#020201F3620E7F13
(1675219325.006417) can0 025#0FC50FC37878783B
(1675219325.006424) can0 38C#0000000000000037
(1675219325.011686) can0 394#00
(1675219325.011692) can0 0B0#00000000110E
(1675219325.011822) can0 0B2#00000000110E
(1675219325.012285) can0 224#0000000000000008
(1675219325.012290) can0 235#00000000003D
(1675219325.012945) can0 260#0E00000000000078
(1675219325.015677) can0 2C1#0803D50207DE0092
(1675219325.015687) can0 381#0000032000000000
(1675219325.017955) can0 020#000007
(1675219325.017959) can0 0B4#00000000AC000068
(1675219325.018137) can0 025#0FC50FC37878783B
(1675219325.018487) can0 024#020301F3620F8016
(1675219325.024339) can0 0B0#00000000110F
(1675219325.024343) can0 0B2#00000000110F
(1675219325.024345) can0 223#000000000000002D
(1675219325.025858) can0 2C4#039E00160880212E
(1675219325.029553) can0 612#2700FFFEE0FFFFFE
(1675219325.029560) can0 020#000007
(1675219325.029744) can0 0B4#00000000AC000068
(1675219325.030157) can0 025#0FC50FC37878783B
(1675219325.030644) can0 024#020201F3620F7F14
(1675219325.032049) can0 3B3#03A028
(1675219325.032287) can0 260#0E00000000000078
(1675219325.036115) can0 3B0#0000002A0000
(1675219325.036120) can0 0B0#000000001100
(1675219325.036542) can0 0B2#000000001100
(1675219325.036547) can0 224#0000000000000008
(1675219325.036548) can0 235#00000000003D
(1675219325.037009) can0 2D0#00BB1000100000B5
(1675219325.042220) can0 020#000007
(1675219325.042224) can0 0B4#00000000AC000068
(1675219325.043139) can0 025#0FC50FC37878783B
(1675219325.043143) can0 024#020201F3620F8015
(1675219325.047887) can0 2C1#0803D5020FDE009A
(1675219325.047896) can0 0B0#000000001101
(1675219325.047898) can0 0B2#000000001101
(1675219325.048129) can0 223#000000000000002D
(1675219325.049349) can0 2C4#03A3001608802133
(1675219325.052678) can0 260#0E00000000000078
(1675219325.053208) can0 351#00000000
(1675219325.053878) can0 020#000007
(1675219325.053880) can0 0B4#00000000AC000068
(1675219325.054395) can0 024#020201F3620F7F14
(1675219325.054398) can0 025#0FC50FC37878783B
(1675219325.055369) can0 440#4202000001000000
(1675219325.060403) can0 0B0#000000001102
(1675219325.060408) can0 0B2#000000001102
(1675219325.060410) can0 224#0000000000000008
(1675219325.060716) can0 235#00000000003D
(1675219325.065767) can0 3A0#2A5E000000FFFF19
(1675219325.065771) can0 020#000007
(1675219325.066314) can0 0B4#00000000AC000068
(1675219325.066319) can0 025#0FC50FC37878783B
(1675219325.066730) can0 024#020201F4620F8016
(1675219325.069195) can0 2D0#00BE1000100000B8
(1675219325.072245) can0 0B0#000000001103
(1675219325.072250) can0 0B2#000000001103
(1675219325.072579) can0 223#000000000000002D
(1675219325.072584) can0 260#0E00000000000078
(1675219325.072821) can0 2C4#03A2001608802132
(1675219325.073017) can0 4C8#0900010200000000
(1675219325.078431) can0 020#000007
(1675219325.078889) can0 0B4#00000000AC000068
(1675219325.078893) can0 025#0FC50FC37878783B
(1675219325.079923) can0 024#020201F3620E8014
(1675219325.079927) can0 2C1#0803BC0200DD0071
(1675219325.084529) can0 0B0#000000001104
(1675219325.084533) can0 0B2#000000001104
(1675219325.085865) can0 224#0000000000000008
(1675219325.085868) can0 235#00000000003D
(1675219325.090172) can0 020#000007
(1675219325.090177) can0 0B4#00000000AC000068
(1675219325.090445) can0 025#0FC50FC37878783B
(1675219325.091097) can0 024#020201F3620E8014
(1675219325.092695) can0 260#0E00000000000078
(1675219325.095805) can0 380#A00808000000F800
(1675219325.096163) can0 0B0#000000001105
(1675219325.096169) can0 0B2#000000001105
(1675219325.096506) can0 223#000000000000002D
(1675219325.096509) can0 2C4#03A6001608802136
(1675219325.101276) can0 2D0#00C11000100000BB
(1675219325.102320) can0 020#000007
(1675219325.102325) can0 0B4#00000000AC000068
(1675219325.102328) can0 024#020201F3620E8014
(1675219325.102602) can0 025#0FC50FC37878783B
(1675219325.108678) can0 0B0#000000001106
(1675219325.108683) can0 0B2#000000001106
(1675219325.108685) can0 224#0000000000000008
(1675219325.108686) can0 235#00000000003D
(1675219325.110820) can0 2C1#0803E0020BDF00A2
(1675219325.113015) can0 260#0E00000000000078
(1675219325.113019) can0 351#00000000
(1675219325.114234) can0 020#000007
(1675219325.114238) can0 0B4#00000000AC000068
(1675219325.114622) can0 025#0FC50FC37878783B
(1675219325.114625) can0 024#020201F3620E8014
(1675219325.120329) can0 2C4#03A3001608802133
(1675219325.120338) can0 0B0#000000001107
(1675219325.120340) can0 0B2#000000001107
(1675219325.120866) can0 223#000000000000002D
(1675219325.126389) can0 3A1#0000000000FF0000
(1675219325.126395) can0 020#000007
(1675219325.127079) can0 0B4#00000000AC000068
(1675219325.127773) can0 025#0FC50FC37878783B
(1675219325.127777) can0 024#020201F3620F8015
(1675219325.127779) can0 423#00
(1675219325.132676) can0 0B0#000000001108
(1675219325.132684) can0 0B2#000000001108
(1675219325.133591) can0 224#0000000000000008
(1675219325.133597) can0 235#00000000003D
(1675219325.133599) can0 260#0E00000000000078
(1675219325.133601) can0 2D0#00C31000100000BD
(1675219325.138652) can0 020#000007
(1675219325.138659) can0 0B4#00000000AC000068
(1675219325.139571) can0 025#0FC50FC37878783B
(1675219325.139576) can0 024#020201F3620F8015
(1675219325.143144) can0 2C1#0803CA0202DE0082
(1675219325.143655) can0 2C4#03A3001608802133
(1675219325.144601) can0 0B0#000000001109
(1675219325.144606) can0 0B2#000000001109
(1675219325.144609) can0 223#000000000000002D
(1675219325.145922) can0 382#1C1C
(1675219325.149331) can0 442#4002000000000000
(1675219325.150492) can0 020#000007
(1675219325.150498) can0 0B4#00000000AC000068
(1675219325.151149) can0 024#020201F3620E8014
(1675219325.151154) can0 025#0FC50FC382828259
(1675219325.152114) can0 3B1#0000002400000000
(1675219325.152496) can0 260#0E00000000000078
(1675219325.156651) can0 0B0#00000000110A
(1675219325.156658) can0 0B2#00000000110A
(1675219325.156661) can0 224#0000000000000008
(1675219325.157155) can0 235#00000000003D
(1675219325.162990) can0 020#000007
(1675219325.162999) can0 0B4#00000000AC000068
(1675219325.163002) can0 024#020201F3620E8014
(1675219325.163235) can0 025#0FC50FC37878783B
(1675219325.164042) can0 2D0#00C41000100000BE
(1675219325.165940) can0 3A0#315E000000FFFF19
(1675219325.167421) can0 2C4#03A9001608802139
(1675219325.168684) can0 0B0#00000000110B
(1675219325.168688) can0 0B2#00000000110B
(1675219325.168690) can0 223#000000000000002D
(1675219325.169067) can0 3B7#0000800000000000
(1675219325.173006) can0 260#0E00000000000078
(1675219325.173631) can0 351#00000000
(1675219325.174769) can0 2C1#0803BC01FADD006A
(1675219325.174775) can0 020#000007
(1675219325.174779) can0 0B4#00000000AC000068
(1675219325.175123) can0 024#020201F3620E8014
(1675219325.176923) can0 025#0FC50FC37878783B
(1675219325.180901) can0 0B0#00000000110C
(1675219325.180906) can0 0B2#00000000110C
(1675219325.180909) can0 224#0000000000000008
(1675219325.181776) can0 235#00000000003D
(1675219325.186542) can0 020#000007
(1675219325.186548) can0 0B4#00000000AC000068
(1675219325.187301) can0 025#0FC50FC37878783B
(1675219325.187305) can0 024#020201F3620F8015
(1675219325.190988) can0 2C4#03A4001608802134
(1675219325.193085) can0 260#0E00000000000078
(1675219325.193090) can0 0B0#00000000110D
(1675219325.193094) can0 0B2#00000000110D
(1675219325.194726) can0 223#000000000000002D
(1675219325.196442) can0 2D0#00C61000100000C0
(1675219325.198665) can0 020#000007
(1675219325.198670) can0 0B4#00000000AC000068
(1675219325.199514) can0 025#0FC50FC37878783B
(1675219325.199519) can0 024#020201F3620F8015
(1675219325.205245) can0 0B0#00000000110E
(1675219325.205251) can0 0B2#00000000110E
(1675219325.205253) can0 224#0000000000000008
(1675219325.206196) can0 235#00000000003D
(1675219325.206200) can0 2C1#0803A701F7DD0052
(1675219325.210873) can0 020#000007
(1675219325.210878) can0 0B4#00000000AC000068
(1675219325.211293) can0 024#020201F3620F8015
(1675219325.212929) can0 025#0FC50FC37878783B
(1675219325.212938) can0 260#0E00000000000078
(1675219325.214501) can0 2C4#03A9001608802139
(1675219325.217289) can0 0B0#00000000110F
(1675219325.217297) can0 0B2#00000000110F
(1675219325.217301) can0 223#000000000000002D
(1675219325.222707) can0 020#000007
(1675219325.222712) can0 0B4#00000000AC000068
(1675219325.223427) can0 025#0FC50FC37878783B
(1675219325.223431) can0 024#020201F3620F8015
(1675219325.227775) can0 2D0#00C61000100000C0
(1675219325.229268) can0 0B0#000000001100
(1675219325.229274) can0 0B2#000000001100
(1675219325.229278) can0 224#0000000000000008
(1675219325.229671) can0 235#00000000003D
(1675219325.230564) can0 620#1000024CF0402000
(1675219325.233229) can0 260#0E00000000000078
(1675219325.234850) can0 351#00000000
(1675219325.234857) can0 020#000007
(1675219325.234860) can0 0B4#00000000AC000068
(1675219325.235046) can0 025#0FC50FC37878783B
(1675219325.235635) can0 024#020201F3620F8015
(1675219325.238109) can0 2C1#08039501F3DC003B
(1675219325.238115) can0 2C4#03AC00160880213C
(1675219325.241475) can0 0B0#000000001101
(1675219325.241487) can0 0B2#000000001101
(1675219325.241490) can0 223#000000000000002D
(1675219325.241906) can0 38A#0000040000
(1675219325.246141) can0 440#4202000001000000
(1675219325.247227) can0 020#000007
(1675219325.247232) can0 0B4#00000000AC000068
(1675219325.247234) can0 025#0FC50FC37878783B
(1675219325.247876) can0 024#020201F2620F8014
(1675219325.252972) can0 260#0E00000000000078
(1675219325.252979) can0 0B0#000000001102
(1675219325.253513) can0 0B2#000000001102
(1675219325.253518) can0 224#0000000000000008
(1675219325.254584) can0 235#00000000003D
(1675219325.259407) can0 020#000007
(1675219325.259415) can0 0B4#00000000AC000068
(1675219325.259420) can0 025#0FC50FC37878783B
(1675219325.259422) can0 2D0#00C81000100000C2
(1675219325.260211) can0 024#020201F2620F8014
(1675219325.261643) can0 2C4#03A7001608802137
(1675219325.265682) can0 0B0#000000001103
(1675219325.265692) can0 0B2#000000001103
(1675219325.265696) can0 223#000000000000002D
(1675219325.265699) can0 622#1200E83000000000
(1675219325.267374) can0 3A0#395F000000FFFF19
(1675219325.270023) can0 2C1#0803B601FFDD0069
(1675219325.271136) can0 020#000007
(1675219325.271141) can0 0B4#00000000AC000068
(1675219325.271143) can0 025#0FC50FC37878783B
(1675219325.271535) can0 024#020201F2620F8014
(1675219325.272901) can0 260#0E00000000000078
(1675219325.277571) can0 0B0#000000001104
(1675219325.277578) can0 0B2#000000001104
(1675219325.277582) can0 224#0000000000000008
(1675219325.278035) can0 235#00000000003D
(1675219325.283425) can0 020#000007
(1675219325.283430) can0 0B4#00000000AC000068
(1675219325.283433) can0 025#0FC50FC37878783B
(1675219325.284587) can0 024#020201F3620F8015
(1675219325.284995) can0 2C4#03A3001608802133
(1675219325.289584) can0 0B0#000000001105
(1675219325.289592) can0 0B2#000000001105
(1675219325.289597) can0 223#000000000000002D
(1675219325.291363) can0 2D0#00CB1000100000C5
(1675219325.292844) can0 260#0E00000000000078
(1675219325.293365) can0 351#00000000
(1675219325.295639) can0 020#000007
(1675219325.295647) can0 0B4#00000000AC000068
(1675219325.295651) can0 025#0FC50FC37878783B
(1675219325.296714) can0 024#020201F3620F8015
(1675219325.301722) can0 0B0#000000001106
(1675219325.301729) can0 0B2#000000001106
(1675219325.301732) can0 224#0000000000000008
(1675219325.302133) can0 235#00000000003D
(1675219325.303478) can0 2C1#0803B301F6DD005D
(1675219325.307968) can0 020#000007
(1675219325.308404) can0 0B4#00000000AC000068
(1675219325.308408) can0 025#0FC50FC37878783B
(1675219325.310138) can0 024#020201F3620F8015
(1675219325.310144) can0 2C4#03A3001608802133
(1675219325.311517) can0 394#00
(1675219325.313159) can0 260#0E00000000000078
(1675219325.313166) can0 0B0#000000001107
(1675219325.313391) can0 0B2#000000001107
(1675219325.314725) can0 223#000000000000002D
(1675219325.319669) can0 020#000007
(1675219325.319675) can0 0B4#00000000AC000068
(1675219325.319678) can0 025#0FC50FC37878783B
(1675219325.321553) can0 024#020201F3620E8014
(1675219325.322883) can0 2D0#00CD1000100000C7
(1675219325.325513) can0 0B0#000000001108
(1675219325.325962) can0 0B2#000000001108
(1675219325.327658) can0 224#0000000000000008
(1675219325.327664) can0 235#00000000003D
(1675219325.331731) can0 020#000007
(1675219325.331739) can0 0B4#00000000AC000068
(1675219325.331742) can0 025#0FC50FC37878783B
(1675219325.332365) can0 024#020201F3620E8014
(1675219325.332370) can0 2C4#03A8001608802138
(1675219325.332906) can0 260#0E00000000000078
(1675219325.332909) can0 2C1#0803AC01F5DD0055
(1675219325.337755) can0 0B0#000000001109
(1675219325.337763) can0 0B2#0000004F1109
(1675219325.337766) can0 223#000000000000002D
(1675219325.337768) can0 4C3#0300120100000000
(1675219325.339126) can0 442#4002000000000000
(1675219325.343858) can0 020#000007
(1675219325.343863) can0 0B4#00000000AC000068
(1675219325.343866) can0 025#0FC50FC37878783B
(1675219325.345447) can0 024#020201F4620F8117
(1675219325.349817) can0 0B0#0000004F110A
(1675219325.349824) can0 0B2#0000005A110A
(1675219325.349827) can0 224#0000000000000008
(1675219325.349830) can0 235#00000000003D
(1675219325.352621) can0 260#0E00000000000078
(1675219325.353220) can0 351#00000000
(1675219325.354554) can0 2D0#00CF1000100000C9
(1675219325.355296) can0 020#000007
(1675219325.355304) can0 0B4#00000000AC000068
(1675219325.355926) can0 025#0FC50FC37878783B
(1675219325.355932) can0 2C4#03A6001608802136
(1675219325.356383) can0 024#020201F3620F7F14
(1675219325.361615) can0 0B0#0000005A110B
(1675219325.361620) can0 0B2#0000005E110B
(1675219325.361622) can0 223#000000000000002D
(1675219325.365293) can0 2C1#0803A801F7DD0053
(1675219325.365927) can0 3A0#3C5F000000FFFF19
(1675219325.367830) can0 020#000007
(1675219325.367876) can0 0B4#00000000AC000068
(1675219325.367880) can0 024#020201F3620F8015
(1675219325.368146) can0 025#0FC50FC37878783B
(1675219325.373364) can0 260#0E00000000000078
(1675219325.373375) can0 0B0#0050005E110C
(1675219325.373378) can0 0B2#0000005E110C
(1675219325.373582) can0 224#0000000000000008
(1675219325.374226) can0 235#00000000003D
(1675219325.379748) can0 2C4#03AA00160880213A
(1675219325.379757) can0 020#000007
(1675219325.380256) can0 0B4#00000000AC000068
(1675219325.381285) can0 024#020301F3620F8016
(1675219325.381292) can0 025#0FC50FC382828259
(1675219325.385652) can0 0B0#005B005F110D
(1675219325.385657) can0 0B2#0050005F110D
(1675219325.385660) can0 223#000000000000002D
(1675219325.386484) can0 2D0#00D11000100000CB
(1675219325.389379) can0 610#20000064C0FFFEE0
(1675219325.391634) can0 020#000007
(1675219325.391639) can0 0B4#00000000AC000068
(1675219325.392524) can0 024#020301F3620F8016
(1675219325.392530) can0 025#0FC50FC37878783B
(1675219325.392532) can0 260#0E00000000000078
(1675219325.396821) can0 2C1#08037F01F2DB0023
(1675219325.397671) can0 0B0#005F005F110E
(1675219325.397677) can0 0B2#005B005F110E
(1675219325.397681) can0 224#0000000000000008
(1675219325.398109) can0 235#00000000003D
(1675219325.402973) can0 2C4#03AA00160880213A
(1675219325.403541) can0 020#000007
(1675219325.403545) can0 0B4#00000000AC000068
(1675219325.404347) can0 025#0FC50FC37878783B
(1675219325.404351) can0 024#020201F3620F8015
(1675219325.410025) can0 0B0#005F0060110F
(1675219325.413746) can0 0B2#005F005F110F
(1675219325.413754) can0 223#000000000000002D
(1675219325.413757) can0 260#0E00000000000078
(1675219325.413762) can0 351#00000000
(1675219325.416075) can0 020#000007
(1675219325.416081) can0 0B4#00000000AC000068
(1675219325.416084) can0 024#020201F3620F8116
(1675219325.417853) can0 025#0FC50FC37878783B
(1675219325.417859) can0 2D0#00D41000100000CE
(1675219325.421951) can0 0B0#0060005D1100
(1675219325.421956) can0 0B2#005F00591100
(1675219325.421959) can0 224#0000000000000008
(1675219325.424075) can0 235#00000000003D
(1675219325.426416) can0 2C4#03AF00160880213F
(1675219325.428070) can0 020#000007
(1675219325.428078) can0 0B4#00000000AC000068
(1675219325.428081) can0 024#020201F3620F8015
(1675219325.428085) can0 025#0FC50FC37878783B
(1675219325.428275) can0 2C1#08038001EFDC0022
(1675219325.432842) can0 260#0E00000000000078
(1675219325.434583) can0 0B0#006000571101
(1675219325.434591) can0 0B2#006000541101
(1675219325.434594) can0 223#000000000000002D
(1675219325.435728) can0 440#4202000001000000
(1675219325.439806) can0 020#000007
(1675219325.439813) can0 0B4#00000000AC000068
(1675219325.440613) can0 025#0FC50FC37878783B
(1675219325.440625) can0 024#020201F3620F8015
(1675219325.446225) can0 0B0#005E00521102
(1675219325.446231) can0 0B2#006000531102
(1675219325.446233) can0 224#0000000000000008
(1675219325.446541) can0 235#00000000003D
(1675219325.450546) can0 2D0#00D61000100000D0
(1675219325.451662) can0 2C4#03A9001608802139
(1675219325.451667) can0 020#000007
(1675219325.452487) can0 0B4#00000000AC000068
(1675219325.452492) can0 025#0FC50FC37878783B
(1675219325.452971) can0 024#020201F2620F8014
(1675219325.452975) can0 260#0E00000000000078
(1675219325.458496) can0 0B0#005800521103
(1675219325.460231) can0 0B2#006000511103
(1675219325.460237) can0 223#000000000000002D
(1675219325.460239) can0 2C1#08036701F9DB0012
(1675219325.464071) can0 020#000007
(1675219325.464076) can0 0B4#00000000AC000068
(1675219325.464078) can0 025#0FC50FC37878783B
(1675219325.464928) can0 024#020201F262107F14
(1675219325.465529) can0 3A0#3D5F000000FFFF19
(1675219325.470164) can0 0B0#005300521104
(1675219325.470170) can0 0B2#005A00511104
(1675219325.470586) can0 224#0000000000000008
(1675219325.471803) can0 235#00000000003D
(1675219325.471807) can0 3B7#0000800000000000
(1675219325.472598) can0 260#0E00000000000078
(1675219325.473547) can0 2C4#03AB00160880213B
(1675219325.473551) can0 351#00000000
(1675219325.475985) can0 020#000007
(1675219325.475993) can0 0B4#00000000AC000068
(1675219325.476481) can0 024#020201F362108016
(1675219325.476948) can0 025#0FC50FC37878783B
(1675219325.481910) can0 2D0#00D91000100000D3
(1675219325.481915) can0 0B0#005500521105
(1675219325.481917) can0 0B2#005400511105
(1675219325.482110) can0 223#000000000000002D
(1675219325.488429) can0 020#000007
(1675219325.488438) can0 0B4#00000000AC000068
(1675219325.488442) can0 025#0FC50FC37878783B
(1675219325.488447) can0 024#020201F2620F8014
(1675219325.492088) can0 2C1#08035D01F1DA00FF
(1675219325.492677) can0 260#0E00000000000078
(1675219325.494357) can0 0B0#005300521106
(1675219325.494361) can0 0B2#005500511106
(1675219325.494363) can0 224#0000000000000008
(1675219325.494366) can0 235#00000000003D
(1675219325.497377) can0 2C4#03AB00160880213B
(1675219325.500168) can0 020#000007
(1675219325.500173) can0 0B4#00000000AC000068
(1675219325.500175) can0 025#0FC50FC37878783B
(1675219325.500891) can0 024#020201F2620F8014
(1675219325.506279) can0 0B0#005300521107
(1675219325.506286) can0 0B2#005300511107
(1675219325.506793) can0 223#000000000000002D
(1675219325.507933) can0 4C7#0800012100000000
(1675219325.512180) can0 020#000007
(1675219325.512185) can0 0B4#00000000AC000068
(1675219325.512188) can0 025#0FC50FC37878783B
(1675219325.512827) can0 260#0E00000000000078
(1675219325.512833) can0 024#020201F3620F7F14
(1675219325.513591) can0 2D0#00DB1000100000D5
(1675219325.518278) can0 0B0#005300521108
(1675219325.518287) can0 0B2#005300511108
(1675219325.518522) can0 224#0000000000000008
(1675219325.519582) can0 235#00000000003D
(1675219325.520438) can0 2C4#03AA00160880213A
(1675219325.523836) can0 2C1#08039201FDDC0042
(1675219325.523842) can0 020#000007
(1675219325.524608) can0 0B4#00000000AC000068
(1675219325.524615) can0 024#020201F2620F8014
(1675219325.524618) can0 025#0FC50FC37878783B
(1675219325.529518) can0 442#4002000000000000
(1675219325.530155) can0 0B0#005300521109
(1675219325.530161) can0 0B2#005300511109
(1675219325.530660) can0 223#000000000000002D
(1675219325.530663) can0 620#1000024DF0402000
(1675219325.533461) can0 260#0E00000000000078
(1675219325.533470) can0 351#00000000
(1675219325.536476) can0 020#000007
(1675219325.536484) can0 0B4#00000000AC000068
(1675219325.538031) can0 025#0FC50FC37878783B
(1675219325.538035) can0 024#020201F2620F8014
(1675219325.542601) can0 0B0#00530052110A
(1675219325.542611) can0 0B2#00530054110A
(1675219325.542615) can0 224#0000000000000008
(1675219325.542617) can0 235#00000000003D
(1675219325.544164) can0 2C4#03AA00160880213A
(1675219325.544169) can0 3B3#03A828
(1675219325.545135) can0 2D0#00DD1000100000D7
(1675219325.548723) can0 020#000007
(1675219325.548729) can0 0B4#00000000AC000068
(1675219325.548731) can0 025#0FC50FC37878783B
(1675219325.550582) can0 024#020201F3620F8015
(1675219325.552654) can0 260#0E00000000000078
(1675219325.554108) can0 0B0#00530054110B
(1675219325.554114) can0 0B2#00530054110B
(1675219325.554437) can0 223#000000000000002D
(1675219325.555449) can0 2C1#08036901FCDB0017
(1675219325.560357) can0 020#000007
(1675219325.560367) can0 0B4#00000000AC000068
(1675219325.561600) can0 025#0FC50FC37878783B
(1675219325.561604) can0 024#020201F4620F8016
(1675219325.565480) can0 3A0#425F000000FFFF19
(1675219325.566654) can0 0B0#00530054110C
(1675219325.566660) can0 0B2#00530054110C
(1675219325.566663) can0 224#0000000000000008
(1675219325.566665) can0 235#00000000003D
(1675219325.567528) can0 2C4#03AA00160880213A
(1675219325.572333) can0 020#000007
(1675219325.572339) can0 0B4#00000000AC000068
(1675219325.572342) can0 024#020201F3620E8014
(1675219325.572768) can0 025#0FC50FC37878783B
(1675219325.572771) can0 260#0E00000000000078
(1675219325.577187) can0 2D0#00DF1000100000D9
(1675219325.578295) can0 0B0#00550054110D
(1675219325.578299) can0 0B2#00530054110D
(1675219325.578300) can0 223#000000000000002D
(1675219325.584446) can0 020#000007
(1675219325.584452) can0 0B4#00000000AC000068
(1675219325.584455) can0 025#0FC50FC37878783B
(1675219325.584769) can0 024#020201F2620E8013
(1675219325.587417) can0 2C1#08037301F0DB0015
(1675219325.590261) can0 0B0#00550054110E
(1675219325.590266) can0 0B2#00550054110E
(1675219325.590623) can0 224#0000000000000008
(1675219325.590629) can0 235#00000000003D
(1675219325.590956) can0 623#1900000000000000
(1675219325.590959) can0 2C4#03AB00160880213B
(1675219325.592699) can0 260#0E00000000000078
(1675219325.593411) can0 351#00000000
(1675219325.596318) can0 020#000007
(1675219325.596322) can0 0B4#00000000AC000068
(1675219325.596679) can0 025#0FC50FC37878783B
(1675219325.596683) can0 024#020201F2620E8013
(1675219325.601052) can0 624#1A00414949400000
(1675219325.602518) can0 0B0#00550054110F
(1675219325.602521) can0 0B2#00550054110F
(1675219325.602523) can0 223#000000000000002D
(1675219325.608607) can0 020#000007
(1675219325.608612) can0 0B4#00000000AC000068
(1675219325.608614) can0 025#0FC50FC37878783B
(1675219325.609130) can0 2D0#00E11000100000DB
(1675219325.609622) can0 024#020201F3620E7F13
(1675219325.611698) can0 394#00
(1675219325.612840) can0 260#0E00000000000078
(1675219325.614280) can0 4C6#0700010000000000
(1675219325.614291) can0 0B0#005500541100
(1675219325.614294) can0 0B2#005500541100
(1675219325.614478) can0 224#0000000000000008
(1675219325.614892) can0 235#00000000003D
(1675219325.614896) can0 2C4#03AA00160880213A
(1675219325.618827) can0 2C1#08036101F2DB0005
(1675219325.620232) can0 020#000007
(1675219325.620238) can0 0B4#00000000AC000068
(1675219325.620672) can0 024#020301F3620F8016
(1675219325.620675) can0 025#0FC50FC37878783B
(1675219325.625608) can0 440#4202000001000000
(1675219325.625615) can0 630#1700000000000000
(1675219325.626302) can0 0B0#005500541101
(1675219325.626307) can0 0B2#005500541101
(1675219325.626309) can0 223#000000000000002D
(1675219325.632891) can0 020#000007
(1675219325.632895) can0 0B4#00000000AC000068
(1675219325.632897) can0 025#0FC50FC37878783B
(1675219325.634052) can0 024#020201F3620F8015
(1675219325.634056) can0 260#0E00000000000078
(1675219325.638391) can0 2C4#03AD00160880213D
(1675219325.638395) can0 0B0#005500541102
(1675219325.638818) can0 0B2#005500571102
(1675219325.638821) can0 224#0000000000000008
(1675219325.639547) can0 235#00000000003D
(1675219325.640103) can0 2D0#00E41000100000DE
(1675219325.644373) can0 020#000007
(1675219325.644377) can0 0B4#00000000AC000068
(1675219325.644946) can0 025#0FC50FC37878783B
(1675219325.645870) can0 024#020201F2620F8014
(1675219325.650736) can0 0B0#005500571103
(1675219325.650740) can0 0B2#005500571103
(1675219325.650742) can0 223#000000000000002D
(1675219325.652099) can0 2C1#08035001E6DA00E7
(1675219325.652576) can0 260#0E00000000000078
(1675219325.653370) can0 351#00000000
(1675219325.656574) can0 020#000007
(1675219325.656578) can0 0B4#00000000AC000068
(1675219325.656580) can0 025#0FC50FC37878783B
(1675219325.657241) can0 024#020201F2620F8014
(1675219325.661943) can0 2C4#03AD00160880213D
(1675219325.662710) can0 0B0#005500571104
(1675219325.662716) can0 0B2#005500571104
(1675219325.662718) can0 224#0000000000000008
(1675219325.663985) can0 235#00000000003D
(1675219325.665737) can0 3A0#495F000000FFFF19
(1675219325.668700) can0 020#000007
(1675219325.668703) can0 0B4#00000000AC000068
(1675219325.668787) can0 024#020201F2620F8014
(1675219325.669098) can0 025#0FC50FC382828259
(1675219325.672446) can0 2D0#00E71000100000E1
(1675219325.672452) can0 260#0E00000000000078
(1675219325.674543) can0 0B0#005800571105
(1675219325.674547) can0 0B2#005500571105
(1675219325.674549) can0 223#000000000000002D
(1675219325.680346) can0 020#000007
(1675219325.680350) can0 0B4#00000000AC000068
(1675219325.680955) can0 024#020201F262107F14
(1675219325.681264) can0 025#0FC50FC37878783B
(1675219325.682262) can0 2C1#08035901F4DA00FE
(1675219325.685323) can0 2C4#03AC00160880213C
(1675219325.686739) can0 0B0#005800571106
(1675219325.686748) can0 0B2#005800571106
(1675219325.686750) can0 224#0000000000000008
(1675219325.686752) can0 235#00000000003D
(1675219325.692998) can0 020#000007
(1675219325.693008) can0 0B4#00000000AC000068
(1675219325.693011) can0 260#0E00000000000078
(1675219325.693013) can0 024#020201F2620F8014
(1675219325.693199) can0 025#0FC50FC37878783B
(1675219325.698687) can0 0B0#005800571107
(1675219325.698693) can0 0B2#005800571107
(1675219325.699048) can0 223#000000000000002D
(1675219325.703895) can0 2D0#00E91000100000E3
(1675219325.704513) can0 020#000007
(1675219325.704517) can0 0B4#00000000AC000068
(1675219325.705212) can0 025#0FC50FC37878783B
(1675219325.705215) can0 024#020201F2620F8014
(1675219325.708797) can0 2C4#03AD00160880213D
(1675219325.710848) can0 0B0#005800571108
(1675219325.710856) can0 0B2#005800571108
(1675219325.710858) can0 224#0000000000000008
(1675219325.710861) can0 235#00000000003D
(1675219325.712865) can0 260#0E00000000000078
(1675219325.713491) can0 351#00000000
(1675219325.713911) can0 2C1#08035601F9DA0000
(1675219325.716947) can0 020#000007
(1675219325.716957) can0 0B4#00000000AC000068
(1675219325.716958) can0 025#0FC50FC37878783B
(1675219325.717650) can0 024#020301F2620F8015
(1675219325.719372) can0 442#4002000000000000
(1675219325.722749) can0 0B0#005800571109
(1675219325.722754) can0 0B2#005800571109
(1675219325.722756) can0 223#000000000000002D
(1675219325.728820) can0 020#000007
(1675219325.728826) can0 0B4#00000000AC000068
(1675219325.728828) can0 024#020301F3620F8016
(1675219325.729384) can0 025#0FC50FC37878783B
(1675219325.732445) can0 2C4#03AE00160880213E
(1675219325.732449) can0 260#0E00000000000078
(1675219325.734929) can0 0B0#00580057110A
(1675219325.734936) can0 0B2#0058005A110A
(1675219325.734938) can0 224#0000000000000008
(1675219325.735326) can0 235#00000000003D
(1675219325.736613) can0 2D0#00EC1000100000E6
(1675219325.740741) can0 020#000007
(1675219325.741242) can0 0B4#00000000AC000068
(1675219325.741245) can0 025#0FC50FC37878783B
(1675219325.742039) can0 024#020301F3620F8016
(1675219325.745831) can0 2C1#08035601FFDA0006
(1675219325.746631) can0 0B0#0058005A110B
(1675219325.746634) can0 0B2#0058005A110B
(1675219325.746913) can0 223#000000000000002D
(1675219325.752644) can0 260#0E00000000000078
(1675219325.752649) can0 020#000007
(1675219325.753141) can0 0B4#00000000AC000068
(1675219325.753145) can0 025#0FC50FC37878783B
(1675219325.753362) can0 024#020301F3620F8016
(1675219325.756025) can0 2C4#03B1001608802141
(1675219325.758876) can0 0B0#005B005A110C
(1675219325.758880) can0 0B2#0058005A110C
(1675219325.759142) can0 224#0000000000000008
(1675219325.760194) can0 235#00000000003D
(1675219325.765088) can0 020#000007
(1675219325.765093) can0 0B4#00000000AC000068
(1675219325.765095) can0 3A0#4B5E000000FFFF19
(1675219325.765588) can0 025#0FC50FC37878783B
(1675219325.765592) can0 621#1100000000000000
(1675219325.765722) can0 024#020201F3620F7F14
(1675219325.767337) can0 2D0#00EE1000100000E8
(1675219325.771274) can0 0B0#005B005A110D
(1675219325.771282) can0 0B2#0058005A110D
(1675219325.771285) can0 223#000000000000002D
(1675219325.771288) can0 3B7#0000800000000000
(1675219325.772722) can0 260#0E00000000000078
(1675219325.773212) can0 398#0173
(1675219325.773215) can0 351#00000000
(1675219325.776659) can0 020#000007
(1675219325.776739) can0 0B4#00000000AC000068
(1675219325.777377) can0 024#020301F3620F8016
(1675219325.777383) can0 025#0FC50FC37878783B
(1675219325.777385) can0 2C1#0803590202DA000D
(1675219325.779960) can0 2C4#03AE00160880213E
(1675219325.782834) can0 0B0#005B005A110E
(1675219325.782840) can0 0B2#005A005A110E
(1675219325.782842) can0 224#0000000000000008
(1675219325.783057) can0 235#00000000003D
(1675219325.789183) can0 020#000007
(1675219325.789188) can0 0B4#00000000AC000068
(1675219325.789190) can0 025#0FC50FC37878783B
(1675219325.789486) can0 024#020301F3620F8016
(1675219325.792758) can0 260#0E00000000000078
(1675219325.795163) can0 0B0#005B005A110F
(1675219325.795168) can0 0B2#005A005A110F
(1675219325.795169) can0 223#000000000000002D
(1675219325.799057) can0 2D0#00F01000100000EA
(1675219325.800376) can0 4C1#0100090000000000
(1675219325.801106) can0 020#000007
(1675219325.801111) can0 0B4#00000000AC000068
(1675219325.801114) can0 025#0FC50FC37878783B
(1675219325.801543) can0 024#020201F362108016
(1675219325.803055) can0 2C4#03AD00160880213D
(1675219325.806950) can0 0B0#005B005A1100
(1675219325.806954) can0 0B2#005A005A1100
(1675219325.807446) can0 224#0000000000000008
(1675219325.807450) can0 235#00000000003D
(1675219325.809513) can0 2C1#08035A0201DA000D
(1675219325.813289) can0 260#0E00000000000078
(1675219325.813294) can0 020#000007
(1675219325.814021) can0 0B4#00000000AC000068
(1675219325.814025) can0 025#0FC50FC37878783B
(1675219325.814027) can0 024#020201F3620F8015
(1675219325.815578) can0 440#4202000001000000
(1675219325.819240) can0 0B0#005B005A1101
(1675219325.819244) can0 0B2#005A005A1101
(1675219325.819246) can0 223#000000000000002D
(1675219325.825320) can0 020#000007
(1675219325.825328) can0 0B4#00000000AC000068
(1675219325.825330) can0 025#0FC50FC37878783B
(1675219325.826229) can0 024#020201F3620F8015
(1675219325.826683) can0 2C4#03B0001608802140
(1675219325.831066) can0 2D0#00F31000100000ED
(1675219325.831073) can0 620#1000024DF0402000
(1675219325.831076) can0 0B0#005B005D1102
(1675219325.831617) can0 0B2#005A005C1102
(1675219325.831626) can0 224#0000000000000008
(1675219325.831629) can0 235#00000000003D
(1675219325.832570) can0 260#0E00000000000078
(1675219325.833501) can0 351#00000000
(1675219325.837193) can0 020#000007
(1675219325.837200) can0 0B4#00000000AC000068
(1675219325.837495) can0 025#0FC50FC37878783B
(1675219325.838788) can0 024#020201F362108016
(1675219325.841302) can0 2C1#08035A01FCDA0007
(1675219325.843344) can0 0B0#005B005D1103
(1675219325.843348) can0 0B2#005A005C1103
(1675219325.843350) can0 223#000000000000002D
(1675219325.849553) can0 020#000007
(1675219325.849557) can0 0B4#00000000AC000068
(1675219325.849558) can0 025#0FC50FC37878783B
(1675219325.849925) can0 024#020201F262108015
(1675219325.849927) can0 2C4#03AD00160880213D
(1675219325.852838) can0 260#0E00000000000078
(1675219325.855139) can0 0B0#005D005D1104
(1675219325.855144) can0 0B2#005A005C1104
(1675219325.855613) can0 224#0000000000000008
(1675219325.855616) can0 235#00000000003D
(1675219325.861474) can0 020#000007
(1675219325.861478) can0 0B4#00000000AC000068
(1675219325.861480) can0 025#0FC50FC37878783B
(1675219325.862063) can0 024#020201F2620F8014
(1675219325.862408) can0 2D0#00F51000100000EF
(1675219325.865155) can0 3A0#4D5E000000FFFF1A
(1675219325.867547) can0 0B0#005D005D1105
(1675219325.867551) can0 0B2#005E005C1105
(1675219325.867553) can0 223#000000000000002D
(1675219325.873064) can0 2C1#08033601FED900E4
(1675219325.873071) can0 260#0E00000000000078
(1675219325.873073) can0 020#000007
(1675219325.873472) can0 0B4#00000000AC000068
(1675219325.873476) can0 025#0FC50FC37878783B
(1675219325.873934) can0 2C4#03AD00160880213D
(1675219325.874437) can0 024#020201F3620F8015
(1675219325.879515) can0 0B0#005D005D1106
(1675219325.879519) can0 0B2#005E005C1106
(1675219325.879521) can0 224#0000000000000008
(1675219325.879939) can0 235#00000000003D
(1675219325.885296) can0 020#000007
(1675219325.885307) can0 0B4#00000000AC000068
(1675219325.885945) can0 024#020201F3620F8015
(1675219325.885953) can0 025#0FC50FC37878783B
(1675219325.889082) can0 610#20000064C0FFFEE0
(1675219325.891482) can0 0B0#005D005D1107
(1675219325.891487) can0 0B2#005E005C1107
(1675219325.891488) can0 223#000000000000002D
(1675219325.892843) can0 260#0E00000000000078
(1675219325.893552) can0 351#00000000
(1675219325.894160) can0 2D0#00F91000100000F3
(1675219325.896240) can0 638#1300000000000000
(1675219325.897472) can0 2C4#03AF00160880213F
(1675219325.897481) can0 020#000007
(1675219325.897483) can0 0B4#00000000AC000068
(1675219325.897704) can0 024#020201F2620F8014
(1675219325.898142) can0 025#0FC50FC382828259
(1675219325.901686) can0 4DD#1E00000100000000
(1675219325.903502) can0 0B0#005D005D1108
(1675219325.903506) can0 0B2#005E005C1108
(1675219325.904009) can0 224#0000000000000008
(1675219325.904313) can0 235#00000000003D
(1675219325.904705) can0 2C1#00032901F1D900C2
(1675219325.909352) can0 442#4002000000000000
(1675219325.909358) can0 020#000007
(1675219325.909361) can0 0B4#00000000AC000068
(1675219325.910180) can0 024#020201F2620F8014
(1675219325.910184) can0 025#0FC50FC37878783B
(1675219325.911407) can0 394#00
(1675219325.913164) can0 260#0E00000000000078
(1675219325.915784) can0 0B0#005D00601109
(1675219325.915788) can0 0B2#005E00601109
(1675219325.915790) can0 223#000000000000002D
(1675219325.920845) can0 2C4#03AC00160880213C
(1675219325.921618) can0 020#000007
(1675219325.921624) can0 0B4#00000000AC000068
(1675219325.922108) can0 025#0FC50FC37878783B
(1675219325.922337) can0 024#020201F2620F8014
(1675219325.926317) can0 2D0#00FC1000100000F6
(1675219325.927903) can0 0B0#005D0060110A
(1675219325.927910) can0 0B2#005E0060110A
(1675219325.927912) can0 224#0000000000000008
(1675219325.927913) can0 235#00000000003D
(1675219325.932785) can0 260#0E00000000000078
(1675219325.933415) can0 020#000007
(1675219325.933418) can0 0B4#00000000AC000068
(1675219325.933918) can0 024#020201F2620F7F13
(1675219325.933921) can0 025#0FC50FC37878783B
(1675219325.936345) can0 2C1#00034A01FCDA03F2
(1675219325.939722) can0 0B0#00600060110B
(1675219325.939726) can0 0B2#005E0060110B
(1675219325.939728) can0 223#000000000000002D
(1675219325.944507) can0 2C4#03AA00160880213A
(1675219325.945433) can0 020#000007
(1675219325.945436) can0 0B4#00000000AC000068
(1675219325.945993) can0 024#020301F2620F8015
(1675219325.945997) can0 025#0FC50FC37878783B
(1675219325.951533) can0 0B0#00600060110C
(1675219325.951538) can0 0B2#00610060110C
(1675219325.952028) can0 224#0000000000000008
(1675219325.952032) can0 235#00000000003D
(1675219325.952687) can0 260#0E00000000000078
(1675219325.953445) can0 351#00000000
(1675219325.957764) can0 020#000007
(1675219325.957770) can0 0B4#00000000AC000068
(1675219325.958074) can0 2D0#00FF1000100000F9
(1675219325.958321) can0 025#0FC50FC37878783B
(1675219325.958956) can0 024#020301F2620F8015
(1675219325.958959) can0 611#210010A00002821B
(1675219325.963711) can0 0B0#00600060110D
(1675219325.963715) can0 0B2#00610060110D
(1675219325.965210) can0 223#000000000000002D
(1675219325.965214) can0 3A0#505E000000FFFF1A
(1675219325.968148) can0 2C1#0003310200D906E0
(1675219325.968152) can0 2C4#03A7001608802137
(1675219325.969674) can0 020#000007
(1675219325.969679) can0 0B4#00000000AC000068
(1675219325.970129) can0 025#0FC50FC37878783B
(1675219325.970531) can0 024#020301F2620F8015
(1675219325.972907) can0 260#0E00000000000078
(1675219325.976044) can0 0B0#00600060110E
(1675219325.976049) can0 0B2#00610060110E
(1675219325.976052) can0 224#0000000000000008
(1675219325.976054) can0 235#00000000003D
(1675219325.981613) can0 020#000007
(1675219325.981619) can0 0B4#00000000AC000068
(1675219325.982040) can0 025#0FC50FC37878783B
(1675219325.982916) can0 024#020301F2620E8014
(1675219325.988184) can0 0B0#00600060110F
(1675219325.989566) can0 0B2#00610060110F
(1675219325.989570) can0 223#000000000000002D
(1675219325.989572) can0 2D0#00FF1000100000F9
(1675219325.991691) can0 2C4#03A6001608802136
(1675219325.992768) can0 260#0E00000000000078
(1675219325.993820) can0 020#000007
(1675219325.993824) can0 0B4#00000000AC000068
(1675219325.993827) can0 024#020201F3620E8014
(1675219325.994163) can0 025#0FC50FC37878783B
(1675219325.995010) can0 4DC#1D00030200000000
(1675219326.000237) can0 2C1#00034001FCDA07EC
(1675219326.000243) can0 0B0#006000601100
(1675219326.000246) can0 0B2#006100621100
(1675219326.000248) can0 224#0000000000000008
(1675219326.000567) can0 235#00000000003D
(1675219326.005142) can0 38C#0000000000000037
(1675219326.005648) can0 440#4202000001000000
(1675219326.005653) can0 020#000007
(1675219326.006311) can0 0B4#00000000AC000068
(1675219326.006316) can0 025#0FC50FC37878783B
(1675219326.006318) can0 024#020201F3620F8015
(1675219326.006671) can0 3B4#0000ACB000400000
(1675219326.012435) can0 0B0#006000621101
(1675219326.012441) can0 0B2#006100621101
(1675219326.012444) can0 223#000000000000002D
(1675219326.012802) can0 260#0E00000000000078
(1675219326.013606) can0 351#00000000
(1675219326.015362) can0 2C4#039F00160880212F
(1675219326.018038) can0 020#000007
(1675219326.018044) can0 0B4#00000000AC000068
(1675219326.018500) can0 025#0FC50FC37878783B
(1675219326.018503) can0 024#020301F3620F8016
(1675219326.021403) can0 2D0#01041000100000FF
(1675219326.024514) can0 0B0#006300621102
(1675219326.024517) can0 0B2#006100621102
(1675219326.024519) can0 224#0000000000000008
(1675219326.025921) can0 235#00000000003D
(1675219326.030254) can0 020#000007
(1675219326.030258) can0 0B4#00000000AC000068
(1675219326.030260) can0 025#0FC50FC37878783B
(1675219326.030888) can0 024#020301F3620E8015
(1675219326.031331) can0 2C1#0003F90208D909B3
(1675219326.032907) can0 260#0E00000000000078
(1675219326.035250) can0 3B0#0000002A0000
(1675219326.036049) can0 0B0#006300621103
(1675219326.036053) can0 0B2#006300621103
(1675219326.036450) can0 223#000000000000002D
(1675219326.038631) can0 2C4#03A0001608802130
(1675219326.042351) can0 020#000007
(1675219326.042355) can0 0B4#00000000AC000068
(1675219326.042358) can0 025#0FC50FC37878783B
(1675219326.043328) can0 024#020301F3620E8015
(1675219326.048383) can0 0B0#006300621104
(1675219326.048389) can0 0B2#006300621104
(1675219326.048851) can0 224#0000000000000008
(1675219326.048855) can0 235#00000000003D
(1675219326.053162) can0 260#0E00000000000078
(1675219326.053167) can0 2D0#0106100010000001
(1675219326.054279) can0 4C8#0900010200000000
(1675219326.054283) can0 020#000007
(1675219326.054285) can0 0B4#00000000AC000068
(1675219326.054689) can0 025#0FC50FC37878783B
(1675219326.056014) can0 024#020301F3620E8015
(1675219326.056017) can0 3B3#03A230
(1675219326.060546) can0 0B0#006300621105
(1675219326.060552) can0 0B2#006300621105
(1675219326.061610) can0 223#000000000000002D
(1675219326.061986) can0 2C4#03A4001608802134
(1675219326.063120) can0 2C1#00045001FBD909FD
(1675219326.065585) can0 3A0#545E000000FFFF1A
(1675219326.066102) can0 020#000007
(1675219326.066106) can0 0B4#00000000AC000068
(1675219326.066686) can0 025#0FC50FC37878783B
(1675219326.066689) can0 024#020301F3620E8015
(1675219326.072695) can0 0B0#006300621106
(1675219326.072701) can0 0B2#006300621106
(1675219326.072703) can0 224#0000000000000008
(1675219326.073249) can0 235#00000000003D
(1675219326.073255) can0 260#0E00000000000078
(1675219326.073257) can0 3B7#0000800000000000
(1675219326.073259) can0 351#00000000
(1675219326.078385) can0 020#000007
(1675219326.078391) can0 0B4#00000000AC000068
(1675219326.079079) can0 025#0FC50FC37878783B
(1675219326.079465) can0 024#020201F3620E8115
(1675219326.084786) can0 0B0#006300621107
(1675219326.084790) can0 0B2#006300641107
(1675219326.084792) can0 223#000000000000002D
(1675219326.084794) can0 2D0#0107100010000002
(1675219326.085627) can0 2C4#03A0001608802130
(1675219326.090403) can0 020#000007
(1675219326.090406) can0 0B4#00000000AC000068
(1675219326.090408) can0 025#0FC50FC37878783B
(1675219326.091389) can0 024#020301F3620F8016
(1675219326.093198) can0 260#0E00000000000078
(1675219326.095075) can0 2C1#00049101F9D90A3D
(1675219326.095079) can0 380#A00808000000F800
(1675219326.096427) can0 0B0#006300641108
(1675219326.096431) can0 0B2#006300641108
(1675219326.096432) can0 224#0000000000000008
(1675219326.096871) can0 235#00000000003D
(1675219326.099261) can0 442#4002000000000000
(1675219326.102270) can0 020#000007
(1675219326.102274) can0 0B4#00000000AC000068
(1675219326.102789) can0 024#020301F3620F8016
(1675219326.102793) can0 025#0FC50FC37878783B
(1675219326.108269) can0 0B0#006500641109
(1675219326.108275) can0 0B2#006300641109
(1675219326.108802) can0 223#000000000000002D
(1675219326.109046) can0 2C4#03A2001608802132
(1675219326.113182) can0 260#0E00000000000078
(1675219326.114530) can0 020#000007
(1675219326.114538) can0 0B4#00000000AC000068
(1675219326.114540) can0 025#0FC50FC37878783B
(1675219326.114749) can0 024#020201F3620F8015
(1675219326.116776) can0 2D0#0109100010000004
(1675219326.120448) can0 0B0#00650064110A
(1675219326.120452) can0 0B2#00660064110A
(1675219326.120762) can0 224#0000000000000008
(1675219326.120764) can0 235#00000000003D
(1675219326.125363) can0 3A1#0000000000FF0000
(1675219326.126592) can0 020#000007
(1675219326.126599) can0 0B4#00000000AC000068
(1675219326.126601) can0 2C1#0004E201F5D80B8A
(1675219326.127253) can0 025#0FC50FC382828259
(1675219326.127257) can0 024#020201F3620F7F14
(1675219326.130906) can0 620#1000024DF0402000
(1675219326.132444) can0 0B0#00650064110B
(1675219326.132451) can0 0B2#00660064110B
(1675219326.132904) can0 223#000000000000002D
(1675219326.132908) can0 260#0E00000000000078
(1675219326.133380) can0 2C4#03A2001608802132
(1675219326.133384) can0 351#00000000
(1675219326.136066) can0 423#00
(1675219326.138438) can0 020#000007
(1675219326.138442) can0 0B4#00000000AC000068
(1675219326.139266) can0 025#0FC50FC37878783B
(1675219326.139269) can0 024#020301F3620F8016
(1675219326.144944) can0 0B0#00650064110C
(1675219326.144950) can0 0B2#00660064110C
(1675219326.144953) can0 224#0000000000000008
(1675219326.145334) can0 235#00000000003D
(1675219326.146207) can0 383#0000000000000000
(1675219326.148510) can0 2D0#010C100010000007
(1675219326.150386) can0 020#000007
(1675219326.150391) can0 0B4#00000000AC000068
(1675219326.150742) can0 024#020301F3620E8015
(1675219326.151294) can0 025#0FC50FC37878783B
(1675219326.151298) can0 3B1#0000002400000000
(1675219326.152741) can0 260#0E00000000000078
(1675219326.156329) can0 2C4#03A2001608802132
(1675219326.156334) can0 0B0#00650064110D
(1675219326.156851) can0 0B2#00660064110D
(1675219326.156855) can0 223#000000000000002D
(1675219326.158408) can0 2C1#00051701EFD80BBA
(1675219326.162531) can0 020#000007
(1675219326.162538) can0 0B4#00000000AC000068
(1675219326.162751) can0 024#020301F3620F8016
(1675219326.163383) can0 025#0FC50FC37878783B
(1675219326.164780) can0 3A0#575E000000FFFF1B
(1675219326.168924) can0 0B0#00650064110E
(1675219326.168930) can0 0B2#00660066110E
(1675219326.168932) can0 224#0000000000000008
(1675219326.168934) can0 235#00000000003D
(1675219326.173197) can0 260#0E00000000000078
(1675219326.174815) can0 020#000007
(1675219326.174823) can0 0B4#00000000AC000068
(1675219326.175358) can0 025#0FC50FC37878783B
(1675219326.175362) can0 024#020301F362108017
(1675219326.179972) can0 2D0#011110001000000C
(1675219326.179979) can0 2C4#03A2001608802132
(1675219326.180573) can0 0B0#00650066110F
(1675219326.180576) can0 0B2#00660066110F
(1675219326.180890) can0 223#000000000000002D
(1675219326.187002) can0 020#000007
(1675219326.187009) can0 0B4#00000000AC000068
(1675219326.187395) can0 025#0FC50FC37878783B
(1675219326.187689) can0 024#020201F2620F8014
(1675219326.190319) can0 2C1#00056F0203D80C28
(1675219326.193328) can0 0B0#006700661100
(1675219326.193332) can0 0B2#006600661100
(1675219326.193334) can0 224#0000000000000008
(1675219326.193335) can0 235#00000000003D
(1675219326.193337) can0 260#0E00000000000078
(1675219326.193517) can0 351#00000000
(1675219326.196039) can0 440#4202000001000000
(1675219326.199062) can0 020#000007
(1675219326.199066) can0 0B4#00000000AC000068
(1675219326.199068) can0 024#020201F2620F8014
(1675219326.199069) can0 025#0FC50FC37878783B
(1675219326.203826) can0 2C4#03A3001608802133
(1675219326.204789) can0 0B0#006700661101
(1675219326.204794) can0 0B2#006700661101
(1675219326.204796) can0 223#000000000000002D
(1675219326.211221) can0 020#000007
(1675219326.211225) can0 0B4#00000000AC000068
(1675219326.211657) can0 024#020301F4620F8017
(1675219326.211661) can0 025#0FC50FC37878783B
(1675219326.212649) can0 2D0#011310001000000E
(1675219326.212652) can0 394#00
(1675219326.212653) can0 260#0E00000000000078
(1675219326.217356) can0 0B0#006700661102
(1675219326.217368) can0 0B2#006700661102
(1675219326.217370) can0 224#0000000000000008
(1675219326.217372) can0 235#00000000003D
(1675219326.222468) can0 2C1#0005D50200D70D8B
(1675219326.222477) can0 020#000007
(1675219326.222835) can0 0B4#00000000AC000068
(1675219326.223314) can0 025#0FC50FC37878783B
(1675219326.223318) can0 024#020201F3620F7F14
(1675219326.227237) can0 2C4#03A3001608802133
(1675219326.228782) can0 0B0#006700661103
(1675219326.228788) can0 0B2#006700661103
(1675219326.229213) can0 223#000000000000002D
(1675219326.232968) can0 260#0E00000000000078
(1675219326.234752) can0 020#000007
(1675219326.234756) can0 0B4#00000000AC000068
(1675219326.235086) can0 025#0FC50FC37878783B
(1675219326.235665) can0 024#020201F3620F8015
(1675219326.240861) can0 0B0#006700661104
(1675219326.240865) can0 0B2#006700661104
(1675219326.241169) can0 224#0000000000000008
(1675219326.241172) can0 235#00000000003D
(1675219326.243592) can0 2D0#0115100010000010
(1675219326.246778) can0 020#000007
(1675219326.246784) can0 0B4#00000000AC000068
(1675219326.247161) can0 024#020201F3620F8015
(1675219326.247164) can0 025#0FC50FC37878783B
(1675219326.250507) can0 2C4#03A3001608802133
(1675219326.252894) can0 0B0#006700691105
(1675219326.252899) can0 0B2#006700681105
(1675219326.253199) can0 223#000000000000002D
(1675219326.253203) can0 260#0E00000000000078
(1675219326.253455) can0 2C1#0006DF022BD90EC4
(1675219326.253985) can0 351#00000000
(1675219326.259097) can0 020#000007
(1675219326.259103) can0 0B4#00000000AC000068
(1675219326.259105) can0 025#0FC50FC37878783B
(1675219326.259487) can0 024#020201F3620F8015
(1675219326.264951) can0 3A0#5A5F000000FFFF1B
(1675219326.264955) can0 0B0#006700691106
(1675219326.264957) can0 0B2#006700681106
(1675219326.265795) can0 224#0000000000000008
(1675219326.265805) can0 235#00000000003D
(1675219326.265808) can0 622#1200E83000000000
(1675219326.271276) can0 020#000007
(1675219326.271280) can0 0B4#00000000AC000068
(1675219326.271282) can0 025#0FC50FC37878783B
(1675219326.271621) can0 024#020201F3620E7F13
(1675219326.271930) can0 4C3#0300120100000000
(1675219326.272718) can0 260#0E00000000000078
(1675219326.274476) can0 2C4#03A8001608802138
(1675219326.275052) can0 2D0#0117100010000012
(1675219326.277232) can0 0B0#006A00691107
(1675219326.277236) can0 0B2#006700681107
(1675219326.278510) can0 223#000000000000002D
(1675219326.283457) can0 020#000007
(1675219326.283462) can0 0B4#00000000AC000068
(1675219326.283464) can0 025#0FC50FC37878783B
(1675219326.283755) can0 024#020201F3620F7F14
(1675219326.285415) can0 2C1#00075D0235D9104F
(1675219326.288641) can0 442#4002000000000000
(1675219326.289108) can0 0B0#006A00691108
(1675219326.289115) can0 0B2#006A00681108
(1675219326.289747) can0 224#0000000000000008
(1675219326.289752) can0 235#00000000003D
(1675219326.292957) can0 260#0E00000000000078
(1675219326.295506) can0 020#000007
(1675219326.295516) can0 0B4#00000000AC000068
(1675219326.296231) can0 025#0FC50FC37878783B
(1675219326.296729) can0 024#020201F3620F8015
(1675219326.297540) can0 2C4#03A8001608802138
(1675219326.301536) can0 0B0#006A00691109
(1675219326.303422) can0 0B2#006A00681109
(1675219326.303426) can0 223#000000000000002D
(1675219326.307439) can0 2D0#011A100010000015
(1675219326.307443) can0 020#000007
(1675219326.307445) can0 0B4#00000000AC000068
(1675219326.307731) can0 024#020201F3620E8014
(1675219326.308928) can0 025#0FC50FC37878783B
(1675219326.313400) can0 260#0E00000000000078
(1675219326.313405) can0 0B0#006A0069110A
(1675219326.313822) can0 0B2#006A0068110A
(1675219326.313825) can0 224#0000000000000008
(1675219326.314466) can0 235#00000000003D
(1675219326.314470) can0 351#00000000
(1675219326.317237) can0 2C1#0007920242D81090
(1675219326.319699) can0 020#000007
(1675219326.319705) can0 0B4#00000000AC000068
(1675219326.319707) can0 025#0FC50FC37878783B
(1675219326.319950) can0 024#020201F3620E7F13
(1675219326.321170) can0 2C4#03A5001608802135
(1675219326.325865) can0 0B0#006A0069110B
(1675219326.326997) can0 0B2#006A006B110B
(1675219326.327001) can0 223#000000000000002D
(1675219326.331542) can0 020#000007
(1675219326.331556) can0 0B4#00000000AC000068
(1675219326.331988) can0 025#0FC50FC37878783B
(1675219326.332704) can0 024#020201F3620F8116
(1675219326.332714) can0 260#0E00000000000078
(1675219326.337886) can0 0B0#006A006B110C
(1675219326.337891) can0 0B2#006A006B110C
(1675219326.337893) can0 224#0000000000000008
(1675219326.338707) can0 235#00000000003D
(1675219326.339230) can0 2D0#011C100010000017
(1675219326.343544) can0 020#000007
(1675219326.343550) can0 0B4#00000000AC000068
(1675219326.344676) can0 025#0FC50FC37878783B
(1675219326.344683) can0 024#020201F3620F8015
(1675219326.344685) can0 2C4#03AA00160880213A
(1675219326.348987) can0 2C1#0008220274D81053
(1675219326.349497) can0 0B0#006B006B110D
(1675219326.349503) can0 0B2#006A006B110D
(1675219326.349505) can0 223#000000000000002D
(1675219326.352943) can0 260#0E00000000000078
(1675219326.356241) can0 020#000007
(1675219326.357313) can0 0B4#00000000AC000068
(1675219326.357386) can0 024#020201F3620E8014
(1675219326.358581) can0 025#0FC50FC37878783B
(1675219326.361585) can0 0B0#006B006B110E
(1675219326.361593) can0 0B2#006B006B110E
(1675219326.362076) can0 224#0000000000000008
(1675219326.363059) can0 235#00000000003D
(1675219326.364727) can0 3A0#5A5F000000FFFF1A
(1675219326.367492) can0 020#000007
(1675219326.367499) can0 0B4#00000000AC000068
(1675219326.368095) can0 025#0FC50FC37878783B
(1675219326.368101) can0 024#020201F3620E8014
(1675219326.368990) can0 2C4#03AE00160880213E
(1675219326.370742) can0 2D0#011F10001000001A
(1675219326.373339) can0 260#0E00000000000078
(1675219326.373345) can0 0B0#006B006B110F
