(1675218763.471788) can0 260#0E00000000000078
(1675218763.473137) can0 2C4#0398001B0880212D
(1675218763.473145) can0 351#00000000
(1675218763.473464) can0 020#000007
(1675218763.473472) can0 0B4#00000000000000BC
(1675218763.473745) can0 025#00160FC37878787D
(1675218763.473912) can0 024#020301FA620A8018
(1675218763.475516) can0 2D0#00001000100000FA
(1675218763.479202) can0 0B0#000000001106
(1675218763.479672) can0 0B2#000000001106
(1675218763.479677) can0 224#2000000000CD0008
(1675218763.480280) can0 235#00000000003D
(1675218763.481480) can0 3A0#515D000000FFFF27
(1675218763.481485) can0 620#1000022EF0402040
(1675218763.483582) can0 2C1#08034201BBDA00AE
(1675218763.485338) can0 020#000007
(1675218763.485340) can0 0B4#00000000000000BC
(1675218763.485344) can0 025#00160FC37878787D
(1675218763.485572) can0 024#020301FA620B8019
(1675218763.491641) can0 0B0#000000001107
(1675218763.491647) can0 0B2#000000001107
(1675218763.492003) can0 223#0600000000000033
(1675218763.493249) can0 260#0E00000000000078
(1675218763.495545) can0 2C4#039D001B08802132
(1675218763.497285) can0 020#000007
(1675218763.497291) can0 0B4#00000000000000BC
(1675218763.497952) can0 025#00160FC37878787D
(1675218763.499318) can0 024#020301FA620B8019
(1675218763.503780) can0 0B0#000000001108
(1675218763.503785) can0 0B2#000000001108
(1675218763.503788) can0 224#2000000000CD0008
(1675218763.505385) can0 235#00000000003D
(1675218763.506733) can0 2D0#00001000100000FA
(1675218763.509589) can0 020#000007
(1675218763.509595) can0 0B4#00000000000000BC
(1675218763.509872) can0 025#00160FC37878787D
(1675218763.510352) can0 4DC#1D00030200000000
(1675218763.510902) can0 024#020301FA620A8018
(1675218763.511317) can0 260#0E00000000000078
(1675218763.515387) can0 0B0#000000001109
(1675218763.515392) can0 0B2#000000001109
(1675218763.515626) can0 223#0600000000000033
(1675218763.515844) can0 2C1#08034101BEDA00B0
(1675218763.518572) can0 2C4#039E001B08802133
(1675218763.521328) can0 020#000007
(1675218763.521338) can0 0B4#00000000000000BC
(1675218763.522100) can0 025#00160FC37878787D
(1675218763.522104) can0 024#020301FA620A8018
(1675218763.522554) can0 38C#0000000000000037
(1675218763.527441) can0 0B0#00000000110A
(1675218763.527871) can0 0B2#00000000110A
(1675218763.527882) can0 224#2000000000CD0008
(1675218763.529290) can0 235#00000000003D
(1675218763.531412) can0 260#0E00000000000078
(1675218763.532145) can0 351#00000000
(1675218763.533405) can0 020#000007
(1675218763.533410) can0 0B4#00000000000000BC
(1675218763.533736) can0 025#00160FC37878787D
(1675218763.533832) can0 024#020301FA620B8019
(1675218763.536467) can0 621#1100000000000000
(1675218763.536959) can0 2D0#00001000100000FA
(1675218763.539614) can0 0B0#00000000110B
(1675218763.539624) can0 0B2#00000000110B
(1675218763.539628) can0 223#0600000000000033
(1675218763.542210) can0 2C4#039B001B08802130
(1675218763.545717) can0 020#000007
(1675218763.545728) can0 0B4#00000000000000BC
(1675218763.546223) can0 025#00160FC37878787D
(1675218763.547339) can0 024#020301FA620B8019
(1675218763.547346) can0 2C1#08034501C4DA00BA
(1675218763.548831) can0 442#4002000000000000
(1675218763.550574) can0 394#00
(1675218763.550580) can0 3B0#0000002A0000
(1675218763.551774) can0 260#0E00000000000078
(1675218763.551777) can0 0B0#00000000110C
(1675218763.552104) can0 0B2#00000000110C
(1675218763.552238) can0 224#2000000000CD0008
(1675218763.552699) can0 235#00000000003D
(1675218763.557248) can0 020#000007
(1675218763.557506) can0 0B4#00000000000000BC
(1675218763.558452) can0 025#00160FC37878787D
(1675218763.558458) can0 024#020301FA620B8019
(1675218763.563523) can0 0B0#00000000110D
(1675218763.563530) can0 0B2#00000000110D
(1675218763.565168) can0 223#0600000000000033
(1675218763.565618) can0 2C4#03A2001B08802137
(1675218763.568761) can0 2D0#00001000100000FA
(1675218763.569362) can0 020#000007
(1675218763.569535) can0 0B4#00000000000000BC
(1675218763.569722) can0 025#00160FC37878787D
(1675218763.569994) can0 024#020301FA620A8018
(1675218763.571412) can0 260#0E00000000000078
(1675218763.575989) can0 0B0#00000000110E
(1675218763.575998) can0 0B2#00000000110E
(1675218763.576003) can0 224#2000000000CD0008
(1675218763.577604) can0 235#00000000003D
(1675218763.579119) can0 2C1#08033401CBD900AF
(1675218763.580269) can0 3A0#525D000000FFFF27
(1675218763.581455) can0 020#000007
(1675218763.581461) can0 0B4#00000000000000BC
(1675218763.581915) can0 025#00160FC37878787D
(1675218763.581920) can0 024#020301FB620A8019
(1675218763.588457) can0 0B0#00000000110F
(1675218763.588462) can0 0B2#00000000110F
(1675218763.589152) can0 223#0600000000000033
(1675218763.590901) can0 4DD#1E00000100000000
(1675218763.591395) can0 2C4#03A1001B08802136
(1675218763.592018) can0 260#0E00000000000078
(1675218763.593930) can0 351#00000000
(1675218763.593935) can0 020#000007
(1675218763.595022) can0 0B4#00000000000000BC
(1675218763.595025) can0 024#020301FA620A8018
(1675218763.597633) can0 025#00160FC38282829B
(1675218763.600059) can0 0B0#000000001100
(1675218763.600067) can0 0B2#000000001100
(1675218763.600070) can0 224#2000000000CD0008
(1675218763.600260) can0 235#00000000003D
(1675218763.600642) can0 2D0#00001000100000FA
(1675218763.605847) can0 020#000007
(1675218763.605853) can0 0B4#00000000000000BC
(1675218763.606568) can0 025#00160FC37878787D
(1675218763.606571) can0 024#020301F9620A8017
(1675218763.607582) can0 611#210010A000028219
(1675218763.610530) can0 380#A00808000000FE00
(1675218763.610581) can0 2C1#08033C01CAD900B6
(1675218763.611507) can0 260#0E00000000000078
(1675218763.611713) can0 0B0#000000001101
(1675218763.611931) can0 0B2#000000001101
(1675218763.612149) can0 223#0600000000000033
(1675218763.612707) can0 2C4#03A5001B0880213A
(1675218763.618110) can0 020#000007
(1675218763.618117) can0 0B4#00000000000000BC
(1675218763.618425) can0 025#00160FC37878787D
(1675218763.618923) can0 024#020301FA620B8019
(1675218763.624375) can0 0B0#000000001102
(1675218763.624383) can0 0B2#000000001102
(1675218763.624387) can0 224#2000000000CD0008
(1675218763.625246) can0 235#00000000003D
(1675218763.629907) can0 020#000007
(1675218763.629915) can0 0B4#00000000000000BC
(1675218763.630452) can0 024#020301FA620A8018
(1675218763.631360) can0 025#00160FC37878787D
(1675218763.631367) can0 260#0E00000000000078
(1675218763.632152) can0 2D0#00001000100000FA
(1675218763.636544) can0 0B0#000000001103
(1675218763.636552) can0 0B2#000000001103
(1675218763.636556) can0 223#0600000000000033
(1675218763.636996) can0 2C4#03A0001B08802135
(1675218763.637002) can0 398#0194
(1675218763.637347) can0 3B7#0000800000000000
(1675218763.639797) can0 423#00
(1675218763.640461) can0 3A1#0000000000FF0000
(1675218763.641912) can0 020#000007
(1675218763.641916) can0 0B4#00000000000000BC
(1675218763.642523) can0 2C1#08033C01C6D900B2
(1675218763.642528) can0 024#020301FA620A8018
(1675218763.642770) can0 025#00160FC37878787D
(1675218763.646734) can0 440#4202000001000000
(1675218763.647887) can0 0B0#000000001104
(1675218763.647891) can0 0B2#000000001104
(1675218763.648508) can0 224#2000000000CD0008
(1675218763.648518) can0 235#00000000003D
(1675218763.651680) can0 260#0E00000000000078
(1675218763.653096) can0 351#00000000
(1675218763.654107) can0 020#000007
(1675218763.654108) can0 0B4#00000000000000BC
(1675218763.654271) can0 025#00160FC37878787D
(1675218763.654672) can0 024#020301FA620B8019
(1675218763.660345) can0 2C4#03A2001B08802137
(1675218763.660352) can0 0B0#000000001105
(1675218763.660357) can0 0B2#000000001105
(1675218763.660554) can0 223#0600000000000033
(1675218763.664381) can0 2D0#00001000100000FA
(1675218763.666099) can0 020#000007
(1675218763.666157) can0 0B4#00000000000000BC
(1675218763.666324) can0 025#00160FC37878787D
(1675218763.666875) can0 024#020301FA620A8018
(1675218763.671813) can0 260#0E00000000000078
(1675218763.671823) can0 0B0#000000001106
(1675218763.672158) can0 0B2#000000001106
(1675218763.672164) can0 224#2000000000CD0008
(1675218763.672591) can0 235#00000000003D
(1675218763.674603) can0 2C1#08033601BAD900A0
(1675218763.678540) can0 020#000007
(1675218763.678545) can0 0B4#00000000000000BC
(1675218763.678548) can0 024#020201FA620A7F16
(1675218763.679819) can0 025#00160FC37878787D
(1675218763.680239) can0 3A0#525D000000FFFF27
(1675218763.683540) can0 2C4#03A4001B08802139
(1675218763.684122) can0 0B0#000000001107
(1675218763.684450) can0 0B2#000000001107
(1675218763.684459) can0 223#0600000000000033
(1675218763.690033) can0 020#000007
(1675218763.690039) can0 0B4#00000000000000BC
(1675218763.690259) can0 025#00160FC37878787D
(1675218763.690821) can0 024#020201FB620A7F17
(1675218763.691430) can0 260#0E00000000000078
(1675218763.695770) can0 2D0#00001000100000FA
(1675218763.696143) can0 0B0#000000001108
(1675218763.696394) can0 0B2#000000001108
(1675218763.696569) can0 224#2000000000CD0008
(1675218763.696835) can0 235#00000000003D
(1675218763.702169) can0 020#000007
(1675218763.702352) can0 0B4#00000000000000BC
(1675218763.702355) can0 025#00160FC37878787D
(1675218763.703218) can0 024#020301FA620B8019
(1675218763.706060) can0 2C1#08032F01B6D90095
(1675218763.707105) can0 2C4#03A3001B08802138
(1675218763.708504) can0 0B0#000000001109
(1675218763.708510) can0 0B2#000000001109
(1675218763.709757) can0 223#0600000000000033
(1675218763.712066) can0 260#0E00000000000078
(1675218763.712072) can0 351#00000000
(1675218763.714160) can0 020#000007
(1675218763.714166) can0 0B4#00000000000000BC
(1675218763.714344) can0 025#00160FC37878787D
(1675218763.715189) can0 024#020301F9620B8018
(1675218763.720503) can0 0B0#00000000110A
(1675218763.720509) can0 0B2#00000000110A
(1675218763.720511) can0 224#2000000000CD0008
(1675218763.721922) can0 235#00000000003D
(1675218763.726138) can0 020#000007
(1675218763.726372) can0 0B4#00000000000000BC
(1675218763.726635) can0 024#020301F9620B8018
(1675218763.726857) can0 025#00160FC37878787D
(1675218763.727412) can0 2D0#00001000100000FA
(1675218763.730551) can0 2C4#03A2001B08802137
(1675218763.731568) can0 260#0E00000000000078
(1675218763.732233) can0 0B0#00000000110B
(1675218763.732234) can0 0B2#00000000110B
(1675218763.732760) can0 223#0600000000000033
(1675218763.737819) can0 2C1#08033A01B9D900A3
(1675218763.737825) can0 442#4002000000000000
(1675218763.738642) can0 020#000007
(1675218763.738644) can0 0B4#00000000000000BC
(1675218763.738793) can0 025#00160FC37878787D
(1675218763.740505) can0 024#020301FB620B801A
(1675218763.744277) can0 0B0#00000000110C
(1675218763.744751) can0 0B2#00000000110C
(1675218763.744756) can0 224#2000000000CD0008
(1675218763.745525) can0 235#00000000003D
(1675218763.750467) can0 020#000007
(1675218763.750473) can0 0B4#00000000000000BC
(1675218763.750858) can0 025#00160FC37878787D
(1675218763.751431) can0 024#020301FB620B801A
(1675218763.751435) can0 260#0E00000000000078
(1675218763.754405) can0 2C4#03A4001B08802139
(1675218763.756797) can0 0B0#00000000110D
(1675218763.758026) can0 0B2#00000000110D
(1675218763.758030) can0 223#0600000000000033
(1675218763.759189) can0 2D0#00001000100000FA
(1675218763.762592) can0 020#000007
(1675218763.762600) can0 0B4#00000000000000BC
(1675218763.763210) can0 025#00160FC37878787D
(1675218763.764415) can0 024#020301F9620B8018
(1675218763.766466) can0 638#1300000000000000
(1675218763.768010) can0 0B0#00000000110E
(1675218763.768399) can0 0B2#00000000110E
(1675218763.769019) can0 224#2000000000CD0008
(1675218763.769023) can0 235#00000000003D
(1675218763.769078) can0 2C1#08033D01B7D900A4
(1675218763.769422) can0 38A#0000040000
(1675218763.771641) can0 260#0E00000000000078
(1675218763.772279) can0 351#00000000
(1675218763.774876) can0 020#000007
(1675218763.774882) can0 0B4#00000000000000BC
(1675218763.776405) can0 024#020301F9620B8018
(1675218763.777720) can0 025#00160FC37878787D
(1675218763.777725) can0 2C4#03A4001B08802139
(1675218763.780141) can0 3A0#525D000000FFFF27
(1675218763.780433) can0 0B0#00000000110F
(1675218763.780438) can0 0B2#00000000110F
(1675218763.780709) can0 223#0600000000000033
(1675218763.781597) can0 620#1000022EF0402040
(1675218763.786689) can0 020#000007
(1675218763.786745) can0 0B4#00000000000000BC
(1675218763.786749) can0 025#00160FC37878787D
(1675218763.786941) can0 024#020301FA620C801A
(1675218763.791166) can0 2D0#00001000100000FA
(1675218763.791516) can0 260#0E00000000000078
(1675218763.792390) can0 0B0#000000001100
(1675218763.792768) can0 0B2#000000001100
(1675218763.792774) can0 224#2000000000CD0008
(1675218763.794256) can0 235#00000000003D
(1675218763.798657) can0 020#000007
(1675218763.798662) can0 0B4#00000000000000BC
(1675218763.799107) can0 025#00160FC37878787D
(1675218763.799368) can0 024#020301FA620A8018
(1675218763.801409) can0 2C1#08034001B7DA00A8
(1675218763.801419) can0 2C4#039F001B08802134
(1675218763.804647) can0 0B0#000000001101
(1675218763.804652) can0 0B2#000000001101
(1675218763.804961) can0 223#0600000000000033
(1675218763.810735) can0 020#000007
(1675218763.810740) can0 0B4#00000000000000BC
(1675218763.810743) can0 025#00160FC37878787D
(1675218763.811540) can0 024#020301FA620B8019
(1675218763.811549) can0 260#0E00000000000078
(1675218763.816638) can0 0B0#000000001102
(1675218763.816644) can0 0B2#000000001102
(1675218763.816990) can0 224#2000000000CD0008
(1675218763.818331) can0 235#00000000003D
(1675218763.822339) can0 020#000007
(1675218763.822640) can0 0B4#00000000000000BC
(1675218763.822645) can0 025#00160FC37878787D
(1675218763.823071) can0 2D0#00001000100000FA
(1675218763.823905) can0 024#020301FA620C801A
(1675218763.824705) can0 2C4#03A1001B08802136
(1675218763.828714) can0 0B0#000000001103
(1675218763.828728) can0 0B2#000000001103
(1675218763.829886) can0 223#0600000000000033
(1675218763.831418) can0 260#0E00000000000078
(1675218763.832346) can0 351#00000000
(1675218763.832803) can0 2C1#08033901A9D90092
(1675218763.834635) can0 020#000007
(1675218763.834642) can0 0B4#00000000000000BC
(1675218763.834961) can0 025#00160FC37878787D
(1675218763.835097) can0 024#020301FA620B8019
(1675218763.836459) can0 440#4202000001000000
(1675218763.840733) can0 0B0#000000001104
(1675218763.840740) can0 0B2#000000001104
(1675218763.841067) can0 224#2000000000CD0008
(1675218763.842395) can0 235#00000000003D
(1675218763.842400) can0 3B4#0000ABB001400000
(1675218763.846942) can0 020#000007
(1675218763.846950) can0 0B4#00000000000000BC
(1675218763.846955) can0 025#00160FC37878787D
(1675218763.847113) can0 024#020301FA620A8018
(1675218763.848154) can0 2C4#03A1001B08802136
(1675218763.850453) can0 394#00
(1675218763.852544) can0 260#0E00000000000078
(1675218763.852547) can0 0B0#000000001105
(1675218763.852785) can0 0B2#000000001105
(1675218763.853441) can0 223#0600000000000033
(1675218763.855231) can0 2D0#00001000100000FA
(1675218763.858993) can0 020#000007
(1675218763.859001) can0 0B4#00000000000000BC
(1675218763.859573) can0 025#00160FC37878787D
(1675218763.860397) can0 024#020301FA620A8018
(1675218763.864635) can0 2C1#080334019CD90080
(1675218763.864641) can0 0B0#000000001106
(1675218763.864885) can0 0B2#000000001106
(1675218763.865403) can0 224#2000000000CD0008
(1675218763.866227) can0 235#00000000003D
(1675218763.870950) can0 020#000007
(1675218763.871507) can0 0B4#00000000000000BC
(1675218763.872043) can0 025#00160FC38282829B
(1675218763.872047) can0 260#0E00000000000078
(1675218763.872644) can0 024#020301FA620B8019
(1675218763.874042) can0 2C4#039E001B08802133
(1675218763.876789) can0 0B0#000000001107
(1675218763.876796) can0 0B2#000000001107
(1675218763.877184) can0 223#0600000000000033
(1675218763.878908) can0 4C7#0800012100000000
(1675218763.880028) can0 3A0#535C000000FFFF27
(1675218763.882818) can0 020#000007
(1675218763.882823) can0 0B4#00000000000000BC
(1675218763.883111) can0 024#020301FA620B8019
(1675218763.883356) can0 025#00160FC37878787D
(1675218763.886163) can0 2D0#00001000100000FA
(1675218763.889071) can0 0B0#000000001108
(1675218763.889081) can0 0B2#000000001108
(1675218763.889305) can0 224#2000000000CD0008
(1675218763.890576) can0 235#00000000003D
(1675218763.891713) can0 260#0E00000000000078
(1675218763.892153) can0 351#00000000
(1675218763.895035) can0 020#000007
(1675218763.895478) can0 0B4#00000000000000BC
(1675218763.895483) can0 024#020301FA620B8019
(1675218763.896329) can0 025#00160FC37878787D
(1675218763.896333) can0 2C4#03A0001B08802135
(1675218763.898447) can0 2C1#08033501A5D9008A
(1675218763.901169) can0 3B3#03A028
(1675218763.901173) can0 0B0#000000001109
(1675218763.901176) can0 0B2#000000001109
(1675218763.902647) can0 223#0600000000000033
(1675218763.907076) can0 020#000007
(1675218763.907082) can0 0B4#00000000000000BC
(1675218763.907606) can0 025#00160FC37878787D
(1675218763.907613) can0 024#020301FB620A8019
(1675218763.907822) can0 610#20000064C0FFFEE0
(1675218763.911855) can0 260#0E00000000000078
(1675218763.913287) can0 0B0#00000000110A
(1675218763.913291) can0 0B2#00000000110A
(1675218763.914177) can0 224#2000000000CD0008
(1675218763.916453) can0 235#00000000003D
(1675218763.917912) can0 2D0#00001000100000FA
(1675218763.919039) can0 2C4#039C001B08802131
(1675218763.919045) can0 020#000007
(1675218763.919297) can0 0B4#00000000000000BC
(1675218763.919696) can0 025#00160FC37878787D
(1675218763.920191) can0 024#020301FA620A8018
(1675218763.925348) can0 0B0#00000000110B
(1675218763.925353) can0 0B2#00000000110B
(1675218763.925613) can0 223#0600000000000033
(1675218763.928622) can0 2C1#08032A0199D90073
(1675218763.929394) can0 442#4002000000000000
(1675218763.929812) can0 61A#2400FFFEC000B560
(1675218763.931219) can0 020#000007
(1675218763.931231) can0 0B4#00000000000000BC
(1675218763.931421) can0 024#020301F9620A8017
(1675218763.931652) can0 025#00160FC37878787D
(1675218763.932302) can0 260#0E00000000000078
(1675218763.937226) can0 0B0#00000000110C
(1675218763.937233) can0 0B2#00000000110C
(1675218763.937769) can0 224#2000000000CD0008
(1675218763.937775) can0 235#00000000003D
(1675218763.938564) can0 3B7#0000800000000000
(1675218763.943226) can0 2C4#039D001B08802132
(1675218763.943235) can0 020#000007
(1675218763.943242) can0 0B4#00000000000000BC
(1675218763.943535) can0 024#020301FA620B8019
(1675218763.943539) can0 025#00160FC37878787D
(1675218763.949606) can0 0B0#00000000110D
(1675218763.949611) can0 0B2#00000000110D
(1675218763.949614) can0 223#0600000000000033
(1675218763.950846) can0 2D0#00001000100000FA
(1675218763.952317) can0 260#0E00000000000078
(1675218763.952321) can0 351#00000000
(1675218763.955168) can0 020#000007
(1675218763.955173) can0 0B4#00000000000000BC
(1675218763.955176) can0 025#00160FC37878787D
(1675218763.955775) can0 024#020301FA620B8019
(1675218763.960031) can0 2C1#0803470199DA0091
(1675218763.961289) can0 0B0#00000000110E
(1675218763.961296) can0 0B2#00000000110E
(1675218763.961587) can0 224#2000000000CD0008
(1675218763.962512) can0 235#00000000003D
(1675218763.966524) can0 2C4#039B001B08802130
(1675218763.967269) can0 020#000007
(1675218763.967277) can0 0B4#00000000000000BC
(1675218763.967492) can0 025#00160FC37878787D
(1675218763.967967) can0 024#020301FA62098017
(1675218763.971634) can0 260#0E00000000000078
(1675218763.973271) can0 0B0#00000000110F
(1675218763.973276) can0 0B2#00000000110F
(1675218763.973464) can0 223#0600000000000033
(1675218763.979477) can0 020#000007
(1675218763.979483) can0 0B4#00000000000000BC
(1675218763.979800) can0 4C6#0700010000000000
(1675218763.980237) can0 025#00160FC37878787D
(1675218763.981525) can0 3A0#535C000000FFFF27
(1675218763.982875) can0 024#020301FA620A8018
(1675218763.985147) can0 2D0#00001000100000FA
(1675218763.985153) can0 0B0#000000001100
(1675218763.985157) can0 0B2#000000001100
(1675218763.985605) can0 224#2000000000CD0008
(1675218763.986448) can0 235#00000000003D
(1675218763.989479) can0 2C4#039B001B08802130
(1675218763.991391) can0 020#000007
(1675218763.991396) can0 0B4#00000000000000BC
(1675218763.991398) can0 025#00160FC37878787D
(1675218763.991595) can0 024#020301FA620B8019
(1675218763.992113) can0 260#0E00000000000078
(1675218763.992118) can0 2C1#0803360193D90079
(1675218763.997345) can0 0B0#000000001101
(1675218763.997356) can0 0B2#000000001101
(1675218763.998524) can0 223#0600000000000033
(1675218764.003324) can0 020#000007
(1675218764.003329) can0 0B4#00000000000000BC
(1675218764.003873) can0 025#00160FC37878787D
(1675218764.003880) can0 024#020301FA620A8018
(1675218764.009359) can0 0B0#000000001102
(1675218764.009671) can0 0B2#000000001102
(1675218764.009676) can0 224#2000000000CD0008
(1675218764.010942) can0 235#00000000003D
(1675218764.011515) can0 260#0E00000000000078
(1675218764.012456) can0 351#00000000
(1675218764.013126) can0 2D0#00001000100000FA
(1675218764.013131) can0 2C4#039E001B08802133
(1675218764.015279) can0 020#000007
(1675218764.015286) can0 0B4#00000000000000BC
(1675218764.015526) can0 025#00160FC37878787D
(1675218764.016028) can0 024#020301FA620A8018
(1675218764.021369) can0 0B0#000000001103
(1675218764.021611) can0 0B2#000000001103
(1675218764.022803) can0 223#0600000000000033
(1675218764.023231) can0 2C1#080332018CD9006E
(1675218764.027612) can0 440#4202000001000000
(1675218764.027615) can0 020#000007
(1675218764.027618) can0 0B4#00000000000000BC
(1675218764.029304) can0 025#00160FC37878787D
(1675218764.030470) can0 024#020301FB620A8019
(1675218764.031914) can0 260#0E00000000000078
(1675218764.033786) can0 0B0#000000001104
(1675218764.033794) can0 0B2#000000001104
(1675218764.033955) can0 224#2000000000CD0008
(1675218764.035215) can0 235#00000000003D
(1675218764.036741) can0 2C4#03A0001B08802135
(1675218764.039523) can0 020#000007
(1675218764.039532) can0 0B4#00000000000000BC
(1675218764.039797) can0 024#020301FA620B8019
(1675218764.040055) can0 025#00160FC37878787D
(1675218764.044998) can0 2D0#00001000100000FA
(1675218764.045503) can0 0B0#000000001105
(1675218764.045695) can0 0B2#000000001105
(1675218764.045891) can0 223#0600000000000033
(1675218764.051676) can0 020#000007
(1675218764.051688) can0 0B4#00000000000000BC
(1675218764.052094) can0 025#00160FC37878787D
(1675218764.052099) can0 024#020301F9620B8018
(1675218764.052277) can0 260#0E00000000000078
(1675218764.055475) can0 2C1#08033F01A0D9008F
(1675218764.057592) can0 0B0#000000001106
(1675218764.057600) can0 0B2#000000001106
(1675218764.057982) can0 224#2000000000CD0008
(1675218764.057983) can0 235#00000000003D
(1675218764.060392) can0 2C4#03A2001B08802137
(1675218764.063826) can0 020#000007
(1675218764.063974) can0 0B4#00000000000000BC
(1675218764.063978) can0 025#00160FC37878787D
(1675218764.065293) can0 024#020301FA620A8018
(1675218764.069670) can0 0B0#000000001107
(1675218764.069675) can0 0B2#000000001107
(1675218764.069812) can0 223#0600000000000033
(1675218764.071774) can0 260#0E00000000000078
(1675218764.072435) can0 351#00000000
(1675218764.075648) can0 020#000007
(1675218764.075656) can0 0B4#00000000000000BC
(1675218764.075660) can0 025#00160FC37878787D
(1675218764.076014) can0 4C3#0300120100000000
(1675218764.076767) can0 024#020301FB620A8019
(1675218764.077995) can0 2D0#00001000100000FA
(1675218764.080150) can0 3A0#535C000000FFFF27
(1675218764.081603) can0 0B0#000000001108
(1675218764.081605) can0 0B2#000000001108
(1675218764.081902) can0 224#2000000000CD0008
(1675218764.082166) can0 235#00000000003D
(1675218764.083548) can0 620#1000022EF0402040
(1675218764.083556) can0 2C4#039D001B08802132
(1675218764.086706) can0 2C1#0803390199D90082
(1675218764.087363) can0 020#000007
(1675218764.087616) can0 0B4#00000000000000BC
(1675218764.087894) can0 024#020301FA620A8018
(1675218764.089110) can0 025#00160FC37878787D
(1675218764.091720) can0 260#0E00000000000078
(1675218764.093920) can0 0B0#000000001109
(1675218764.094590) can0 0B2#000000001109
(1675218764.096636) can0 223#0600000000000033
(1675218764.096641) can0 622#1200E83000000000
(1675218764.099514) can0 020#000007
(1675218764.099515) can0 0B4#00000000000000BC
(1675218764.099828) can0 025#00160FC37878787D
(1675218764.100105) can0 024#020301F9620B8018
(1675218764.105892) can0 0B0#00000000110A
(1675218764.106149) can0 0B2#00000000110A
(1675218764.106911) can0 224#2000000000CD0008
(1675218764.107196) can0 235#00000000003D
(1675218764.108375) can0 2C4#039D001B08802132
(1675218764.109664) can0 2D0#00001000100000FA
(1675218764.111879) can0 260#0E00000000000078
(1675218764.111884) can0 020#000007
(1675218764.112468) can0 0B4#00000000000000BC
(1675218764.112471) can0 024#020301F9620B8018
(1675218764.113772) can0 025#00160FC38282829B
(1675218764.118087) can0 442#4002000000000000
(1675218764.118092) can0 0B0#00000000110B
(1675218764.118594) can0 0B2#00000000110B
(1675218764.119230) can0 223#0600000000000033
(1675218764.120468) can0 2C1#0803320191D90073
(1675218764.124020) can0 020#000007
(1675218764.124629) can0 0B4#00000000000000BC
(1675218764.124634) can0 025#00160FC37878787D
(1675218764.125334) can0 024#020201FA620A8118
(1675218764.130199) can0 0B0#00000000110C
(1675218764.130204) can0 0B2#00000000110C
(1675218764.130339) can0 224#2000000000CD0008
(1675218764.131429) can0 235#00000000003D
(1675218764.131430) can0 2C4#0396001B0880212B
(1675218764.132452) can0 260#0E00000000000078
(1675218764.134836) can0 351#00000000
(1675218764.135992) can0 020#000007
(1675218764.135999) can0 0B4#00000000000000BC
(1675218764.136924) can0 025#00160FC37878787D
(1675218764.136928) can0 024#020201FA620A8017
(1675218764.140170) can0 2D0#00001000100000FA
(1675218764.143868) can0 0B0#00000000110D
(1675218764.143872) can0 0B2#00000000110D
(1675218764.145234) can0 223#0600000000000033
(1675218764.147459) can0 4C1#0100090000000000
(1675218764.147462) can0 020#000007
(1675218764.147984) can0 0B4#00000000000000BC
(1675218764.147987) can0 024#020301FA620B8019
(1675218764.148660) can0 025#00160FC37878787D
(1675218764.150410) can0 2C1#0803410184DA0076
(1675218764.150414) can0 394#00
(1675218764.151705) can0 260#0E00000000000078
(1675218764.154149) can0 0B0#00000000110E
(1675218764.154151) can0 0B2#00000000110E
(1675218764.154561) can0 224#2000000000CD0008
(1675218764.154567) can0 235#00000000003D
(1675218764.155816) can0 2C4#0397001B0880212C
(1675218764.159884) can0 020#000007
(1675218764.159888) can0 0B4#00000000000000BC
(1675218764.160540) can0 025#00160FC37878787D
(1675218764.160545) can0 024#020301FA620B8019
(1675218764.166229) can0 0B0#00000000110F
(1675218764.166236) can0 0B2#00000000110F
(1675218764.167506) can0 223#0600000000000033
(1675218764.172233) can0 260#0E00000000000078
(1675218764.172244) can0 2D0#00001000100000FA
(1675218764.172249) can0 020#000007
(1675218764.172780) can0 0B4#00000000000000BC
(1675218764.173627) can0 025#00160FC37878787D
(1675218764.175819) can0 024#020301FA620B8019
(1675218764.178110) can0 0B0#000000001100
(1675218764.178116) can0 0B2#000000001100
(1675218764.178593) can0 224#2000000000CA0008
(1675218764.178602) can0 235#00000000003D
(1675218764.179340) can0 2C4#039C001B08802131
(1675218764.179796) can0 3A0#535C000000FFFF27
(1675218764.182560) can0 2C1#080336017ED90064
(1675218764.184351) can0 020#000007
(1675218764.184353) can0 0B4#00000000000000BC
(1675218764.185143) can0 025#00160FC37878787D
(1675218764.185502) can0 024#020301FA620A8018
(1675218764.190204) can0 0B0#000000001101
(1675218764.190213) can0 0B2#000000001101
(1675218764.190216) can0 223#0600000000000033
(1675218764.191511) can0 260#0E00000000000078
(1675218764.192277) can0 351#00000000
(1675218764.196344) can0 020#000007
(1675218764.196351) can0 0B4#00000000000000BC
(1675218764.196733) can0 024#020301FA620B8019
(1675218764.197452) can0 025#00160FC37878787D
(1675218764.201835) can0 2C4#0399001B0880212E
(1675218764.201844) can0 0B0#000000001102
(1675218764.202212) can0 0B2#000000001102
(1675218764.202407) can0 224#2000000000C80008
(1675218764.202812) can0 235#00000000003D
(1675218764.203613) can0 2D0#00001000100000FA
(1675218764.208430) can0 020#000007
(1675218764.208437) can0 0B4#00000000000000BC
(1675218764.208585) can0 025#00160FC37878787D
(1675218764.209091) can0 024#020301FA620B8019
(1675218764.213314) can0 260#0E00000000000078
(1675218764.213896) can0 2C1#08033F0190D9007F
(1675218764.214343) can0 0B0#000000001103
(1675218764.214353) can0 0B2#000000001103
(1675218764.214357) can0 223#0600000000000033
(1675218764.216452) can0 440#4202000001000000
(1675218764.218330) can0 3B1#0000012400000000
(1675218764.220087) can0 020#000007
(1675218764.220095) can0 0B4#00000000000000BC
(1675218764.220319) can0 025#00160FC37878787D
(1675218764.220982) can0 024#020301FA620B8019
(1675218764.225097) can0 2C4#03A2001B08802137
(1675218764.226340) can0 0B0#000000001104
(1675218764.226580) can0 0B2#000000001104
(1675218764.226584) can0 224#2000000000C80008
(1675218764.227742) can0 235#00000000003D
(1675218764.231644) can0 260#0E00000000000078
(1675218764.232262) can0 020#000007
(1675218764.232528) can0 0B4#00000000000000BC
(1675218764.233176) can0 025#00160FC37878787D
(1675218764.233181) can0 024#020301FB620B801A
(1675218764.235292) can0 2D0#00001000100000FA
(1675218764.238549) can0 0B0#000000001105
(1675218764.238557) can0 0B2#000000001105
(1675218764.238561) can0 223#0600000000000033
(1675218764.239814) can0 3B7#0000800000000000
(1675218764.244184) can0 020#000007
(1675218764.244193) can0 0B4#00000000000000BC
(1675218764.244615) can0 024#020301FB620A8019
(1675218764.244619) can0 025#00160FC37878787D
(1675218764.245508) can0 2C1#080325017FD90054
(1675218764.248657) can0 2C4#039E001B08802133
(1675218764.250432) can0 0B0#000000001106
(1675218764.250440) can0 0B2#000000001106
(1675218764.250740) can0 224#2000000000C80008
(1675218764.251683) can0 235#00000000003D
(1675218764.251694) can0 260#0E00000000000078
(1675218764.252218) can0 351#00000000
(1675218764.256204) can0 020#000007
(1675218764.256211) can0 0B4#00000000000000BC
(1675218764.256385) can0 025#00160FC37878787D
(1675218764.256632) can0 024#020301FA620A8018
(1675218764.262354) can0 0B0#000000001107
(1675218764.262363) can0 0B2#000000001107
(1675218764.262366) can0 223#0600000000000033
(1675218764.267074) can0 2D0#00001000100000FA
(1675218764.268324) can0 020#000007
(1675218764.268333) can0 0B4#00000000000000BC
(1675218764.268641) can0 025#00160FC37878787D
(1675218764.268980) can0 024#020301F9620B8018
(1675218764.271771) can0 260#0E00000000000078
(1675218764.272126) can0 2C4#039E001B08802133
(1675218764.274329) can0 0B0#000000001108
(1675218764.274335) can0 0B2#000000001108
(1675218764.274760) can0 224#2000000000C60008
(1675218764.275104) can0 235#00000000003D
(1675218764.277491) can0 2C1#0803400185DA0076
(1675218764.279842) can0 3A0#525C000000FFFF27
(1675218764.280152) can0 020#000007
(1675218764.280425) can0 0B4#00000000000000BC
(1675218764.280429) can0 025#00160FC37878787D
(1675218764.281221) can0 024#020301FA620B8019
(1675218764.286511) can0 0B0#000000001109
(1675218764.286519) can0 0B2#000000001109
(1675218764.286650) can0 223#0600000000000033
(1675218764.292287) can0 260#0E00000000000078
(1675218764.292295) can0 020#000007
(1675218764.292817) can0 0B4#00000000000000BC
(1675218764.292823) can0 024#020301FB620A8019
(1675218764.292961) can0 025#00160FC37878787D
(1675218764.295881) can0 2C4#039C001B08802131
(1675218764.298635) can0 0B0#00000000110A
(1675218764.298689) can0 0B2#00000000110A
(1675218764.298993) can0 224#2000000000C40008
(1675218764.298998) can0 235#00000000003D
(1675218764.299761) can0 2D0#00001000100000FA
(1675218764.304864) can0 020#000007
(1675218764.304876) can0 0B4#00000000000000BC
(1675218764.304949) can0 025#00160FC37878787D
(1675218764.304959) can0 024#020301FA620A8018
(1675218764.307447) can0 442#4002000000000000
(1675218764.309011) can0 2C1#0803410188DA007A
(1675218764.310331) can0 0B0#00000000110B
(1675218764.310586) can0 0B2#00000000110B
(1675218764.310809) can0 223#0600000000000033
(1675218764.311612) can0 260#0E00000000000078
(1675218764.312280) can0 351#00000000
(1675218764.316320) can0 020#000007
(1675218764.316619) can0 0B4#00000000000000BC
(1675218764.316620) can0 025#00160FC37878787D
(1675218764.317005) can0 024#020301FA620B8019
(1675218764.319247) can0 2C4#039C001B08802131
(1675218764.322879) can0 0B0#00000000110C
(1675218764.322884) can0 0B2#00000000110C
(1675218764.322887) can0 224#2000000000C10008
(1675218764.323033) can0 235#00000000003D
(1675218764.328618) can0 020#000007
(1675218764.328624) can0 0B4#00000000000000BC
(1675218764.329427) can0 025#00160FC37878787D
(1675218764.329434) can0 024#020301FA620B8019
(1675218764.330712) can0 2D0#00001000100000FA
(1675218764.331693) can0 260#0E00000000000078
(1675218764.334748) can0 0B0#00000000110D
(1675218764.334755) can0 0B2#00000000110D
(1675218764.336127) can0 223#0600000000000033
(1675218764.340602) can0 020#000007
(1675218764.340611) can0 0B4#00000000000000BC
(1675218764.340966) can0 024#020301FA620A8018
(1675218764.341339) can0 025#00160FC37878787D
(1675218764.341343) can0 2C1#080333017FD90062
(1675218764.342960) can0 2C4#039F001B08802134
(1675218764.346550) can0 0B0#00000000110E
(1675218764.346557) can0 0B2#00000000110E
(1675218764.346773) can0 224#2000000000C10008
(1675218764.346989) can0 235#00000000003D
(1675218764.352121) can0 260#0E00000000000078
(1675218764.352124) can0 4C8#0900010200000000
(1675218764.352689) can0 020#000007
(1675218764.352692) can0 0B4#00000000000000BC
(1675218764.352882) can0 025#00160FC37878787D
(1675218764.353128) can0 024#020301FB620A8019
(1675218764.359093) can0 0B0#00000000110F
(1675218764.359101) can0 0B2#00000000110F
(1675218764.359817) can0 223#0600000000000033
(1675218764.362244) can0 2D0#00001000100000FA
(1675218764.365174) can0 020#000007
(1675218764.365186) can0 0B4#00000000000000BC
(1675218764.365192) can0 025#00160FC37878787D
(1675218764.366389) can0 024#020301FA620B8019
(1675218764.366394) can0 2C4#039A001B0880212F
(1675218764.370941) can0 0B0#000000001100
(1675218764.370947) can0 0B2#000000001100
(1675218764.370950) can0 224#2000000000BE0008
(1675218764.371126) can0 235#00000000003D
(1675218764.371636) can0 260#0E00000000000078
(1675218764.372416) can0 351#00000000
(1675218764.372419) can0 2C1#080361018FDB00A2
(1675218764.376865) can0 020#000007
(1675218764.376871) can0 0B4#00000000000000BC
(1675218764.377587) can0 025#00160FC37878787D
(1675218764.377593) can0 024#020301F9620B8018
(1675218764.380045) can0 3A0#525A000000FFFF27
(1675218764.381751) can0 620#1000022EF0402040
(1675218764.382962) can0 0B0#000000001101
(1675218764.382968) can0 0B2#000000001101
(1675218764.384584) can0 223#0600000000000033
(1675218764.388838) can0 020#000007
(1675218764.388845) can0 0B4#00000000000000BC
(1675218764.388847) can0 025#00160FC37878787D
(1675218764.389979) can0 024#020301F9620B8018
(1675218764.389983) can0 2C4#039C001B08802131
(1675218764.391636) can0 260#0E00000000000078
(1675218764.394981) can0 2D0#00001000100000FA
(1675218764.394987) can0 0B0#000000001102
(1675218764.394990) can0 0B2#000000001102
(1675218764.394992) can0 224#2000000000BB0008
(1675218764.396220) can0 235#00000000003D
(1675218764.400730) can0 020#000007
(1675218764.400738) can0 0B4#00000000000000BC
(1675218764.400799) can0 024#020301FA620A8018
(1675218764.401166) can0 025#00160FC37878787D
(1675218764.404346) can0 2C1#0803350184D90069
(1675218764.407023) can0 440#4202000001000000
(1675218764.407033) can0 0B0#000000001103
(1675218764.407037) can0 0B2#000000001103
(1675218764.408033) can0 223#0600000000000033
(1675218764.408037) can0 610#20000064C0FFFEE0
(1675218764.411531) can0 3B3#039C28
(1675218764.411536) can0 260#0E00000000000078
(1675218764.413305) can0 020#000007
(1675218764.413308) can0 0B4#00000000000000BC
(1675218764.413499) can0 024#020301FB62098018
(1675218764.413803) can0 025#00160FC38282829B
(1675218764.414561) can0 2C4#039C001B08802131
(1675218764.418822) can0 0B0#000000001104
(1675218764.419011) can0 0B2#000000001104
(1675218764.419205) can0 224#2000000000B80008
(1675218764.420370) can0 235#00000000003D
(1675218764.421950) can0 623#1900000000000000
(1675218764.424952) can0 020#000007
(1675218764.424957) can0 0B4#00000000000000BC
(1675218764.425767) can0 025#00160FC37878787D
(1675218764.425771) can0 024#020301F9620A8017
(1675218764.426136) can0 2D0#00001000100000FA
(1675218764.431179) can0 0B0#000000001105
(1675218764.431184) can0 0B2#000000001105
(1675218764.431693) can0 223#0600000000000033
(1675218764.432405) can0 260#0E00000000000078
(1675218764.432413) can0 624#1A00414949400000
(1675218764.433771) can0 351#00000000
(1675218764.435827) can0 2C1#080340017BDA006C
(1675218764.437344) can0 020#000007
(1675218764.437348) can0 0B4#00000000000000BC
(1675218764.437855) can0 2C4#039D001B08802132
(1675218764.438390) can0 025#00160FC37878787D
(1675218764.440399) can0 024#020301FA620B8019
(1675218764.443519) can0 0B0#000000001106
(1675218764.443521) can0 0B2#000000001106
(1675218764.443524) can0 224#2000000000B70008
(1675218764.444904) can0 235#00000000003D
(1675218764.446945) can0 630#1700000000000000
(1675218764.448974) can0 020#000007
(1675218764.449402) can0 0B4#00000000000000BC
(1675218764.449406) can0 024#020301FA620B8019
(1675218764.450422) can0 025#00160FC37878787D
(1675218764.452090) can0 394#00
(1675218764.452094) can0 260#0E00000000000078
(1675218764.455399) can0 0B0#000000001107
(1675218764.455408) can0 0B2#000000001107
(1675218764.456620) can0 223#0600000000000033
(1675218764.457479) can0 2D0#00001000100000FA
(1675218764.460806) can0 2C4#0398001B0880212D
(1675218764.460813) can0 020#000007
(1675218764.461357) can0 0B4#00000000000000BC
(1675218764.461557) can0 024#020301FA620A8018
(1675218764.461759) can0 025#00160FC37878787D
(1675218764.467088) can0 0B0#000000001108
(1675218764.467096) can0 0B2#000000001108
(1675218764.467639) can0 224#2000000000B50008
(1675218764.467643) can0 235#00000000003D
(1675218764.468024) can0 2C1#08033B0185D90070
(1675218764.472015) can0 260#0E00000000000078
(1675218764.473163) can0 020#000007
(1675218764.473165) can0 0B4#00000000000000BC
(1675218764.473338) can0 025#00160FC37878787D
(1675218764.473853) can0 024#020301FA620A8018
(1675218764.479389) can0 0B0#000000001109
(1675218764.479452) can0 0B2#000000001109
(1675218764.479456) can0 223#0600000000000033
(1675218764.480312) can0 3A0#525A000000FFFF27
(1675218764.484312) can0 2C4#039A001B0880212F
(1675218764.485022) can0 020#000007
(1675218764.485397) can0 0B4#00000000000000BC
(1675218764.485904) can0 025#00160FC37878787D
(1675218764.486507) can0 024#020301FA620B8019
(1675218764.489308) can0 2D0#00001000100000FA
(1675218764.491171) can0 0B0#00000000110A
(1675218764.491605) can0 0B2#00000000110A
(1675218764.491841) can0 224#2000000000B20008
(1675218764.491845) can0 235#00000000003D
(1675218764.492335) can0 260#0E00000000000078
(1675218764.492338) can0 351#00000000
(1675218764.497326) can0 020#000007
(1675218764.497332) can0 0B4#00000000000000BC
(1675218764.497335) can0 025#00160FC37878787D
(1675218764.497767) can0 442#4002000000000000
(1675218764.498385) can0 024#020301FA620B8019
(1675218764.499391) can0 2C1#08035C01ADDA00BA
(1675218764.503469) can0 0B0#00000000110B
(1675218764.503479) can0 0B2#00000000110B
(1675218764.503482) can0 223#0600000000000033
(1675218764.507821) can0 2C4#039C001B08802131
(1675218764.509544) can0 020#000007
(1675218764.509550) can0 0B4#00000000000000BC
(1675218764.509722) can0 025#00160FC37878787D
(1675218764.510026) can0 024#020301FA620A8018
(1675218764.510818) can0 4DC#1D00030200000000
(1675218764.512687) can0 260#0E00000000000078
(1675218764.515239) can0 0B0#00000000110C
(1675218764.515246) can0 0B2#00000000110C
(1675218764.515686) can0 224#2000000000AF0008
(1675218764.515691) can0 235#00000000003D
(1675218764.519865) can0 38C#0000000000000037
(1675218764.521241) can0 2D0#00001000100000FA
(1675218764.521243) can0 020#000007
(1675218764.521802) can0 0B4#00000000000000BC
(1675218764.521808) can0 025#00160FC37878787D
(1675218764.522672) can0 024#020301FA620A8018
(1675218764.527486) can0 0B0#00000000110D
(1675218764.527492) can0 0B2#00000000110D
(1675218764.527495) can0 223#0600000000000033
(1675218764.531506) can0 2C1#08034E01B6DA00B5
(1675218764.531559) can0 2C4#039D001B08802132
(1675218764.531568) can0 260#0E00000000000078
(1675218764.533393) can0 020#000007
(1675218764.533398) can0 0B4#00000000000000BC
(1675218764.533403) can0 025#00160FC37878787D
(1675218764.534089) can0 024#020301FA620B8019
(1675218764.537469) can0 621#1100000000000000
(1675218764.539655) can0 0B0#00000000110E
(1675218764.539663) can0 0B2#00000000110E
(1675218764.539988) can0 224#2000000000AB0008
(1675218764.541173) can0 235#00000000003D
(1675218764.543479) can0 3B7#0000800000000000
(1675218764.544895) can0 020#000007
(1675218764.545293) can0 0B4#00000000000000BC
(1675218764.545827) can0 025#00160FC37878787D
(1675218764.546462) can0 024#020301F9620B8018
(1675218764.549504) can0 3B0#0000002A0000
(1675218764.551749) can0 0B0#00000000110F
(1675218764.551751) can0 0B2#00000000110F
(1675218764.551757) can0 223#0600000000000033
(1675218764.552495) can0 260#0E00000000000078
(1675218764.552721) can0 351#00000000
(1675218764.552756) can0 2D0#00001000100000FA
(1675218764.555264) can0 2C4#039D001B08802132
(1675218764.557469) can0 020#000007
(1675218764.557475) can0 0B4#00000000000000BC
(1675218764.557815) can0 025#00160FC37878787D
(1675218764.557816) can0 024#020301FA620B8019
(1675218764.563522) can0 2C1#08035D01B7DA00C5
(1675218764.563531) can0 0B0#000000001100
(1675218764.563594) can0 0B2#000000001100
(1675218764.563595) can0 224#2000000000A80008
(1675218764.563829) can0 235#00000000003D
(1675218764.569781) can0 020#000007
(1675218764.569791) can0 0B4#00000000000000BC
(1675218764.569795) can0 025#00160FC37878787D
(1675218764.569953) can0 024#020301FB620B801A
(1675218764.571888) can0 260#0E00000000000078
(1675218764.575410) can0 0B0#000000001101
(1675218764.575416) can0 0B2#000000001101
(1675218764.575729) can0 223#0600000000000033
(1675218764.579616) can0 2C4#039C001B08802131
(1675218764.579619) can0 3A0#525A000000FFFF27
(1675218764.581600) can0 020#000007
(1675218764.581606) can0 0B4#00000000000000BC
(1675218764.582264) can0 025#00160FC37878787D
(1675218764.582759) can0 024#020301FA620B8019
(1675218764.584498) can0 2D0#00001000100000FA
(1675218764.587783) can0 0B0#000000001102
(1675218764.587785) can0 0B2#000000001102
(1675218764.588186) can0 224#2000000000A50008
(1675218764.588730) can0 235#00000000003D
(1675218764.591732) can0 260#0E00000000000078
(1675218764.593478) can0 020#000007
(1675218764.593489) can0 0B4#00000000000000BC
(1675218764.593674) can0 025#00160FC37878787D
(1675218764.594860) can0 024#020301F9620B8018
(1675218764.594866) can0 2C1#08035F01B5DA00C5
(1675218764.597000) can0 440#4202000001000000
(1675218764.597978) can0 4DD#1E00000100000000
(1675218764.599512) can0 0B0#000000001103
(1675218764.599845) can0 0B2#000000001103
(1675218764.599851) can0 223#0600000000000033
(1675218764.603407) can0 2C4#039C001B08802131
(1675218764.605437) can0 020#000007
(1675218764.605883) can0 0B4#00000000000000BC
(1675218764.605888) can0 025#00160FC37878787D
(1675218764.606022) can0 024#020301F9620B8018
(1675218764.607714) can0 611#210010A000028219
(1675218764.609561) can0 380#A00808000000FE00
(1675218764.611751) can0 0B0#000000001104
(1675218764.611761) can0 0B2#000000001104
(1675218764.611764) can0 224#2000000000A10008
(1675218764.612022) can0 235#00000000003D
(1675218764.612371) can0 260#0E00000000000078
(1675218764.612542) can0 351#00000000
(1675218764.616339) can0 2D0#00001000100000FA
(1675218764.617462) can0 020#000007
(1675218764.617469) can0 0B4#00000000000000BC
(1675218764.617855) can0 025#00160FC37878787D
(1675218764.617859) can0 024#020301FA620B8019
(1675218764.623720) can0 0B0#000000001105
(1675218764.623728) can0 0B2#000000001105
(1675218764.623884) can0 223#0500000000000032
(1675218764.625494) can0 2C4#039C001B08802131
(1675218764.626270) can0 2C1#08036601BFDB00D7
(1675218764.629573) can0 020#000007
(1675218764.629579) can0 0B4#00000000000000BC
(1675218764.630464) can0 025#00160FC37878787D
(1675218764.630960) can0 024#020301FB620A8019
(1675218764.632407) can0 260#0E00000000000078
(1675218764.635586) can0 0B0#000000001106
(1675218764.635990) can0 0B2#000000001106
(1675218764.635996) can0 224#20000000009E0008
(1675218764.636137) can0 235#00000000003D
(1675218764.639539) can0 3A1#0000000000FF0000
(1675218764.641702) can0 020#000007
(1675218764.641704) can0 0B4#00000000000000BC
(1675218764.642014) can0 025#00160FC37878787D
(1675218764.642703) can0 024#020301FA620B8019
(1675218764.645534) can0 423#00
(1675218764.647971) can0 0B0#000000001107
(1675218764.647978) can0 0B2#000000001107
(1675218764.648280) can0 223#0500000000000032
(1675218764.649111) can0 2D0#00001000100000FA
(1675218764.649115) can0 2C4#039C001B08802131
(1675218764.651678) can0 260#0E00000000000078
(1675218764.653914) can0 020#000007
(1675218764.653919) can0 0B4#00000000000000BC
(1675218764.654512) can0 025#00160FC38282829B
(1675218764.655111) can0 024#020301FA620B8019
(1675218764.658321) can0 2C1#08035701B2DA00BA
(1675218764.659878) can0 383#0000000000000000
(1675218764.659888) can0 0B0#000000001108
(1675218764.660081) can0 0B2#000000001108
(1675218764.660085) can0 224#20000000009B0008
(1675218764.660380) can0 235#00000000003D
(1675218764.665967) can0 020#000007
(1675218764.666146) can0 0B4#00000000000000BC
(1675218764.666473) can0 024#020301FA620B8019
(1675218764.667159) can0 025#00160FC37878787D
(1675218764.671925) can0 260#0E00000000000078
(1675218764.671930) can0 0B0#000000001109
(1675218764.672526) can0 0B2#000000001109
(1675218764.672642) can0 223#0500000000000032
(1675218764.673091) can0 2C4#039F001B08802134
(1675218764.675249) can0 351#00000000
(1675218764.677850) can0 020#000007
(1675218764.678172) can0 0B4#00000000000000BC
(1675218764.678551) can0 024#020201FA620A8118
(1675218764.678554) can0 025#00160FC37878787D
(1675218764.679487) can0 3A0#5258000000FFFF26
(1675218764.679764) can0 2D0#00001000100000FA
(1675218764.681772) can0 620#1000022EF0402040
(1675218764.684140) can0 0B0#00000000110A
(1675218764.684152) can0 0B2#00000000110A
(1675218764.684585) can0 224#2000000000970008
(1675218764.685289) can0 235#00000000003D
(1675218764.687715) can0 442#4002000000000000
(1675218764.690011) can0 2C1#08034F01B2DA00B2
(1675218764.690439) can0 020#000007
(1675218764.690717) can0 0B4#00000000000000BC
(1675218764.691555) can0 025#00160FC37878787D
(1675218764.691559) can0 024#020301FB620A8019
(1675218764.692738) can0 260#0E00000000000078
(1675218764.696088) can0 0B0#00000000110B
(1675218764.696090) can0 0B2#00000000110B
(1675218764.696335) can0 223#0500000000000032
(1675218764.696946) can0 2C4#03A0001B08802135
(1675218764.702020) can0 020#000007
(1675218764.702415) can0 0B4#00000000000000BC
(1675218764.703109) can0 025#00160FC37878787D
(1675218764.703113) can0 024#020301FA620B8019
(1675218764.708306) can0 0B0#00000000110C
(1675218764.708314) can0 0B2#00000000110C
(1675218764.708481) can0 224#2000000000960008
(1675218764.709071) can0 235#00000000003D
(1675218764.711646) can0 2D0#00001000100000FA
(1675218764.711654) can0 260#0E00000000000078
(1675218764.714108) can0 020#000007
(1675218764.714113) can0 0B4#00000000000000BC
(1675218764.714560) can0 024#020301FA620B8019
(1675218764.714561) can0 025#00160FC37878787D
(1675218764.719691) can0 2C4#03A2001B08802137
(1675218764.720231) can0 0B0#00000000110D
(1675218764.720236) can0 0B2#00000000110D
(1675218764.720623) can0 223#0500000000000032
(1675218764.721885) can0 2C1#08036001C8DB00DA
(1675218764.726635) can0 020#000007
(1675218764.726645) can0 0B4#00000000000000BC
(1675218764.726649) can0 025#00160FC37878787D
(1675218764.727712) can0 024#020301FA620B8019
(1675218764.731978) can0 260#0E00000000000078
(1675218764.732390) can0 0B0#00000000110E
(1675218764.732397) can0 0B2#00000000110E
(1675218764.732591) can0 224#2000000000920008
(1675218764.732979) can0 235#00000000003D
(1675218764.734328) can0 351#00000000
(1675218764.738485) can0 020#000007
(1675218764.738494) can0 0B4#00000000000000BC
(1675218764.738498) can0 025#00160FC37878787D
(1675218764.738912) can0 024#020301FA620A8018
(1675218764.743397) can0 2D0#00001000100000FA
(1675218764.743405) can0 2C4#03A3001B08802138
(1675218764.744479) can0 0B0#00000000110F
(1675218764.744481) can0 0B2#00000000110F
(1675218764.744484) can0 223#0500000000000032
(1675218764.750299) can0 020#000007
(1675218764.750369) can0 0B4#00000000000000BC
(1675218764.750579) can0 025#00160FC37878787D
(1675218764.750583) can0 394#00
(1675218764.751241) can0 024#020301FA620A8018
(1675218764.751690) can0 260#0E00000000000078
(1675218764.753497) can0 2C1#08035001BFDA00C0
(1675218764.756798) can0 0B0#000000001100
(1675218764.756804) can0 0B2#000000001100
(1675218764.756807) can0 224#20000000008F0008
(1675218764.757888) can0 235#00000000003D
(1675218764.762382) can0 020#000007
(1675218764.762726) can0 0B4#00000000000000BC
(1675218764.763436) can0 025#00160FC37878787D
(1675218764.763441) can0 024#020301F9620B8018
(1675218764.766868) can0 2C4#03A2001B08802137
(1675218764.766873) can0 638#1300000000000000
(1675218764.768646) can0 0B0#000000001101
(1675218764.770639) can0 0B2#000000001101
(1675218764.771984) can0 223#0500000000000032
(1675218764.773653) can0 260#0E00000000000078
(1675218764.774398) can0 020#000007
(1675218764.774771) can0 0B4#00000000000000BC
(1675218764.774776) can0 025#00160FC37878787D
(1675218764.775127) can0 024#020301FA620B8019
(1675218764.776444) can0 2D0#00001000100000FA
(1675218764.779323) can0 3A0#5158000000FFFF26
(1675218764.780558) can0 0B0#000000001102
(1675218764.780564) can0 0B2#000000001102
(1675218764.780822) can0 224#20000000008C0008
(1675218764.780828) can0 235#00000000003D
(1675218764.785717) can0 2C1#08036201C9DB00DD
(1675218764.786396) can0 020#000007
(1675218764.786399) can0 0B4#00000000000000BC
(1675218764.786777) can0 025#00160FC37878787D
(1675218764.787184) can0 024#020301FA620B8019
(1675218764.788625) can0 440#4202000001000000
(1675218764.790676) can0 2C4#03A2001B08802137
(1675218764.791878) can0 260#0E00000000000078
(1675218764.792594) can0 0B0#000000001103
(1675218764.792600) can0 0B2#000000001103
(1675218764.792874) can0 223#0500000000000032
(1675218764.792878) can0 351#00000000
(1675218764.798856) can0 020#000007
(1675218764.798861) can0 0B4#00000000000000BC
(1675218764.799300) can0 025#00160FC37878787D
(1675218764.800325) can0 024#020301FA620A8018
(1675218764.805041) can0 0B0#000000001104
(1675218764.805050) can0 0B2#000000001104
(1675218764.805055) can0 224#2000000000880008
(1675218764.806739) can0 235#00000000003D
(1675218764.806744) can0 2D0#00001000100000FA
(1675218764.810692) can0 020#000007
(1675218764.810700) can0 0B4#00000000000000BC
(1675218764.810835) can0 025#00160FC37878787D
(1675218764.811607) can0 024#020301F9620B8018
(1675218764.811749) can0 260#0E00000000000078
(1675218764.813948) can0 2C4#03A0001B08802135
(1675218764.816626) can0 0B0#000000001105
(1675218764.816691) can0 0B2#000000001105
(1675218764.817100) can0 223#0500000000000032
(1675218764.817105) can0 2C1#08036001C2DB00D4
(1675218764.822539) can0 020#000007
(1675218764.822885) can0 0B4#00000000000000BC
(1675218764.823030) can0 024#020301FA620B8019
(1675218764.824054) can0 025#00160FC37878787D
(1675218764.828638) can0 0B0#000000001106
(1675218764.828645) can0 0B2#000000001106
(1675218764.829429) can0 224#2000000000830008
(1675218764.829433) can0 235#00000000003D
(1675218764.832238) can0 260#0E00000000000078
(1675218764.834843) can0 020#000007
(1675218764.834852) can0 0B4#00000000000000BC
(1675218764.835097) can0 025#00160FC37878787D
(1675218764.835267) can0 024#020201FA620B8018
(1675218764.837514) can0 2C4#03A5001B0880213A
(1675218764.838387) can0 2D0#00001000100000FA
(1675218764.840845) can0 0B0#000000001107
(1675218764.840851) can0 0B2#000000001107
(1675218764.841195) can0 223#0500000000000032
(1675218764.842322) can0 3B7#0000800000000000
(1675218764.847346) can0 020#000007
(1675218764.847352) can0 0B4#00000000000000BC
(1675218764.848751) can0 025#00160FC37878787D
(1675218764.848757) can0 024#020301FA620A8018
(1675218764.849747) can0 2C1#08035B01C1DA00CD
(1675218764.852318) can0 4C7#0800012100000000
(1675218764.852325) can0 260#0E00000000000078
(1675218764.852848) can0 351#00000000
(1675218764.852853) can0 0B0#000000001108
(1675218764.853146) can0 0B2#000000001108
(1675218764.853148) can0 224#20000000007E0008
(1675218764.854698) can0 235#00000000003D
(1675218764.858943) can0 020#000007
(1675218764.858951) can0 0B4#00000000000000BC
(1675218764.859671) can0 025#00160FC38282829B
(1675218764.859853) can0 024#020301FA620B8019
(1675218764.861038) can0 2C4#03A5001B0880213A
(1675218764.865320) can0 0B0#000000001109
(1675218764.865327) can0 0B2#000000001109
(1675218764.866109) can0 223#0500000000000032
(1675218764.866754) can0 3B4#0000ABB001400000
(1675218764.870163) can0 2D0#00001000100000FA
(1675218764.870922) can0 020#000007
(1675218764.870927) can0 0B4#00000000000000BC
(1675218764.871805) can0 025#00160FC37878787D
(1675218764.871812) can0 260#0E00000000000078
(1675218764.871816) can0 024#020301F9620B8018
(1675218764.877334) can0 0B0#00000000110A
(1675218764.877347) can0 0B2#00000000110A
(1675218764.877554) can0 224#20000000007B0008
(1675218764.879098) can0 235#00000000003D
(1675218764.879103) can0 3A0#5157000000FFFF27
(1675218764.880478) can0 2C1#08036601C6DB00DE
(1675218764.882908) can0 020#000007
(1675218764.882918) can0 0B4#00000000000000BC
(1675218764.883181) can0 024#020301F9620A8017
(1675218764.883711) can0 025#00160FC37878787D
(1675218764.884441) can0 2C4#039F001B08802134
(1675218764.887733) can0 442#4002000000000000
(1675218764.889195) can0 0B0#00000000110B
(1675218764.889203) can0 0B2#00000000110B
(1675218764.889210) can0 223#0500000000000032
(1675218764.891970) can0 260#0E00000000000078
(1675218764.895152) can0 020#000007
(1675218764.895650) can0 0B4#00000000000000BC
(1675218764.895659) can0 025#00160FC37878787D
(1675218764.896956) can0 024#020301FA620A8018
(1675218764.901243) can0 0B0#00000000110C
(1675218764.901249) can0 0B2#00000000110C
(1675218764.901453) can0 224#2000000000780008
(1675218764.901798) can0 235#00000000003D
(1675218764.902488) can0 2D0#00001000100000FA
(1675218764.907818) can0 020#000007
(1675218764.907881) can0 0B4#00000000000000BC
(1675218764.907884) can0 025#00160FC37878787D
(1675218764.908098) can0 610#20000064C0FFFEE0
(1675218764.908778) can0 024#020301FC620A801A
(1675218764.910937) can0 2C4#03A3001B08802138
(1675218764.912348) can0 260#0E00000000000078
(1675218764.912353) can0 2C1#08036201C2DB00D6
(1675218764.913182) can0 351#00000000
(1675218764.913364) can0 0B0#00000000110D
(1675218764.913367) can0 0B2#00000000110D
(1675218764.915823) can0 223#0500000000000032
(1675218764.919179) can0 020#000007
(1675218764.919181) can0 0B4#00000000000000BC
(1675218764.919519) can0 025#00160FC37878787D
(1675218764.920143) can0 024#020301FA620A8018
(1675218764.921622) can0 38A#0000040000
(1675218764.923594) can0 3B3#03A128
(1675218764.925252) can0 0B0#00000000110E
(1675218764.925258) can0 0B2#00000000110E
(1675218764.925313) can0 224#2000000000720008
(1675218764.925630) can0 235#00000000003D
(1675218764.931729) can0 020#000007
(1675218764.931736) can0 0B4#00000000000000BC
(1675218764.931879) can0 024#020201F9620B8118
(1675218764.932171) can0 025#00160FC37878787D
(1675218764.933188) can0 260#0E00000000000078
(1675218764.934640) can0 2C4#03A1001B08802136
(1675218764.936741) can0 2D0#00001000100000FA
(1675218764.937213) can0 0B0#00000000110F
(1675218764.937220) can0 0B2#00000000110F
(1675218764.937533) can0 223#0500000000000032
(1675218764.939367) can0 4C6#0700010000000000
(1675218764.943627) can0 020#000007
(1675218764.943638) can0 0B4#00000000000000BC
(1675218764.943639) can0 025#00160FC37878787D
(1675218764.943642) can0 024#020301F9620B8018
(1675218764.943891) can0 2C1#08036201BEDB00D2
(1675218764.949589) can0 0B0#000000001100
(1675218764.949595) can0 0B2#000000001100
(1675218764.949850) can0 224#20000000006E0008
(1675218764.951831) can0 235#00000000003D
(1675218764.953439) can0 260#0E00000000000078
(1675218764.955642) can0 2C4#03A1001B08802136
(1675218764.955650) can0 020#000007
(1675218764.955655) can0 0B4#00000000000000BC
(1675218764.955959) can0 025#00160FC37878787D
(1675218764.956874) can0 024#020301FA620A8018
(1675218764.961405) can0 0B0#000000001101
(1675218764.961413) can0 0B2#000000001101
(1675218764.961416) can0 223#0500000000000032
(1675218764.965531) can0 2D0#00001000100000FA
(1675218764.967490) can0 020#000007
(1675218764.967496) can0 0B4#00000000000000BC
(1675218764.968583) can0 025#00160FC37878787D
(1675218764.970747) can0 024#020301FA620A8018
(1675218764.972008) can0 260#0E00000000000078
(1675218764.972562) can0 351#00000000
(1675218764.973216) can0 0B0#000000001102
(1675218764.973220) can0 0B2#000000001102
(1675218764.973654) can0 224#20000000006B0008
(1675218764.974488) can0 235#00000000003D
(1675218764.975796) can0 2C1#08035701B4DA00BC
(1675218764.979145) can0 2C4#039E001B08802133
(1675218764.979154) can0 3A0#5157000000FFFF26
(1675218764.979599) can0 020#000007
(1675218764.979606) can0 0B4#00000000000000BC
(1675218764.980021) can0 025#00160FC37878787D
(1675218764.980428) can0 024#020301FA620B8019
(1675218764.981879) can0 620#1000022EF0402040
(1675218764.985632) can0 0B0#000000001103
(1675218764.985633) can0 0B2#000000001103
(1675218764.987075) can0 223#0500000000000032
(1675218764.989137) can0 440#4202000001000000
(1675218764.991533) can0 020#000007
(1675218764.991535) can0 0B4#00000000000000BC
(1675218764.991765) can0 025#00160FC37878787D
(1675218764.992022) can0 024#020301FA620B8019
(1675218764.992526) can0 260#0E00000000000078
(1675218764.997763) can0 2D0#00001000100000FA
(1675218764.997772) can0 0B0#000000001104
(1675218764.997902) can0 0B2#000000001104
(1675218764.998970) can0 224#2000000000680008
(1675218765.001139) can0 235#00000000003D
(1675218765.002415) can0 2C4#03A2001B08802137
(1675218765.003286) can0 020#000007
(1675218765.003291) can0 0B4#00000000000000BC
(1675218765.003820) can0 025#00160FC37878787D
(1675218765.004079) can0 024#020201FA620A8118
(1675218765.007717) can0 2C1#08035701B1DA00B9
(1675218765.009778) can0 0B0#000000001105
(1675218765.009784) can0 0B2#000000001105
(1675218765.011018) can0 223#0500000000000032
(1675218765.012559) can0 4C3#0300120100000000
(1675218765.013704) can0 260#0E00000000000078
(1675218765.015611) can0 020#000007
(1675218765.015617) can0 0B4#00000000000000BC
(1675218765.016457) can0 025#00160FC37878787D
(1675218765.016727) can0 024#020301FA620A8018
(1675218765.021285) can0 0B0#000000001106
(1675218765.021292) can0 0B2#000000001106
(1675218765.021478) can0 224#2000000000620008
(1675218765.021986) can0 235#00000000003D
(1675218765.025805) can0 2C4#039D001B08802132
(1675218765.027499) can0 020#000007
(1675218765.027504) can0 0B4#00000000000000BC
(1675218765.027885) can0 024#020301FA620B8019
(1675218765.027887) can0 025#00160FC37878787D
(1675218765.028839) can0 2D0#00001000100000FA
(1675218765.031957) can0 260#0E00000000000078
(1675218765.032600) can0 351#00000000
(1675218765.033426) can0 0B0#000000001107
(1675218765.033430) can0 0B2#000000001107
(1675218765.033673) can0 223#0500000000000032
(1675218765.039257) can0 2C1#08036201BEDB00D2
(1675218765.039560) can0 020#000007
(1675218765.039564) can0 0B4#00000000000000BC
(1675218765.039894) can0 025#00160FC37878787D
(1675218765.041096) can0 024#020301FA620C801A
(1675218765.045600) can0 0B0#000000001108
(1675218765.045606) can0 0B2#000000001108
(1675218765.045978) can0 224#20000000005F0008
(1675218765.045985) can0 235#00000000003D
(1675218765.047975) can0 612#2700FFFEE0FFFFFE
(1675218765.049359) can0 2C4#039E001B08802133
(1675218765.050530) can0 394#00
(1675218765.051358) can0 020#000007
(1675218765.051692) can0 0B4#00000000000000BC
(1675218765.051696) can0 025#00160FC37878787D
(1675218765.052050) can0 260#0E00000000000078
(1675218765.052336) can0 024#020201FA620B7F17
(1675218765.052517) can0 4C1#0100090000000000
(1675218765.057731) can0 0B0#000000001109
(1675218765.057736) can0 0B2#000000001109
(1675218765.057739) can0 223#0500000000000032
(1675218765.060898) can0 2D0#00001000100000FA
(1675218765.063774) can0 020#000007
(1675218765.063780) can0 0B4#00000000000000BC
(1675218765.063783) can0 025#00160FC37878787D
(1675218765.064458) can0 024#020301FA620B8019
(1675218765.069598) can0 0B0#00000000110A
(1675218765.070066) can0 0B2#00000000110A
(1675218765.070077) can0 224#20000000005B0008
(1675218765.070880) can0 235#00000000003D
(1675218765.071840) can0 2C1#08035101B6DA00B8
(1675218765.072896) can0 260#0E00000000000078
(1675218765.072901) can0 2C4#03A2001B08802137
(1675218765.075704) can0 020#000007
(1675218765.075712) can0 0B4#00000000000000BC
(1675218765.075835) can0 025#00160FC37878787D
(1675218765.076739) can0 024#020301FB620B801A
(1675218765.077044) can0 442#4002000000000000
(1675218765.078992) can0 3A0#5157000000FFFF26
(1675218765.081863) can0 0B0#00000000110B
(1675218765.082355) can0 0B2#00000000110B
(1675218765.083622) can0 223#0500000000000032
(1675218765.088018) can0 020#000007
(1675218765.088028) can0 0B4#00000000000000BC
(1675218765.088032) can0 025#00160FC37878787D
(1675218765.088290) can0 024#020301F9620B8018
(1675218765.092209) can0 260#0E00000000000078
(1675218765.092430) can0 351#00000000
(1675218765.092755) can0 2D0#00001000100000FA
(1675218765.093765) can0 0B0#00000000110C
(1675218765.093769) can0 0B2#00000000110C
(1675218765.093919) can0 224#2000000000580008
(1675218765.094182) can0 235#00000000003D
(1675218765.096968) can0 2C4#03A2001B08802137
(1675218765.096973) can0 622#1200E83000000000
(1675218765.099935) can0 020#000007
(1675218765.099943) can0 0B4#00000000000000BC
(1675218765.100271) can0 025#00160FC37878787D
(1675218765.101042) can0 024#020301FA620B8019
(1675218765.102895) can0 2C1#08035301B1DA00B5
(1675218765.105987) can0 0B0#00000000110D
(1675218765.105995) can0 0B2#00000000110D
(1675218765.107389) can0 223#0500000000000032
(1675218765.111854) can0 020#000007
(1675218765.111863) can0 0B4#00000000000000BC
(1675218765.112156) can0 025#00160FC37878787D
(1675218765.112574) can0 260#0E00000000000078
(1675218765.112578) can0 024#020201FA620C8019
(1675218765.117809) can0 0B0#00000000110E
(1675218765.117815) can0 0B2#00000000110E
(1675218765.117953) can0 224#2000000000550008
(1675218765.118934) can0 235#00000000003D
(1675218765.120322) can0 2C4#03A2001B08802137
(1675218765.124462) can0 020#000007
(1675218765.124475) can0 0B4#00000000000000BC
(1675218765.124772) can0 2D0#00001000100000FA
(1675218765.125427) can0 025#00160FC38282829B
(1675218765.127621) can0 024#020201FA620B8018
(1675218765.130209) can0 0B0#00000000110F
(1675218765.130215) can0 0B2#00000000110F
(1675218765.131281) can0 223#0400000000000031
(1675218765.131799) can0 260#0E00000000000078
(1675218765.134784) can0 2C1#08036B01CCDB00E9
(1675218765.136026) can0 020#000007
(1675218765.136029) can0 0B4#00000000000000BC
(1675218765.136435) can0 024#020201FA620B7F17
(1675218765.136440) can0 025#00160FC37878787D
(1675218765.142982) can0 0B0#000000001100
(1675218765.143462) can0 0B2#000000001100
(1675218765.144118) can0 224#2000000000510008
(1675218765.146241) can0 235#00000000003D
(1675218765.148206) can0 3B7#0000800000000000
(1675218765.148211) can0 2C4#03A0001B08802135
(1675218765.148442) can0 020#000007
(1675218765.148602) can0 0B4#00000000000000BC
(1675218765.149293) can0 024#020301FA620B8019
(1675218765.151725) can0 025#00160FC37878787D
(1675218765.154042) can0 260#0E00000000000078
(1675218765.154046) can0 351#00000000
(1675218765.154047) can0 0B0#000000001101
(1675218765.154333) can0 0B2#000000001101
(1675218765.155670) can0 223#0400000000000031
(1675218765.155860) can0 2D0#00001000100000FA
(1675218765.160313) can0 020#000007
(1675218765.160320) can0 0B4#00000000000000BC
(1675218765.160479) can0 025#00160FC37878787D
(1675218765.161967) can0 024#020301FA620B8019
(1675218765.166098) can0 0B0#000000001102
(1675218765.166373) can0 0B2#000000001102
(1675218765.166721) can0 224#20000000004E0008
(1675218765.166725) can0 235#00000000003D
(1675218765.166729) can0 2C1#08035F01C6DA00D6
(1675218765.167106) can0 2C4#03A3001B08802138
(1675218765.172082) can0 260#0E00000000000078
(1675218765.172090) can0 020#000007
(1675218765.172503) can0 0B4#00000000000000BC
(1675218765.172508) can0 025#00160FC37878787D
(1675218765.172883) can0 024#020301F9620A8017
(1675218765.177174) can0 440#4202000001000000
(1675218765.177994) can0 0B0#000000001103
(1675218765.178113) can0 0B2#000000001103
(1675218765.178365) can0 223#0400000000000031
(1675218765.179081) can0 3A0#5156000000FFFF26
(1675218765.184453) can0 020#000007
(1675218765.184461) can0 0B4#00000000000000BC
(1675218765.184469) can0 025#00160FC37878787D
(1675218765.185152) can0 024#020301FB620B801A
(1675218765.187656) can0 2D0#00001000100000FA
(1675218765.190286) can0 0B0#000000001104
(1675218765.190294) can0 0B2#000000001104
(1675218765.190301) can0 224#20000000004B0008
(1675218765.190490) can0 235#00000000003D
(1675218765.190841) can0 2C4#039E001B08802133
(1675218765.191969) can0 260#0E00000000000078
(1675218765.196644) can0 020#000007
(1675218765.196654) can0 0B4#00000000000000BC
(1675218765.196659) can0 024#020301FA620B8019
(1675218765.197917) can0 025#00160FC37878787D
(1675218765.197923) can0 2C1#08036B01C9DB00E6
(1675218765.202345) can0 0B0#000000001105
(1675218765.202351) can0 0B2#000000001105
(1675218765.202355) can0 223#0400000000000031
(1675218765.208466) can0 020#000007
(1675218765.208475) can0 0B4#00000000000000BC
(1675218765.208478) can0 025#00160FC37878787D
(1675218765.208682) can0 024#020301F9620B8018
(1675218765.212113) can0 260#0E00000000000078
(1675218765.212662) can0 351#00000000
(1675218765.214513) can0 0B0#000000001106
(1675218765.214841) can0 0B2#000000001106
(1675218765.215037) can0 224#2000000000460008
(1675218765.215856) can0 235#00000000003D
(1675218765.216951) can0 2C4#03A1001B08802136
(1675218765.218435) can0 3B1#0000012400000000
(1675218765.219233) can0 2D0#00001000100000FA
(1675218765.220202) can0 020#000007
(1675218765.220205) can0 0B4#00000000000000BC
(1675218765.220433) can0 025#00160FC37878787D
(1675218765.221132) can0 024#020301F9620B8018
(1675218765.226516) can0 0B0#000000001107
(1675218765.227379) can0 0B2#000000001107
(1675218765.228980) can0 223#0400000000000031
(1675218765.229329) can0 2C1#08035601C1DA00C8
(1675218765.231954) can0 260#0E00000000000078
(1675218765.231961) can0 020#000007
(1675218765.232332) can0 0B4#00000000000000BC
(1675218765.232567) can0 025#00160FC37878787D
(1675218765.233497) can0 024#020301FA620A8018
(1675218765.237819) can0 2C4#03A5001B0880213A
(1675218765.238050) can0 0B0#000000001108
(1675218765.238798) can0 0B2#000000001108
(1675218765.238804) can0 224#20000000003F0008
(1675218765.238807) can0 235#00000000003D
(1675218765.244609) can0 020#000007
(1675218765.244617) can0 0B4#00000000000000BC
(1675218765.244621) can0 025#00160FC37878787D
(1675218765.244978) can0 024#020301FA620A8018
(1675218765.250840) can0 0B0#000000001109
(1675218765.250846) can0 0B2#000000001109
(1675218765.250849) can0 223#0400000000000031
(1675218765.251847) can0 2D0#00001000100000FA
(1675218765.251851) can0 260#0E00000000000078
(1675218765.256340) can0 020#000007
(1675218765.256348) can0 0B4#00000000000000BC
(1675218765.256812) can0 025#00160FC37878787D
(1675218765.256816) can0 024#020301F9620B8018
(1675218765.261528) can0 2C1#08035401B8DA00BD
(1675218765.261534) can0 2C4#03A3001B08802138
(1675218765.262379) can0 0B0#00000000110A
(1675218765.262610) can0 0B2#00000000110A
(1675218765.262897) can0 224#2000000000370008
(1675218765.264090) can0 235#00000000003D
(1675218765.267555) can0 442#4002000000000000
(1675218765.268397) can0 020#000007
(1675218765.268401) can0 0B4#00000000000000BC
(1675218765.268705) can0 025#00160FC37878787D
(1675218765.269156) can0 024#020301F9620C8019
(1675218765.271950) can0 260#0E00000000000078
(1675218765.272906) can0 351#00000000
(1675218765.275123) can0 0B0#00000000110B
(1675218765.276297) can0 0B2#00000000110B
(1675218765.276297) can0 223#0400000000000031
(1675218765.278908) can0 3A0#5156000000FFFF26
(1675218765.280619) can0 020#000007
(1675218765.280624) can0 0B4#00000000000000BC
(1675218765.280756) can0 025#00150FC3323278F0
(1675218765.281491) can0 024#020301F9620C8019
(1675218765.281840) can0 620#1000022EF0402040
(1675218765.283060) can0 2D0#00001000100000FA
(1675218765.285162) can0 2C4#03A4001B08802139
(1675218765.286388) can0 0B0#00000000110C
(1675218765.286394) can0 0B2#00000000110C
(1675218765.286683) can0 224#20000000002E0008
(1675218765.286883) can0 235#00000000003D
(1675218765.292244) can0 260#0E00000000000078
(1675218765.292304) can0 020#000007
(1675218765.293019) can0 0B4#00000000000000BC
(1675218765.293026) can0 025#00150FC37878787C
(1675218765.293030) can0 024#020301F8620B8017
(1675218765.293363) can0 2C1#08035E01C0DA00CF
(1675218765.294619) can0 398#0197
(1675218765.298500) can0 0B0#00000000110D
(1675218765.298508) can0 0B2#00000000110D
(1675218765.298672) can0 223#000000000000002D
(1675218765.304675) can0 020#000007
(1675218765.304680) can0 0B4#00000000000000BC
(1675218765.304683) can0 025#00150FC37878787C
(1675218765.305154) can0 024#020301F8620C8018
(1675218765.308833) can0 2C4#03A0001B08802135
(1675218765.310532) can0 0B0#00000000110E
(1675218765.310970) can0 0B2#00000000110E
(1675218765.310975) can0 224#2000000000280008
(1675218765.311745) can0 235#00000000003D
(1675218765.311750) can0 260#0E00000000000078
(1675218765.314887) can0 2D0#00001000100000FA
(1675218765.316844) can0 020#000007
(1675218765.316852) can0 0B4#00000000000000BC
(1675218765.318354) can0 025#00150FC37878787C
(1675218765.320492) can0 024#020301F7620D8018
(1675218765.322778) can0 0B0#00000000110F
(1675218765.322786) can0 0B2#00000000110F
(1675218765.322790) can0 223#000000000000002D
(1675218765.325102) can0 2C1#08034C01B2DA00AF
(1675218765.328777) can0 020#000007
(1675218765.328783) can0 0B4#00000000000000BC
(1675218765.329913) can0 025#00140FC364647853
(1675218765.329918) can0 024#020301F7620D8018
(1675218765.331557) can0 260#0E00000000000078
(1675218765.331565) can0 351#00000000
(1675218765.331785) can0 2C4#03A3001B08802138
(1675218765.332096) can0 4C8#0900010200000000
(1675218765.335033) can0 0B0#000000001100
(1675218765.335038) can0 0B2#000000001100
(1675218765.336192) can0 224#2000000000210008
(1675218765.338324) can0 235#00000000003D
(1675218765.340526) can0 020#000007
(1675218765.341021) can0 0B4#00000000000000BC
(1675218765.341251) can0 025#00140FC37878787B
(1675218765.341713) can0 024#020301F6620D8017
(1675218765.346595) can0 2D0#00001000100000FA
(1675218765.346658) can0 0B0#000000001101
(1675218765.346661) can0 0B2#000000001101
(1675218765.347072) can0 223#000000000000002D
(1675218765.350642) can0 394#00
(1675218765.352163) can0 260#0E00000000000078
(1675218765.352660) can0 020#000007
(1675218765.352664) can0 0B4#00000000000000BC
(1675218765.352872) can0 025#00140FC37878787B
(1675218765.353106) can0 024#020301F6620D8017
(1675218765.355626) can0 2C4#039E001B08802133
(1675218765.356436) can0 2C1#08035901AFDA00B9
(1675218765.359095) can0 0B0#000000001102
(1675218765.359104) can0 0B2#000000001102
(1675218765.359107) can0 224#20000000001A0008
(1675218765.360480) can0 235#00000000003D
(1675218765.364790) can0 020#000007
(1675218765.364795) can0 0B4#00000000000000BC
(1675218765.365178) can0 025#00140FC37878787B
(1675218765.365448) can0 024#020301F5620E8017
(1675218765.366950) can0 440#4202000001000000
(1675218765.370837) can0 0B0#000000001103
(1675218765.370844) can0 0B2#000000001103
(1675218765.371200) can0 223#000000000000002D
(1675218765.371208) can0 260#0E00000000000078
(1675218765.376887) can0 020#000007
(1675218765.376894) can0 0B4#00000000000000BC
(1675218765.377845) can0 025#00130FC30A0A789E
(1675218765.377850) can0 024#020301F5620E8017
(1675218765.378790) can0 2D0#00001000100000FA
(1675218765.378960) can0 3A0#5156000000FFFF26
(1675218765.379195) can0 2C4#03A0001B08802135
(1675218765.382844) can0 0B0#000000001104
(1675218765.382852) can0 0B2#000000001104
(1675218765.382856) can0 224#2000000000140008
(1675218765.383163) can0 235#00000000003D
(1675218765.388523) can0 2C1#08035E01B0DA00BF
(1675218765.388530) can0 020#000007
(1675218765.389076) can0 0B4#00000000000000BC
(1675218765.389081) can0 024#020301F6620E8119
(1675218765.389321) can0 025#00130FC37878787A
(1675218765.392646) can0 260#0E00000000000078
(1675218765.392652) can0 351#00000000
(1675218765.394740) can0 0B0#000000001105
(1675218765.394744) can0 0B2#000000001105
(1675218765.394987) can0 223#000000000000002D
(1675218765.400651) can0 020#000007
(1675218765.401141) can0 0B4#00000000000000BC
(1675218765.401148) can0 025#00120FC346467815
(1675218765.401916) can0 024#020301F6620E7F17
(1675218765.403337) can0 2C4#03A1001B08802136
(1675218765.407026) can0 0B0#000000001106
(1675218765.407091) can0 0B2#000000001106
(1675218765.407096) can0 224#20000000000D0008
(1675218765.407746) can0 235#00000000003D
(1675218765.408319) can0 610#20000064C0FFFEE0
(1675218765.410327) can0 2D0#00001000100000FA
(1675218765.412178) can0 260#0E00000000000078
(1675218765.412816) can0 020#000007
(1675218765.412821) can0 0B4#00000000000000BC
(1675218765.413664) can0 024#020301F5620E8017
(1675218765.413666) can0 025#00120FC382828297
(1675218765.419284) can0 0B0#000000001107
(1675218765.419290) can0 0B2#000000001107
(1675218765.420026) can0 223#000000000000002D
(1675218765.421088) can0 2C1#08036301B4DB00C9
(1675218765.421877) can0 623#1900000000000000
(1675218765.424947) can0 020#000007
(1675218765.424951) can0 0B4#00000000000000BC
(1675218765.425489) can0 025#00110FC36E6E7864
(1675218765.426000) can0 024#020401F4620E8017
(1675218765.426009) can0 2C4#03A1001B08802136
(1675218765.431636) can0 0B0#000000001108
(1675218765.431645) can0 0B2#000000001108
(1675218765.431650) can0 224#20000000000A0008
(1675218765.432068) can0 235#00000000003D
(1675218765.432260) can0 260#0E00000000000078
(1675218765.433689) can0 624#1A00414949400000
(1675218765.435545) can0 3B3#03A428
(1675218765.437045) can0 020#000007
(1675218765.437050) can0 0B4#00000000000000BC
(1675218765.437566) can0 025#00110FC378787878
(1675218765.438292) can0 024#020401F5620F8019
(1675218765.441589) can0 2D0#00001000100000FA
(1675218765.443250) can0 0B0#000000001109
(1675218765.443257) can0 0B2#000000001109
(1675218765.443261) can0 223#000000000000002D
(1675218765.443570) can0 3B7#0000800000000000
(1675218765.447061) can0 630#1700000000000000
(1675218765.449741) can0 020#000007
(1675218765.449750) can0 0B4#00000000000000BC
(1675218765.449755) can0 024#020401F6620F801A
(1675218765.450846) can0 025#00100FC378787877
(1675218765.451972) can0 2C4#03A4001B08802139
(1675218765.451977) can0 2C1#08037B01C9DB00F6
(1675218765.451980) can0 260#0E00000000000078
(1675218765.453597) can0 351#00000000
(1675218765.455570) can0 0B0#00000000110A
(1675218765.456928) can0 0B2#00000000110A
(1675218765.458384) can0 224#2000000000090008
(1675218765.458388) can0 235#00000000003D
(1675218765.458389) can0 442#4002000000000000
(1675218765.461265) can0 020#000007
(1675218765.461312) can0 0B4#00000000000000BC
(1675218765.461517) can0 025#00100FC378787877
(1675218765.461696) can0 024#020401F6620E8019
(1675218765.467441) can0 0B0#00000000110B
(1675218765.467443) can0 0B2#00000000110B
(1675218765.468676) can0 223#000000000000002D
(1675218765.470921) can0 260#0E00000000000078
(1675218765.473203) can0 020#000007
(1675218765.473210) can0 0B4#00000000000000BC
(1675218765.473354) can0 2C4#03A3001B08802138
(1675218765.473944) can0 025#000F0FC36464784E
(1675218765.473947) can0 024#020401F5620F8019
(1675218765.475248) can0 2D0#00001000100000FA
(1675218765.479137) can0 3A0#5256000000FFFF26
(1675218765.479143) can0 0B0#00000000110C
(1675218765.479146) can0 0B2#00000000110C
(1675218765.479666) can0 224#2000000000000008
(1675218765.479670) can0 235#00000000003D
(1675218765.483812) can0 2C1#08036A01BADB00D6
(1675218765.485341) can0 020#000007
(1675218765.485351) can0 0B4#00000000000000BC
(1675218765.485518) can0 025#000F0FC378787876
(1675218765.486314) can0 024#020401F5620F8019
(1675218765.491697) can0 0B0#00000000110D
(1675218765.491699) can0 0B2#00000000110D
(1675218765.491703) can0 223#000000000000002D
(1675218765.493081) can0 260#0E00000000000078
(1675218765.497293) can0 2C4#03A1001B08802136
(1675218765.497298) can0 020#000007
(1675218765.497607) can0 0B4#00000000000000BC
(1675218765.497790) can0 024#020301F5620F7F17
(1675218765.498552) can0 025#000E0FC350507825
(1675218765.503661) can0 0B0#00000000110E
(1675218765.503668) can0 0B2#00000000110E
(1675218765.503672) can0 224#2000000000000008
(1675218765.503820) can0 235#00000000003D
(1675218765.505292) can0 2D0#00001000100000FA
(1675218765.508623) can0 4DC#1D00030200000000
(1675218765.509315) can0 020#000007
(1675218765.509322) can0 0B4#00000000000000BC
(1675218765.509752) can0 025#000E0FC378787875
(1675218765.510999) can0 024#020401F5620F8019
(1675218765.512333) can0 260#0E00000000000078
(1675218765.514151) can0 351#00000000
(1675218765.515692) can0 2C1#08035E01B0DA00BF
(1675218765.515701) can0 0B0#00000000110F
(1675218765.515704) can0 0B2#00000000110F
(1675218765.516812) can0 223#000000000000002D
(1675218765.518539) can0 38C#0000000000000037
(1675218765.520499) can0 2C4#039F001B08802134
(1675218765.521578) can0 020#000007
(1675218765.521585) can0 0B4#00000000000000BC
(1675218765.521720) can0 025#000D0FC346467810
(1675218765.521971) can0 024#020301F562107F18
(1675218765.527889) can0 0B0#000000001100
(1675218765.527898) can0 0B2#000000001100
(1675218765.527899) can0 224#0000000000000008
(1675218765.528561) can0 235#00000000003D
(1675218765.529091) can0 381#0000032000000000
(1675218765.529515) can0 3B4#0000ABB000400000
(1675218765.532407) can0 260#0E00000000000078
(1675218765.533590) can0 020#000007
(1675218765.533598) can0 0B4#00000000000000BC
(1675218765.534338) can0 025#000D0FC378787874
(1675218765.534870) can0 024#020401F462108019
(1675218765.536944) can0 2D0#00001000100000FA
(1675218765.537580) can0 621#1100000000000000
(1675218765.539620) can0 0B0#000000001101
(1675218765.539625) can0 0B2#000000001101
(1675218765.540962) can0 223#000000000000002D
(1675218765.543913) can0 2C4#039A001B0880212F
(1675218765.545313) can0 020#000007
(1675218765.545705) can0 0B4#00000000000000BC
(1675218765.546015) can0 024#020301F462107F17
(1675218765.546816) can0 025#000C0FC3282878D3
(1675218765.548481) can0 2C1#08034C01B1DA00AE
(1675218765.548485) can0 3B0#0000002A0000
(1675218765.551866) can0 0B0#000000001102
(1675218765.551875) can0 0B2#000000001102
(1675218765.552088) can0 224#0000000000000008
(1675218765.552091) can0 235#00000000003D
(1675218765.553283) can0 260#0E00000000000078
(1675218765.557563) can0 440#4202000001000000
(1675218765.557569) can0 020#000007
(1675218765.557573) can0 0B4#00000000000000BC
(1675218765.558053) can0 025#000C0FC378787873
(1675218765.558808) can0 024#020301F562107F18
(1675218765.563850) can0 0B0#000000001103
(1675218765.563858) can0 0B2#000000001103
(1675218765.563862) can0 223#000000000000002D
(1675218765.567658) can0 2C4#039D001B08802132
(1675218765.568513) can0 2D0#00001000100000FA
(1675218765.569675) can0 020#000007
(1675218765.569678) can0 0B4#00000000000000BC
(1675218765.570194) can0 025#000B0FC31E1E78BE
(1675218765.570834) can0 024#020301F6620F8019
(1675218765.572123) can0 260#0E00000000000078
(1675218765.572127) can0 351#00000000
(1675218765.576291) can0 0B0#000000001104
(1675218765.577857) can0 0B2#000000001104
(1675218765.577858) can0 224#0000000000000008
(1675218765.578696) can0 235#00000000003D
(1675218765.578703) can0 3A0#5256000000FFFF26
(1675218765.578979) can0 2C1#08034801B5DA00AE
(1675218765.581212) can0 020#000007
(1675218765.581753) can0 0B4#00000000000000BC
(1675218765.581930) can0 025#000B0FC378787872
(1675218765.582298) can0 620#1000022EF0402040
(1675218765.582304) can0 024#020301F562108019
(1675218765.587608) can0 0B0#000000001105
(1675218765.587924) can0 0B2#000000001105
(1675218765.588561) can0 223#000000000000002D
(1675218765.591124) can0 2C4#039E001B08802133
(1675218765.591919) can0 260#0E00000000000078
(1675218765.593887) can0 020#000007
(1675218765.594135) can0 0B4#00000000000000BC
(1675218765.595378) can0 024#020301F462107F17
(1675218765.597473) can0 025#000A0FC31E1E78BD
(1675218765.599925) can0 0B0#000000001106
(1675218765.600139) can0 0B2#000000001106
(1675218765.600446) can0 224#0000000000000008
(1675218765.601353) can0 235#00000000003D
(1675218765.602682) can0 2D0#00001000100000FA
(1675218765.605687) can0 020#000007
(1675218765.605692) can0 0B4#00000000000000BC
(1675218765.606039) can0 025#000A0FC378787871
(1675218765.606193) can0 024#020301F562108019
(1675218765.607590) can0 4DD#1E00000100000000
(1675218765.607600) can0 611#210010A000028219
(1675218765.608574) can0 380#A00808000000FE00
(1675218765.610608) can0 2C1#08035401BDDA00C2
(1675218765.611932) can0 0B0#000000001107
(1675218765.611940) can0 0B2#000000001107
(1675218765.611944) can0 223#000000000000002D
(1675218765.612193) can0 260#0E00000000000078
(1675218765.614764) can0 2C4#039C001B08802131
(1675218765.617691) can0 020#000007
(1675218765.618147) can0 0B4#00000000000000BC
(1675218765.618158) can0 025#00090FC3323278E4
(1675218765.619126) can0 024#020301F562107F18
(1675218765.623965) can0 0B0#000000001108
(1675218765.623972) can0 0B2#000000001108
(1675218765.624034) can0 224#0000000000000008
(1675218765.624389) can0 235#00000000003D
(1675218765.629816) can0 020#000007
(1675218765.629821) can0 0B4#00000000000000BC
(1675218765.630747) can0 025#00090FC378787870
(1675218765.630749) can0 024#020401F5620F8019
(1675218765.631833) can0 260#0E00000000000078
(1675218765.631840) can0 351#00000000
(1675218765.632150) can0 2D0#00001000100000FA
(1675218765.635653) can0 0B0#000000001109
(1675218765.635660) can0 0B2#000000001109
(1675218765.635835) can0 223#000000000000002D
(1675218765.638127) can0 2C4#039D001B08802132
(1675218765.638454) can0 3A1#0000000000FF0000
(1675218765.641907) can0 020#000007
(1675218765.641914) can0 0B4#00000000000000BC
(1675218765.642288) can0 025#00080FC3323278E3
(1675218765.642294) can0 2C1#080361019CDB00AF
(1675218765.642853) can0 024#020301F56210811A
(1675218765.648097) can0 442#4002000000000000
(1675218765.648105) can0 0B0#00000000110A
(1675218765.648108) can0 0B2#00000000110A
(1675218765.648262) can0 224#0000000000000008
(1675218765.649151) can0 235#00000000003D
(1675218765.651238) can0 394#00
(1675218765.652050) can0 260#0E00000000000078
(1675218765.653317) can0 423#00
(1675218765.653763) can0 020#000007
(1675218765.653998) can0 0B4#00000000000000BC
(1675218765.654237) can0 025#00080FC37878786F
(1675218765.655261) can0 024#020401F6620F801A
(1675218765.658564) can0 382#1C1C
(1675218765.659737) can0 0B0#00000000110B
(1675218765.659742) can0 0B2#00000000110B
(1675218765.660097) can0 223#000000000000002D
(1675218765.661767) can0 2C4#039C001B08802131
(1675218765.663987) can0 2D0#00001000100000FA
(1675218765.666059) can0 020#000007
(1675218765.666068) can0 0B4#00000000000000BC
(1675218765.666393) can0 025#00070FC35A5A7832
(1675218765.667385) can0 024#020401F6620F801A
(1675218765.671935) can0 0B0#00000000110C
(1675218765.671946) can0 0B2#00000000110C
(1675218765.672267) can0 224#0000000000000008
(1675218765.672599) can0 235#00000000003D
(1675218765.672960) can0 260#0E00000000000078
(1675218765.674249) can0 2C1#0803540190DA0095
(1675218765.677804) can0 020#000007
(1675218765.678031) can0 0B4#00000000000000BC
(1675218765.678620) can0 3A0#5255000000FFFF26
(1675218765.678624) can0 025#00070FC38282828C
(1675218765.680093) can0 024#020401F6620E8019
(1675218765.684430) can0 0B0#00000000110D
(1675218765.686367) can0 0B2#00000000110D
(1675218765.686370) can0 223#000000000000002D
(1675218765.687702) can0 2C4#0399001B0880212E
(1675218765.689998) can0 020#000007
(1675218765.690618) can0 0B4#00000000000000BC
(1675218765.690629) can0 025#00060FC36E6E7859
(1675218765.690855) can0 260#0E00000000000078
(1675218765.690997) can0 024#020401F6620F801A
(1675218765.692024) can0 351#00000000
(1675218765.696096) can0 2D0#00001000100000FA
(1675218765.696101) can0 0B0#00000000110E
(1675218765.696105) can0 0B2#00000000110E
(1675218765.696609) can0 224#0000000000000008
(1675218765.696612) can0 235#00000000003D
(1675218765.702064) can0 020#000007
(1675218765.702512) can0 0B4#00000000000000BC
(1675218765.702515) can0 024#020401F6620F801A
(1675218765.702684) can0 025#00060FC37878786D
(1675218765.706034) can0 2C1#0803720199DB00BD
(1675218765.708530) can0 0B0#00000000110F
(1675218765.708541) can0 0B2#00000000110F
(1675218765.708545) can0 223#000000000000002D
(1675218765.709713) can0 2C4#0395001B0880212A
(1675218765.713146) can0 260#0E00000000000078
(1675218765.714208) can0 020#000007
(1675218765.714213) can0 0B4#00000000000000BC
(1675218765.714216) can0 024#020401F6620E8019
(1675218765.714644) can0 025#00060FC37878786D
(1675218765.720723) can0 0B0#000000001100
(1675218765.720731) can0 0B2#000000001100
(1675218765.721828) can0 224#0000000000000008
(1675218765.723171) can0 235#00000000003D
(1675218765.726450) can0 020#000007
(1675218765.726459) can0 0B4#00000000000000BC
(1675218765.726462) can0 025#00050FC3282878CC
(1675218765.726769) can0 024#020401F7620E801A
(1675218765.727347) can0 2D0#00001000100000FA
(1675218765.732610) can0 260#0E00000000000078
(1675218765.732616) can0 0B0#000000001101
(1675218765.732619) can0 0B2#000000001101
(1675218765.732622) can0 223#000000000000002D
(1675218765.733961) can0 2C4#0396001B0880212B
(1675218765.737575) can0 2C1#0803540194DA0099
(1675218765.738117) can0 020#000007
(1675218765.738129) can0 0B4#00000000000000BC
(1675218765.738455) can0 025#00050FC37878786C
(1675218765.739047) can0 024#020401F7620E801A
(1675218765.744648) can0 0B0#000000001102
(1675218765.744657) can0 0B2#000000001102
(1675218765.744972) can0 224#0000000000000008
(1675218765.744977) can0 235#00000000003D
(1675218765.745802) can0 3B7#0000800000000000
(1675218765.747023) can0 440#4202000001000000
(1675218765.750318) can0 020#000007
(1675218765.750329) can0 0B4#00000000000000BC
(1675218765.750736) can0 025#00040FC364647843
(1675218765.751360) can0 024#020401F6620E8019
(1675218765.752022) can0 260#0F00000000000079
(1675218765.752027) can0 351#00000000
(1675218765.756274) can0 2C4#0393001B08802128
(1675218765.756288) can0 0B0#000000001103
(1675218765.756292) can0 0B2#000000001103
(1675218765.756654) can0 223#000000000000002D
(1675218765.759072) can0 2D0#00001000100000FA
(1675218765.762547) can0 020#000007
(1675218765.762904) can0 0B4#00000000000000BC
(1675218765.763613) can0 025#00040FC37878786B
(1675218765.765958) can0 024#020401F6620E8019
(1675218765.767421) can0 638#1300000000000000
(1675218765.768717) can0 0B0#000000001104
(1675218765.768727) can0 0B2#000000001104
(1675218765.769019) can0 224#0000000000000008
(1675218765.769935) can0 235#00000000003D
(1675218765.769937) can0 2C1#08035E017ADA0089
(1675218765.772211) can0 260#0F00000000000079
(1675218765.774176) can0 020#000007
(1675218765.774662) can0 0B4#00000000000000BC
(1675218765.774665) can0 025#00040FC37878786B
(1675218765.774903) can0 024#020401F6620E8019
(1675218765.778692) can0 3A0#5255000000FFFF26
(1675218765.779481) can0 2C4#0393001B08802128
(1675218765.780590) can0 0B0#000000001105
(1675218765.780596) can0 0B2#000000001105
(1675218765.780597) can0 223#000000000000002D
(1675218765.786527) can0 020#000007
(1675218765.786535) can0 0B4#00000000000000BC
(1675218765.787259) can0 025#00030FC33C3C78F2
(1675218765.787839) can0 024#020401F7620D8019
(1675218765.790752) can0 2D0#00001000100000FA
(1675218765.790758) can0 260#0F00000000000079
(1675218765.792280) can0 0B0#000000001106
(1675218765.792648) can0 0B2#000000001106
(1675218765.792958) can0 224#0000000000000008
(1675218765.793551) can0 235#00000000003D
(1675218765.798662) can0 020#000007
(1675218765.798667) can0 0B4#00000000000000BC
(1675218765.798670) can0 025#00030FC37878786A
(1675218765.799560) can0 024#020401F7620D8019
(1675218765.801477) can0 2C1#0803480178DA0071
(1675218765.803080) can0 2C4#0390001B08802125
(1675218765.804780) can0 0B0#000000001107
(1675218765.804791) can0 0B2#000000001107
(1675218765.804795) can0 223#000000000000002D
(1675218765.810816) can0 020#000007
(1675218765.810823) can0 0B4#00000000000000BC
(1675218765.811293) can0 024#020401F7620E801A
(1675218765.811298) can0 025#00020FC378787869
(1675218765.811935) can0 260#0F00000000000079
(1675218765.811939) can0 351#00000000
(1675218765.816896) can0 0B0#000000001108
(1675218765.816905) can0 0B2#000000001108
(1675218765.816910) can0 224#0000000000000008
(1675218765.818419) can0 235#00000000003D
(1675218765.818961) can0 4C7#0800012100000000
(1675218765.822484) can0 2D0#00001000100000FA
(1675218765.822491) can0 020#000007
(1675218765.823119) can0 0B4#00000000000000BC
(1675218765.823123) can0 025#00020FC378787869
(1675218765.823235) can0 024#020401F7620D8019
(1675218765.826474) can0 2C4#0395001B0880212A
(1675218765.828712) can0 0B0#000000001109
(1675218765.828721) can0 0B2#000000001109
(1675218765.829040) can0 223#000000000000002D
(1675218765.832186) can0 260#0F00000000000079
(1675218765.832657) can0 2C1#08033A0170D9005A
(1675218765.834858) can0 020#000007
(1675218765.835436) can0 0B4#00000000000000BC
(1675218765.835441) can0 025#00020FC378787869
(1675218765.836748) can0 024#020501F6620D8019
(1675218765.840664) can0 0B0#00000000110A
(1675218765.841077) can0 0B2#00000000110A
(1675218765.841078) can0 224#0000000000000008
(1675218765.842395) can0 235#00000000003D
(1675218765.846791) can0 020#000007
(1675218765.846800) can0 0B4#00000000000000BC
(1675218765.847213) can0 025#00010FC35A5A782C
(1675218765.847462) can0 442#4002000000000000
(1675218765.847986) can0 024#020401F7620D8019
(1675218765.850417) can0 2C4#0392001B08802127
(1675218765.852143) can0 260#0F00000000000079
(1675218765.852756) can0 0B0#00000000110B
(1675218765.852761) can0 0B2#00000000110B
(1675218765.852763) can0 223#000000000000002D
(1675218765.854190) can0 2D0#00001000100000FA
(1675218765.858940) can0 020#000007
(1675218765.858947) can0 0B4#00000000000000BC
(1675218765.859016) can0 024#020401F7620E801A
(1675218765.860318) can0 025#00010FC378787868
(1675218765.864854) can0 2C1#08034B0184DA0080
(1675218765.864858) can0 0B0#00000000110C
(1675218765.865180) can0 0B2#00000000110C
(1675218765.865183) can0 224#0000000000000008
(1675218765.868318) can0 235#00000000003D
(1675218765.871046) can0 020#000007
(1675218765.871058) can0 0B4#00000000000000BC
(1675218765.871061) can0 025#00010FC378787868
(1675218765.871065) can0 024#020401F7620E801A
(1675218765.871453) can0 260#0F00000000000079
(1675218765.871882) can0 351#00000000
(1675218765.873618) can0 2C4#0390001B08802125
(1675218765.876841) can0 0B0#00000000110D
(1675218765.877157) can0 0B2#00000000110D
(1675218765.878334) can0 223#000000000000002D
(1675218765.878339) can0 3A0#5255000000FFFF26
(1675218765.882497) can0 620#1000022EF0402040
(1675218765.882938) can0 020#000007
(1675218765.882946) can0 0B4#00000000000000BC
(1675218765.883378) can0 025#00000FC35A5A782B
(1675218765.884519) can0 024#020401F6620D8018
(1675218765.886326) can0 2D0#00001000100000FA
(1675218765.889018) can0 0B0#00000000110E
(1675218765.889023) can0 0B2#00000000110E
(1675218765.889026) can0 224#0000000000000008
(1675218765.890390) can0 235#00000000003D
(1675218765.891969) can0 260#0F00000000000079
(1675218765.894898) can0 020#000007
(1675218765.894907) can0 0B4#00000000000000BC
(1675218765.895529) can0 025#00000FC382828285
(1675218765.896065) can0 024#020401F7620D8019
(1675218765.896072) can0 2C1#08033D0180D9006D
(1675218765.897029) can0 2C4#038C001B08802121
(1675218765.900271) can0 4C6#0700010000000000
(1675218765.900704) can0 0B0#00000000110F
(1675218765.900708) can0 0B2#00000000110F
(1675218765.901052) can0 223#000000000000002D
(1675218765.906869) can0 020#000007
(1675218765.907089) can0 0B4#00000000000000BC
(1675218765.907684) can0 024#020401F7620D8019
(1675218765.908914) can0 025#00000FC378787867
(1675218765.909513) can0 610#20000064C0FFFEE0
(1675218765.912406) can0 260#0F00000000000079
(1675218765.912895) can0 0B0#000000001100
(1675218765.913113) can0 0B2#000000001100
(1675218765.913305) can0 224#0000000000000008
(1675218765.914089) can0 235#00000000003D
(1675218765.917776) can0 2D0#00001000100000FA
(1675218765.918934) can0 020#000007
(1675218765.918940) can0 0B4#00000000000000BC
(1675218765.919498) can0 024#020401F7620D8019
(1675218765.919504) can0 025#0FFF0FC36E6E7861
(1675218765.920810) can0 2C4#038B001B08802120
(1675218765.925340) can0 0B0#000000001101
(1675218765.925349) can0 0B2#000000001101
(1675218765.925354) can0 223#000000000000002D
(1675218765.928069) can0 2C1#080340017BDA006C
(1675218765.931014) can0 260#0F00000000000079
(1675218765.931020) can0 020#000007
(1675218765.931433) can0 0B4#00000000000000BC
(1675218765.931439) can0 024#020401F7620D8019
(1675218765.931730) can0 025#0FFF0FC378787875
(1675218765.931734) can0 351#00000000
(1675218765.937324) can0 0B0#000000001102
(1675218765.937330) can0 0B2#000000001102
(1675218765.937382) can0 224#0000000000000008
(1675218765.937494) can0 235#00000000003D
(1675218765.943114) can0 020#000007
(1675218765.943121) can0 0B4#00000000000000BC
(1675218765.943503) can0 4C3#0300120100000000
(1675218765.943841) can0 025#0FFF0FC378787875
(1675218765.943847) can0 024#020401F7620D8019
(1675218765.944080) can0 2C4#038A001B0880211F
(1675218765.947208) can0 440#4202000001000000
(1675218765.947213) can0 3B3#038A28
(1675218765.949283) can0 0B0#000000001103
(1675218765.949289) can0 0B2#000000001103
(1675218765.949293) can0 223#000000000000002D
(1675218765.949800) can0 2D0#00001000100000FA
(1675218765.950790) can0 394#00
(1675218765.952112) can0 260#0F00000000000079
(1675218765.955503) can0 020#000007
(1675218765.955511) can0 0B4#00000000000000BC
(1675218765.955514) can0 025#0FFF0FC378787875
(1675218765.956601) can0 024#020401F7620C8018
(1675218765.959970) can0 2C1#08033E017ED9006C
(1675218765.961641) can0 0B0#000000001104
(1675218765.961647) can0 0B2#000000001104
(1675218765.962820) can0 224#0000000000000008
(1675218765.962826) can0 235#00000000003D
(1675218765.964820) can0 4C1#0100090000000000
(1675218765.967235) can0 020#000007
(1675218765.967242) can0 0B4#00000000000000BC
(1675218765.967563) can0 024#020401F7620C8018
(1675218765.967940) can0 025#0FFE0FC3141478AC
(1675218765.969077) can0 2C4#038C001B08802121
(1675218765.972095) can0 260#0F00000000000079
(1675218765.973527) can0 0B0#000000001105
(1675218765.974177) can0 0B2#000000001105
(1675218765.975196) can0 223#000000000000002D
(1675218765.978317) can0 3A0#5255000000FFFF26
(1675218765.979302) can0 020#000007
(1675218765.979311) can0 0B4#00000000000000BC
(1675218765.979591) can0 025#0FFE0FC378787874
(1675218765.979832) can0 024#020401F7620D8019
(1675218765.981156) can0 2D0#00001000100000FA
(1675218765.985493) can0 0B0#000000001106
(1675218765.985771) can0 0B2#000000001106
(1675218765.986779) can0 224#0000000000000008
(1675218765.987955) can0 235#00000000003D
(1675218765.991379) can0 260#0F00000000000079
(1675218765.991389) can0 020#000007
(1675218765.991391) can0 0B4#00000000000000BC
(1675218765.991920) can0 025#0FFE0FC378787874
(1675218765.991923) can0 2C1#080336017CD90062
(1675218765.992262) can0 024#020401F8620C8019
(1675218765.992489) can0 2C4#038D001B08802122
(1675218765.994031) can0 351#00000000
(1675218765.997405) can0 0B0#000000001107
(1675218765.997413) can0 0B2#000000001107
(1675218765.997745) can0 223#000000000000002D
(1675218766.003298) can0 020#000007
(1675218766.003306) can0 0B4#00000000000000BC
(1675218766.003561) can0 025#0FFD0FC34646780F
(1675218766.005369) can0 024#020401F7620C8018
(1675218766.009495) can0 0B0#000000001108
(1675218766.009502) can0 0B2#000000001108
(1675218766.009505) can0 224#0000000000000008
(1675218766.009771) can0 235#00000000003D
(1675218766.010704) can0 260#0F00000000000079
(1675218766.012734) can0 2D0#00001000100000FA
(1675218766.015150) can0 2C4#038B001B08802120
(1675218766.015153) can0 020#000007
(1675218766.015158) can0 0B4#00000000000000BC
(1675218766.015628) can0 024#020401F8620C8019
(1675218766.015760) can0 025#0FFD0FC378787873
(1675218766.021343) can0 0B0#000000001109
(1675218766.021527) can0 0B2#000000001109
(1675218766.023168) can0 223#000000000000002D
(1675218766.023175) can0 2C1#080349018ADA0084
(1675218766.027868) can0 020#000007
(1675218766.027876) can0 0B4#00000000000000BC
(1675218766.027879) can0 025#0FFD0FC378787873
(1675218766.029190) can0 024#020401F7620C8018
(1675218766.031422) can0 260#0F00000000000079
(1675218766.033475) can0 0B0#00000000110A
(1675218766.033480) can0 0B2#00000000110A
(1675218766.033833) can0 224#0000000000000008
(1675218766.033836) can0 235#00000000003D
(1675218766.037478) can0 442#4002000000000000
(1675218766.038540) can0 2C4#038B001B08802120
(1675218766.039288) can0 020#000007
(1675218766.039560) can0 0B4#00000000000000BC
(1675218766.039564) can0 025#0FFC0FC3323278E6
(1675218766.039852) can0 024#020401F7620D8019
(1675218766.044837) can0 2D0#00001000100000FA
(1675218766.045491) can0 0B0#00000000110B
(1675218766.045497) can0 0B2#00000000110B
(1675218766.045678) can0 223#000000000000002D
(1675218766.046113) can0 3B7#0000800000000000
(1675218766.051224) can0 260#0F00000000000079
(1675218766.051232) can0 020#000007
(1675218766.051614) can0 0B4#00000000000000BC
(1675218766.051874) can0 025#0FFC0FC378787872
(1675218766.052331) can0 351#00000000
(1675218766.052938) can0 024#020501F7620C8019
(1675218766.054990) can0 2C1#08034A018FDA008A
(1675218766.057749) can0 0B0#00000000110C
(1675218766.057756) can0 0B2#00000000110C
(1675218766.057760) can0 224#0000000000000008
(1675218766.058060) can0 235#00000000003D
(1675218766.062058) can0 2C4#0388001B0880211D
(1675218766.063453) can0 020#000007
(1675218766.063657) can0 0B4#00000000000000BC
(1675218766.064718) can0 025#0FFB0FC350507821
(1675218766.064722) can0 024#020401F8620C811A
(1675218766.069618) can0 0B0#00000000110D
(1675218766.069627) can0 0B2#00000000110D
(1675218766.070638) can0 223#000000000000002D
(1675218766.072096) can0 260#0F00000000000079
(1675218766.073359) can0 38A#0000040000
(1675218766.075478) can0 020#000007
(1675218766.075487) can0 0B4#00000000000000BC
(1675218766.075701) can0 025#0FFB0FC378787871
(1675218766.075923) can0 024#020401F9620C7F19
(1675218766.076337) can0 2D0#00001000100000FA
(1675218766.078425) can0 3A0#5255000000FFFF26
(1675218766.081721) can0 0B0#00000000110E
(1675218766.081729) can0 0B2#00000000110E
(1675218766.082030) can0 224#0000000000000008
(1675218766.082922) can0 235#00000000003D
(1675218766.085700) can0 2C4#0387001B0880211C
(1675218766.086548) can0 2C1#080348017EDA0077
(1675218766.087577) can0 020#000007
(1675218766.087580) can0 0B4#00000000000000BC
(1675218766.088206) can0 025#0FFA0FC350507820
(1675218766.089052) can0 024#020401F7620C8018
(1675218766.093537) can0 260#0F00000000000079
(1675218766.093545) can0 0B0#00000000110F
(1675218766.093879) can0 0B2#00000000110F
(1675218766.093884) can0 223#000000000000002D
(1675218766.097584) can0 622#1200E83000000000
(1675218766.099599) can0 020#000007
(1675218766.099605) can0 0B4#00000000000000BC
(1675218766.100007) can0 025#0FFA0FC378787870
(1675218766.100497) can0 024#020401F7620C8018
(1675218766.105661) can0 0B0#000000001100
(1675218766.106086) can0 0B2#000000001100
(1675218766.106094) can0 224#0000000000000008
(1675218766.107136) can0 235#00000000003D
(1675218766.108138) can0 2D0#00001000100000FA
(1675218766.109541) can0 2C4#0384001B08802119
(1675218766.111793) can0 020#000007
(1675218766.111797) can0 0B4#00000000000000BC
(1675218766.112204) can0 025#0FF90FC3323278E3
(1675218766.112210) can0 260#0F00000000000079
(1675218766.112536) can0 351#00000000
(1675218766.112756) can0 024#020401F7620C8018
(1675218766.118244) can0 0B0#000000001101
(1675218766.118252) can0 0B2#000000001101
(1675218766.119751) can0 223#000000000000002D
(1675218766.121816) can0 2C1#08034C0184DA0081
(1675218766.123954) can0 020#000007
(1675218766.123961) can0 0B4#00000000000000BC
(1675218766.124269) can0 025#0FF80FC36E6E785A
(1675218766.125169) can0 024#020401F8620C8019
(1675218766.129820) can0 0B0#000000001102
(1675218766.129828) can0 0B2#000000001102
(1675218766.130088) can0 224#0000000000000008
(1675218766.131325) can0 235#00000000003D
(1675218766.132132) can0 260#0F00000000000079
(1675218766.132690) can0 2C4#0384001B08802119
(1675218766.136147) can0 020#000007
(1675218766.136158) can0 0B4#00000000000000BC
(1675218766.136162) can0 025#0FF80FC37878786E
(1675218766.136315) can0 024#020401F8620B8018
(1675218766.136989) can0 440#4202000001000000
(1675218766.141919) can0 2D0#00001000100000FA
