(1676418431.991662) can0 2D0#06F10900100000EA
(1676418431.992630) can0 624#1A00414949400000
(1676418431.993853) can0 0B0#00000000110E
(1676418431.994190) can0 0B2#00000000110E
(1676418431.994192) can0 224#0000000000000008
(1676418431.994320) can0 235#00000000003D
(1676418431.996817) can0 2C4#039A002508802139
(1676418432.000040) can0 020#000007
(1676418432.000043) can0 0B4#000000002C0000E8
(1676418432.000267) can0 025#0F900FC378787806
(1676418432.000451) can0 024#020301F7620D8018
(1676418432.001854) can0 2C1#0800DF001DC60095
(1676418432.002838) can0 630#1700000000000000
(1676418432.005923) can0 0B0#00000000110F
(1676418432.005926) can0 0B2#00000000110F
(1676418432.006221) can0 223#000000000000002D
(1676418432.008640) can0 260#0E00000000000078
(1676418432.011082) can0 423#00
(1676418432.012118) can0 020#000007
(1676418432.012121) can0 0B4#000000002C0000E8
(1676418432.012122) can0 025#0F900FC378787806
(1676418432.013133) can0 024#020301F7620D8018
(1676418432.017947) can0 0B0#000000001100
(1676418432.017951) can0 0B2#000000001100
(1676418432.018242) can0 224#0000000000000008
(1676418432.018436) can0 235#00000000003D
(1676418432.020209) can0 2C4#0397002508802136
(1676418432.023480) can0 2D0#06EC0900100000E5
(1676418432.023755) can0 020#000007
(1676418432.024031) can0 0B4#000000002C0000E8
(1676418432.024574) can0 024#020301F6620E8018
(1676418432.024579) can0 025#0F900FC378787806
(1676418432.028686) can0 260#0E00000000000078
(1676418432.029913) can0 0B0#000000001101
(1676418432.030101) can0 0B2#000000001101
(1676418432.030324) can0 223#000000000000002D
(1676418432.031756) can0 3A0#005C000000000039
(1676418432.033608) can0 2C1#0800D70022C60092
(1676418432.036342) can0 020#000007
(1676418432.036345) can0 0B4#000000002C0000E8
(1676418432.036347) can0 025#0F900FC378787806
(1676418432.036462) can0 024#020301F6620F8019
(1676418432.038167) can0 620#10000259F0402040
(1676418432.042544) can0 0B0#000000001102
(1676418432.042551) can0 0B2#000000001102
(1676418432.042553) can0 224#0000000000000008
(1676418432.042555) can0 235#00000000003D
(1676418432.042872) can0 4C1#0100090000000000
(1676418432.044286) can0 2C4#039A002508802139
(1676418432.048482) can0 020#000007
(1676418432.048486) can0 0B4#000000002C0000E8
(1676418432.048488) can0 025#0F900FC378787806
(1676418432.048926) can0 260#0E00000000000078
(1676418432.049309) can0 024#020301F6620D8017
(1676418432.050139) can0 351#00000000
(1676418432.055437) can0 0B0#000000001103
(1676418432.055445) can0 0B2#000000001103
(1676418432.055447) can0 223#000000000000002D
(1676418432.055452) can0 2D0#06EA0900100000E3
(1676418432.060571) can0 020#000007
(1676418432.060580) can0 0B4#000000002C0000E8
(1676418432.061583) can0 025#0F900FC378787806
(1676418432.061589) can0 024#020301F7620D8018
(1676418432.066355) can0 2C1#0800D30026C60092
(1676418432.066365) can0 0B0#000000001104
(1676418432.066806) can0 0B2#000000001104
(1676418432.066812) can0 224#0000000000000008
(1676418432.067790) can0 235#00000000003D
(1676418432.067795) can0 2C4#039A002508802139
(1676418432.068408) can0 394#00
(1676418432.068936) can0 260#0E00000000000078
(1676418432.072846) can0 020#000007
(1676418432.072853) can0 0B4#000000002C0000E8
(1676418432.072856) can0 025#0F900FC378787806
(1676418432.073824) can0 3B7#0000800000000000
(1676418432.073829) can0 024#020201F7620D7F16
(1676418432.078850) can0 440#4202000001000000
(1676418432.078858) can0 0B0#000000001105
(1676418432.078862) can0 0B2#000000001105
(1676418432.080007) can0 223#000000000000002D
(1676418432.085008) can0 020#000007
(1676418432.085016) can0 0B4#000000002C0000E8
(1676418432.085019) can0 025#0F900FC378787806
(1676418432.085825) can0 024#020301F6620D8017
(1676418432.087640) can0 2D0#06E80900100000E1
(1676418432.089126) can0 260#0E00000000000078
(1676418432.091233) can0 0B0#000000001106
(1676418432.091241) can0 0B2#000000001106
(1676418432.091247) can0 224#0000000000000008
(1676418432.091251) can0 235#00000000003D
(1676418432.091256) can0 2C4#039C00250880213B
(1676418432.097238) can0 020#000007
(1676418432.097246) can0 0B4#000000002C0000E8
(1676418432.097250) can0 025#0F900FC378787806
(1676418432.097254) can0 024#020301F6620E8018
(1676418432.099279) can0 2C1#0800D7001DC6008D
(1676418432.103181) can0 0B0#000000001107
(1676418432.103191) can0 0B2#000000001107
(1676418432.103195) can0 223#000000000000002D
(1676418432.109539) can0 020#000007
(1676418432.109549) can0 0B4#000000002C0000E8
(1676418432.109553) can0 025#0F900FC378787806
(1676418432.109557) can0 260#0E00000000000078
(1676418432.110183) can0 024#020301F7620E8019
(1676418432.111239) can0 351#00000000
(1676418432.116131) can0 0B0#000000001108
(1676418432.116140) can0 0B2#000000001108
(1676418432.116144) can0 224#0000000000000008
(1676418432.116147) can0 235#00000000003D
(1676418432.117420) can0 2C4#039A002508802139
(1676418432.119286) can0 2D0#06E70900100000E0
(1676418432.121300) can0 020#000007
(1676418432.121308) can0 0B4#000000002C0000E8
(1676418432.121311) can0 025#0F900FC378787806
(1676418432.122195) can0 024#020301F7620D8018
(1676418432.127402) can0 0B0#000000001109
(1676418432.127414) can0 0B2#000000001109
(1676418432.128090) can0 223#000000000000002D
(1676418432.129566) can0 260#0E00000000000078
(1676418432.129574) can0 2C1#0800DD0023C60099
(1676418432.133453) can0 3A0#005C000000000039
(1676418432.133470) can0 020#000007
(1676418432.133477) can0 0B4#000000002C0000E8
(1676418432.134356) can0 025#0F900FC378787806
(1676418432.134935) can0 024#020301F6620D8017
(1676418432.139329) can0 2C4#039B00250880213A
(1676418432.139341) can0 0B0#00000000110A
(1676418432.139346) can0 0B2#00000000110A
(1676418432.140903) can0 224#0000000000000008
(1676418432.140916) can0 235#00000000003D
(1676418432.145533) can0 020#000007
(1676418432.145545) can0 0B4#000000002C0000E8
(1676418432.145551) can0 025#0F900FC378787806
(1676418432.145557) can0 024#020301F6620E8018
(1676418432.149581) can0 260#0E00000000000078
(1676418432.151643) can0 2D0#06E80900100000E1
(1676418432.151651) can0 0B0#00000000110B
(1676418432.151654) can0 0B2#00000000110B
(1676418432.151659) can0 223#000000000000002D
(1676418432.158135) can0 020#000007
(1676418432.158144) can0 0B4#000000002C0000E8
(1676418432.158148) can0 025#0F900FC378787806
(1676418432.158515) can0 024#020301F7620D8018
(1676418432.161427) can0 2C1#0800DC001FC60094
(1676418432.161921) can0 2C4#039A002508802139
(1676418432.163291) can0 0B0#00000000110C
(1676418432.163300) can0 0B2#00000000110C
(1676418432.163307) can0 224#0000000000000008
(1676418432.164538) can0 235#00000000003D
(1676418432.164551) can0 622#1200E83800000000
(1676418432.169949) can0 020#000007
(1676418432.169964) can0 0B4#000000002C0000E8
(1676418432.169968) can0 025#0F900FC378787806
(1676418432.169972) can0 260#0E00000000000078
(1676418432.170983) can0 351#00000000
(1676418432.170990) can0 024#020301F7620D8018
(1676418432.171524) can0 442#4002000000000000
(1676418432.175534) can0 0B0#00000000110D
(1676418432.175546) can0 0B2#00000000110D
(1676418432.176668) can0 223#000000000000002D
(1676418432.182029) can0 020#000007
(1676418432.182043) can0 0B4#000000002C0000E8
(1676418432.182048) can0 024#020301F7620D8018
(1676418432.182053) can0 025#0F900FC378787806
(1676418432.183317) can0 2D0#06E90900100000E2
(1676418432.185843) can0 2C4#0395002508802134
(1676418432.187761) can0 0B0#00000000110E
(1676418432.187768) can0 0B2#00000000110E
(1676418432.187772) can0 224#0000000000000008
(1676418432.187776) can0 235#00000000003D
(1676418432.189487) can0 260#0E00000000000078
(1676418432.189579) can0 4C8#0900010200000000
(1676418432.193920) can0 2C1#0800EC0020C700A6
(1676418432.193928) can0 020#000007
(1676418432.194992) can0 0B4#000000002C0000E8
(1676418432.194998) can0 024#020301F6620F8019
(1676418432.197171) can0 025#0F900FC382828224
(1676418432.200181) can0 0B0#00000000110F
(1676418432.200189) can0 0B2#00000000110F
(1676418432.200195) can0 223#000000000000002D
(1676418432.201411) can0 610#20000064C0FFFEE0
(1676418432.206194) can0 020#000007
(1676418432.206203) can0 0B4#000000002C0000E8
(1676418432.207584) can0 024#020301F6620E8018
(1676418432.207591) can0 025#0F900FC378787806
(1676418432.209548) can0 260#0E00000000000078
(1676418432.209556) can0 2C4#0397002508802136
(1676418432.211826) can0 0B0#000000001100
(1676418432.211839) can0 0B2#000000001100
(1676418432.211845) can0 224#0000000000000008
(1676418432.211851) can0 235#00000000003D
(1676418432.211855) can0 4DD#1E00000100000000
(1676418432.214551) can0 2D0#06E90900100000E2
(1676418432.217759) can0 020#000007
(1676418432.217773) can0 0B4#000000002C0000E8
(1676418432.217779) can0 025#0F900FC378787806
(1676418432.219158) can0 024#020301F6620D8017
(1676418432.224305) can0 0B0#000000001101
(1676418432.224320) can0 0B2#000000001101
(1676418432.224327) can0 223#000000000000002D
(1676418432.224331) can0 2C1#0800EC0020C700A6
(1676418432.229767) can0 260#0E00000000000078
(1676418432.229779) can0 020#000007
(1676418432.229785) can0 0B4#000000002C0000E8
(1676418432.231088) can0 025#0F900FC378787806
(1676418432.231096) can0 351#00000000
(1676418432.231100) can0 024#020301F7620D8018
(1676418432.232940) can0 3A0#005C000000000039
(1676418432.232949) can0 2C4#0398002508802137
(1676418432.235651) can0 0B0#000000001102
(1676418432.235659) can0 0B2#000000001102
(1676418432.241902) can0 224#0000000000000008
(1676418432.241912) can0 235#00000000003D
(1676418432.241916) can0 020#000007
(1676418432.241920) can0 0B4#000000002C0000E8
(1676418432.243493) can0 024#020301F7620D8018
(1676418432.243501) can0 025#0F900FC378787806
(1676418432.246422) can0 2D0#06E70900100000E0
(1676418432.247951) can0 0B0#000000001103
(1676418432.247965) can0 0B2#000000001103
(1676418432.247970) can0 223#000000000000002D
(1676418432.249527) can0 260#0E00000000000078
(1676418432.254231) can0 020#000007
(1676418432.255225) can0 0B4#000000002C0000E8
(1676418432.255232) can0 025#0F900FC378787806
(1676418432.256667) can0 024#020301F6620E8018
(1676418432.256674) can0 2C1#0800E2001DC70099
(1676418432.256678) can0 2C4#0398002508802137
(1676418432.259621) can0 0B0#000000001104
(1676418432.260235) can0 0B2#000000001104
(1676418432.261308) can0 224#0000000000000008
(1676418432.261317) can0 235#00000000003D
(1676418432.266250) can0 020#000007
(1676418432.266265) can0 0B4#000000002C0000E8
(1676418432.267222) can0 025#0F900FC378787806
(1676418432.267228) can0 024#020301F6620E8018
(1676418432.269136) can0 440#4202000001000000
(1676418432.269144) can0 260#0E00000000000078
(1676418432.271484) can0 3B3#039728
(1676418432.271494) can0 0B0#000000001105
(1676418432.272286) can0 0B2#000000001105
(1676418432.273550) can0 223#000000000000002D
(1676418432.278533) can0 020#000007
(1676418432.278545) can0 0B4#000000002C0000E8
(1676418432.279546) can0 2D0#06E50900100000DE
(1676418432.279553) can0 025#0F900FC378787806
(1676418432.279556) can0 024#020301F6620E8018
(1676418432.281712) can0 2C4#039B00250880213A
(1676418432.283881) can0 0B0#000000001106
(1676418432.283904) can0 0B2#000000001106
(1676418432.286340) can0 224#0000000000000008
(1676418432.286350) can0 235#00000000003D
(1676418432.288245) can0 2C1#0800E50020C7009F
(1676418432.289593) can0 260#0E00000000000078
(1676418432.289602) can0 020#000007
(1676418432.289608) can0 0B4#000000002C0000E8
(1676418432.290231) can0 024#020301F6620D8017
(1676418432.291268) can0 025#0F900FC378787806
(1676418432.291276) can0 351#00000000
(1676418432.295909) can0 0B0#000000001107
(1676418432.295918) can0 0B2#000000001107
(1676418432.298375) can0 223#000000000000002D
(1676418432.302226) can0 020#000007
(1676418432.302238) can0 0B4#000000002C0000E8
(1676418432.302244) can0 025#0F900FC378787806
(1676418432.302249) can0 024#020201F6620D7F15
(1676418432.303547) can0 2C4#0396002508802135
(1676418432.308092) can0 0B0#000000001108
(1676418432.308102) can0 0B2#000000001108
(1676418432.309436) can0 224#0000000000000008
(1676418432.309443) can0 235#00000000003D
(1676418432.309447) can0 260#0E00000000000078
(1676418432.310767) can0 2D0#06E40900100000DD
(1676418432.314958) can0 020#000007
(1676418432.314970) can0 0B4#000000002C0000E8
(1676418432.314976) can0 025#0F900FC378787806
(1676418432.314982) can0 024#020301F6620E8018
(1676418432.320447) can0 0B0#000000001109
(1676418432.320458) can0 0B2#000000001109
(1676418432.320464) can0 223#000000000000002D
(1676418432.320470) can0 2C1#0800E5001EC7009D
(1676418432.321910) can0 611#210010A0000282AA
(1676418432.326134) can0 020#000007
(1676418432.326146) can0 0B4#000000002C0000E8
(1676418432.326152) can0 025#0F900FC378787806
(1676418432.326972) can0 024#020301F7620E8019
(1676418432.327974) can0 2C4#039A002508802139
(1676418432.329222) can0 260#0E00000000000078
(1676418432.333041) can0 0B0#00000000110A
(1676418432.333053) can0 0B2#00000000110A
(1676418432.334730) can0 224#0000000000000008
(1676418432.334738) can0 235#00000000003D
(1676418432.336446) can0 3A0#005C000000000039
(1676418432.338097) can0 020#000007
(1676418432.338107) can0 0B4#000000002C0000E8
(1676418432.338112) can0 025#0F900FC378787806
(1676418432.338781) can0 024#020201F7620D8017
(1676418432.340197) can0 620#10000259F0402040
(1676418432.341555) can0 2D0#06E40900100000DD
(1676418432.344262) can0 0B0#00000000110B
(1676418432.344275) can0 0B2#00000000110B
(1676418432.344281) can0 223#000000000000002D
(1676418432.350350) can0 260#0E00000000000078
(1676418432.350359) can0 020#000007
(1676418432.350363) can0 0B4#000000002C0000E8
(1676418432.351052) can0 025#0F900FC378787806
(1676418432.351059) can0 024#020201F7620D8017
(1676418432.351743) can0 2C4#039B00250880213A
(1676418432.351750) can0 351#00000000
(1676418432.351754) can0 2C1#0800DE001BC60092
(1676418432.356102) can0 0B0#00000000110C
(1676418432.356111) can0 0B2#00000000110C
(1676418432.356115) can0 224#0000000000000008
(1676418432.357299) can0 235#00000000003D
(1676418432.361918) can0 442#4002000000000000
(1676418432.361927) can0 020#000007
(1676418432.361931) can0 0B4#000000002C0000E8
(1676418432.362593) can0 025#0F900FC378787806
(1676418432.363837) can0 4DC#1D00030200000000
(1676418432.363844) can0 024#020201F6620E8017
(1676418432.368220) can0 0B0#00000000110D
(1676418432.368231) can0 0B2#00000000110D
(1676418432.369291) can0 223#000000000000002D
(1676418432.369299) can0 394#00
(1676418432.369303) can0 260#0E00000000000078
(1676418432.372062) can0 38C#0000000000000039
(1676418432.373904) can0 2D0#06E30900100000DC
(1676418432.373914) can0 020#000007
(1676418432.373920) can0 0B4#000000002C0000E8
(1676418432.374779) can0 025#0F900FC378787806
(1676418432.374786) can0 2C4#0398002508802137
(1676418432.376001) can0 3B7#0000800000000000
(1676418432.376008) can0 024#020301F6620E8018
(1676418432.380630) can0 0B0#00000000110E
(1676418432.380638) can0 0B2#00000000110E
(1676418432.382308) can0 224#0000000000000008
(1676418432.383274) can0 235#00000000003D
(1676418432.383282) can0 2C1#0800D50017C60085
(1676418432.386411) can0 020#000007
(1676418432.386422) can0 0B4#000000002C0000E8
(1676418432.386427) can0 024#020301F6620E8018
(1676418432.386432) can0 025#0F900FC378787806
(1676418432.390097) can0 260#0E00000000000078
(1676418432.392373) can0 0B0#00000000110F
(1676418432.392394) can0 0B2#00000000110F
(1676418432.392402) can0 223#000000000000002D
(1676418432.398782) can0 2C4#0397002508802136
(1676418432.398794) can0 020#000007
(1676418432.398800) can0 0B4#000000002C0000E8
(1676418432.399731) can0 025#0F900FC378787806
(1676418432.399741) can0 024#020301F7620E8019
(1676418432.401824) can0 3B0#0000003B0000
(1676418432.404504) can0 0B0#000000001100
(1676418432.404512) can0 0B2#000000001100
(1676418432.404516) can0 224#0000000000000008
(1676418432.406604) can0 235#00000000003D
(1676418432.406614) can0 2D0#06E50900100000DE
(1676418432.410712) can0 260#0E00000000000078
(1676418432.410729) can0 020#000007
(1676418432.411993) can0 0B4#000000002C0000E8
(1676418432.412002) can0 025#0F900FC378787806
(1676418432.412007) can0 351#00000000
(1676418432.413453) can0 024#020201F7620E7F17
(1676418432.416361) can0 2C1#0800D80012C60083
(1676418432.416372) can0 0B0#000000001101
(1676418432.416378) can0 0B2#000000001101
(1676418432.416396) can0 223#000000000000002D
(1676418432.422273) can0 2C4#0394002508802133
(1676418432.422284) can0 020#000007
(1676418432.422805) can0 0B4#000000002C0000E8
(1676418432.423910) can0 025#0F900FC378787806
(1676418432.423918) can0 024#020201F6620E8017
(1676418432.428462) can0 0B0#000000001102
(1676418432.428473) can0 0B2#000000001102
(1676418432.429454) can0 224#0000000000000008
(1676418432.429460) can0 235#00000000003D
(1676418432.429465) can0 260#0E00000000000078
(1676418432.432807) can0 3A0#005C000000000039
(1676418432.434322) can0 020#000007
(1676418432.434329) can0 0B4#000000002C0000E8
(1676418432.434333) can0 024#020301F6620E8018
(1676418432.434337) can0 025#0F900FC378787806
(1676418432.436644) can0 2D0#06E60900100000DF
(1676418432.440192) can0 0B0#000000001103
(1676418432.440200) can0 0B2#000000001103
(1676418432.440204) can0 223#000000000000002D
(1676418432.445121) can0 2C4#0394002508802133
(1676418432.446433) can0 020#000007
(1676418432.446442) can0 0B4#000000002C0000E8
(1676418432.446447) can0 025#0F900FC378787806
(1676418432.447265) can0 024#020301F7620E8019
(1676418432.448484) can0 2C1#0800DF001CC60094
(1676418432.449634) can0 260#0E00000000000078
(1676418432.452581) can0 0B0#000000001104
(1676418432.452591) can0 0B2#000000001104
(1676418432.452599) can0 224#0000000000000008
(1676418432.452605) can0 235#00000000003D
(1676418432.453111) can0 621#1100000000000000
(1676418432.457855) can0 398#00F0
(1676418432.457866) can0 020#000007
(1676418432.458653) can0 440#4202000001000000
(1676418432.458660) can0 025#0F900FC378787806
(1676418432.460135) can0 0B4#000000002C0000E8
(1676418432.460142) can0 024#020301F7620D8018
(1676418432.462402) can0 380#0000000000001900
(1676418432.464540) can0 0B0#000000001105
(1676418432.464549) can0 0B2#000000001105
(1676418432.464554) can0 223#000000000000002D
(1676418432.468907) can0 2D0#06E30900100000DC
(1676418432.468916) can0 2C4#0393002508802132
(1676418432.469703) can0 260#0E00000000000078
(1676418432.470592) can0 351#00000000
(1676418432.470600) can0 020#000007
(1676418432.471412) can0 0B4#000000002C0000E8
(1676418432.471419) can0 025#0F900FC382828224
(1676418432.473283) can0 024#020301F6620E8018
(1676418432.473291) can0 638#13001F0000000000
(1676418432.476918) can0 0B0#000000001106
(1676418432.476930) can0 0B2#000000001106
(1676418432.476936) can0 224#0000000000000008
(1676418432.478251) can0 235#00000000003D
(1676418432.478266) can0 2C1#0800D90016C60088
(1676418432.483163) can0 020#000007
(1676418432.483172) can0 0B4#000000002C0000E8
(1676418432.483176) can0 025#0F900FC378787806
(1676418432.485400) can0 024#020301F6620E8018
(1676418432.489033) can0 0B0#000000001107
(1676418432.489042) can0 0B2#000000001107
(1676418432.489046) can0 223#000000000000002D
(1676418432.490492) can0 260#0E00000000000078
(1676418432.491839) can0 3A1#0000000000FF0000
(1676418432.491847) can0 2C4#0395002508802134
(1676418432.494581) can0 020#000007
(1676418432.494590) can0 0B4#000000002C0000E8
(1676418432.494594) can0 024#020301F6620D8017
(1676418432.495845) can0 025#0F900FC378787806
(1676418432.500910) can0 2D0#06E00900100000D9
(1676418432.500919) can0 0B0#000000001108
(1676418432.500923) can0 0B2#000000001108
(1676418432.501402) can0 224#0000000000000008
(1676418432.501407) can0 235#00000000003D
(1676418432.507114) can0 020#000007
(1676418432.507128) can0 0B4#000000002C0000E8
(1676418432.507134) can0 024#020301F7620D8018
(1676418432.509008) can0 025#0F900FC378787806
(1676418432.509125) can0 260#0E00000000000078
(1676418432.511613) can0 2C1#0800D90018C6008A
(1676418432.512813) can0 0B0#000000001109
(1676418432.512819) can0 0B2#000000001109
(1676418432.512823) can0 223#000000000000002D
(1676418432.515987) can0 2C4#0396002508802135
(1676418432.518934) can0 020#000007
(1676418432.518943) can0 0B4#000000002C0000E8
(1676418432.518947) can0 025#0F900FC378787806
(1676418432.520181) can0 024#020301F7620D8018
(1676418432.525194) can0 0B0#00000000110A
(1676418432.525254) can0 0B2#00000000110A
(1676418432.525259) can0 224#0000000000000008
(1676418432.526491) can0 235#00000000003D
(1676418432.530395) can0 260#0E00000000000078
(1676418432.530406) can0 351#00000000
(1676418432.530412) can0 020#000007
(1676418432.530417) can0 0B4#000000002C0000E8
(1676418432.531389) can0 025#0F900FC378787806
(1676418432.531398) can0 024#020301F6620E8018
(1676418432.532611) can0 3A0#005C000000000039
(1676418432.532738) can0 2D0#06DC0900100000D5
(1676418432.536855) can0 0B0#00000000110B
(1676418432.538650) can0 0B2#00000000110B
(1676418432.538669) can0 223#000000000000002D
(1676418432.538681) can0 2C4#0394002508802133
(1676418432.543735) can0 2C1#0800DD001EC60094
(1676418432.543744) can0 020#000007
(1676418432.543748) can0 0B4#000000002C0000E8
(1676418432.543752) can0 024#020301F6620E8018
(1676418432.543757) can0 025#0F900FC378787806
(1676418432.550046) can0 0B0#00000000110C
(1676418432.550055) can0 0B2#00000000110C
(1676418432.550060) can0 224#0000000000000008
(1676418432.550824) can0 235#00000000003D
(1676418432.550831) can0 260#0E00000000000078
(1676418432.551140) can0 442#4002000000000000
(1676418432.555041) can0 020#000007
(1676418432.555049) can0 0B4#000000002C0000E8
(1676418432.556361) can0 025#0F900FC378787806
(1676418432.556368) can0 024#020301F6620E8018
(1676418432.560799) can0 0B0#00000000110D
(1676418432.560810) can0 0B2#00000000110D
(1676418432.562210) can0 223#000000000000002D
(1676418432.562218) can0 2C4#0394002508802133
(1676418432.563854) can0 2D0#06DB0900100000D4
(1676418432.566905) can0 020#000007
(1676418432.566915) can0 0B4#000000002C0000E8
(1676418432.567597) can0 025#0F900FC378787806
(1676418432.568878) can0 024#020301F7620E8019
(1676418432.568885) can0 260#0E00000000000078
(1676418432.573444) can0 0B0#00000000110E
(1676418432.573455) can0 0B2#00000000110E
(1676418432.573459) can0 224#0000000000000008
(1676418432.573463) can0 235#00000000003D
(1676418432.574912) can0 2C1#0800CE0022C60089
(1676418432.579696) can0 020#000007
(1676418432.579711) can0 0B4#000000002C0000E8
(1676418432.579717) can0 025#0F900FC378787806
(1676418432.580323) can0 024#020301F7620E8019
(1676418432.585734) can0 0B0#00000000110F
(1676418432.585743) can0 0B2#00000000110F
(1676418432.585748) can0 223#000000000000002D
(1676418432.587087) can0 2C4#0396002508802135
(1676418432.589832) can0 260#0E00000000000078
(1676418432.589973) can0 351#00000000
(1676418432.589977) can0 020#000007
(1676418432.590714) can0 0B4#000000002C0000E8
(1676418432.590718) can0 024#020301F6620E8018
(1676418432.591458) can0 025#0F900FC378787806
(1676418432.595228) can0 2D0#06DB0900100000D4
(1676418432.597010) can0 0B0#000000001100
(1676418432.597018) can0 0B2#000000001100
(1676418432.597022) can0 224#0000000000000008
(1676418432.598087) can0 235#00000000003D
(1676418432.603513) can0 020#000007
(1676418432.604169) can0 0B4#000000002C0000E8
(1676418432.604179) can0 025#0F900FC378787806
(1676418432.604183) can0 024#020301F6620E8018
(1676418432.606826) can0 2C1#0800D80024C60095
(1676418432.610014) can0 0B0#000000001101
(1676418432.610026) can0 0B2#000000001101
(1676418432.610534) can0 223#000000000000002D
(1676418432.610542) can0 260#0E00000000000078
(1676418432.612219) can0 2C4#0397002508802136
(1676418432.616017) can0 020#000007
(1676418432.616030) can0 0B4#000000002C0000E8
(1676418432.616655) can0 025#0F900FC378787806
(1676418432.616663) can0 024#020301F6620E8018
(1676418432.620936) can0 0B0#000000001102
(1676418432.620945) can0 0B2#000000001102
(1676418432.620950) can0 224#0000000000000008
(1676418432.621874) can0 235#00000000003D
(1676418432.627683) can0 020#000007
(1676418432.627693) can0 0B4#000000002C0000E8
(1676418432.627696) can0 025#0F900FC378787806
(1676418432.627700) can0 2D0#06DB0900100000D4
(1676418432.629184) can0 024#020301F6620D8017
(1676418432.629192) can0 260#0E00000000000078
(1676418432.631748) can0 3A0#005C000000000039
(1676418432.634507) can0 0B0#000000001103
(1676418432.634514) can0 0B2#000000001103
(1676418432.635392) can0 223#000000000000002D
(1676418432.635400) can0 2C4#039A002508802139
(1676418432.637927) can0 2C1#0800D5002AC60098
(1676418432.637956) can0 620#10000259F0402040
(1676418432.639139) can0 020#000007
(1676418432.639150) can0 0B4#000000002C0000E8
(1676418432.639158) can0 024#020301F6620E8018
(1676418432.639782) can0 025#0F900FC378787806
(1676418432.645208) can0 0B0#000000001104
(1676418432.645902) can0 0B2#000000001104
(1676418432.647499) can0 224#0000000000000008
(1676418432.647508) can0 235#00000000003D
(1676418432.647511) can0 4C7#0800012100000000
(1676418432.648830) can0 440#4202000001000000
(1676418432.650269) can0 260#0E00000000000078
(1676418432.650277) can0 351#00000000
(1676418432.651665) can0 020#000007
(1676418432.651674) can0 0B4#000000002C0000E8
(1676418432.651679) can0 025#0F900FC378787806
(1676418432.651683) can0 024#020301F7620E8019
(1676418432.657068) can0 2C4#039B00250880213A
(1676418432.657151) can0 0B0#000000001105
(1676418432.657155) can0 0B2#000000001105
(1676418432.657159) can0 223#000000000000002D
(1676418432.659641) can0 2D0#06DE0900100000D7
(1676418432.663228) can0 020#000007
(1676418432.664093) can0 0B4#000000002C0000E8
(1676418432.664102) can0 025#0F900FC378787806
(1676418432.665797) can0 024#020301F7620D8018
(1676418432.668924) can0 394#00
(1676418432.668934) can0 0B0#000000001106
(1676418432.669899) can0 0B2#000000001106
(1676418432.670856) can0 224#0000000000000008
(1676418432.670864) can0 235#00000000003D
(1676418432.673106) can0 260#0E00000000000078
(1676418432.673115) can0 2C1#0800D10024C6008E
(1676418432.675406) can0 020#000007
(1676418432.675416) can0 0B4#000000002C0000E8
(1676418432.675423) can0 025#0F900FC378787806
(1676418432.676753) can0 3B7#0000800000000000
(1676418432.676760) can0 4C3#0300120100000000
(1676418432.676764) can0 024#020301F7620D8018
(1676418432.681528) can0 2C4#039C00250880213B
(1676418432.681543) can0 0B0#000000001107
(1676418432.681549) can0 0B2#000000001107
(1676418432.681555) can0 223#000000000000002D
(1676418432.687246) can0 020#000007
(1676418432.687255) can0 0B4#000000002C0000E8
(1676418432.687259) can0 024#020301F7620D8018
(1676418432.688231) can0 025#0F900FC378787806
(1676418432.689300) can0 260#0E00000000000078
(1676418432.690688) can0 2D0#06E10900100000DA
(1676418432.694126) can0 0B0#000000001108
(1676418432.694138) can0 0B2#000000001108
(1676418432.694144) can0 224#0000000000000008
(1676418432.694149) can0 235#00000000003D
(1676418432.699992) can0 020#000007
(1676418432.700004) can0 0B4#000000002C0000E8
(1676418432.700013) can0 025#0F900FC378787806
(1676418432.700687) can0 024#020301F6620E8018
(1676418432.700694) can0 2C1#0800E30027C700A4
(1676418432.702094) can0 610#20000064C0FFFEE0
(1676418432.703847) can0 2C4#039C00250880213B
(1676418432.705492) can0 0B0#000000001109
(1676418432.705501) can0 0B2#000000001109
(1676418432.705505) can0 223#000000000000002D
(1676418432.710069) can0 260#0E00000000000078
(1676418432.710081) can0 351#00000000
(1676418432.711367) can0 020#000007
(1676418432.711375) can0 0B4#000000002C0000E8
(1676418432.711379) can0 025#0F900FC378787806
(1676418432.712092) can0 024#020301F6620E8018
(1676418432.717463) can0 0B0#00000000110A
(1676418432.717477) can0 0B2#00000000110A
(1676418432.717485) can0 224#0000000000000008
(1676418432.719225) can0 235#00000000003D
(1676418432.724269) can0 2D0#06E50900100000DE
(1676418432.724279) can0 020#000007
(1676418432.724283) can0 0B4#000000002C0000E8
(1676418432.724287) can0 025#0F900FC378787806
(1676418432.724290) can0 024#020301F7620E8019
(1676418432.728182) can0 2C4#039C00250880213B
(1676418432.729484) can0 0B0#00000000110B
(1676418432.729491) can0 0B2#00000000110B
(1676418432.729497) can0 223#000000000000002D
(1676418432.729500) can0 260#0E00000000000078
(1676418432.731835) can0 3A0#005C000000000039
(1676418432.733140) can0 2C1#0800D20023C6008E
(1676418432.735601) can0 020#000007
(1676418432.735611) can0 0B4#000000002C0000E8
(1676418432.735617) can0 025#0F900FC382828224
(1676418432.735960) can0 024#020301F8620E801A
(1676418432.742165) can0 442#4002000000000000
(1676418432.743423) can0 0B0#00000000110C
(1676418432.743431) can0 0B2#00000000110C
(1676418432.745327) can0 224#0000000000000008
(1676418432.745334) can0 235#00000000003D
(1676418432.747657) can0 020#000007
(1676418432.747671) can0 0B4#000000002C0000E8
(1676418432.747677) can0 024#020301F7620E8019
(1676418432.747683) can0 025#0F900FC378787806
(1676418432.749440) can0 260#0E00000000000078
(1676418432.751099) can0 2C4#039A002508802139
(1676418432.753665) can0 0B0#00000000110D
(1676418432.753673) can0 0B2#00000000110D
(1676418432.753678) can0 223#000000000000002D
(1676418432.754849) can0 2D0#06EA0900100000E3
(1676418432.760082) can0 020#000007
(1676418432.760091) can0 0B4#000000002C0000E8
(1676418432.760096) can0 024#020301F6620E8018
(1676418432.762279) can0 025#0F900FC378787806
(1676418432.762288) can0 3B1#0000012500000000
(1676418432.765982) can0 2C1#0800D2001AC60085
(1676418432.765995) can0 0B0#00000000110E
(1676418432.766001) can0 0B2#00000000110E
(1676418432.766140) can0 224#0000000000000008
(1676418432.768588) can0 235#00000000003D
(1676418432.769717) can0 260#0E00000000000078
(1676418432.769725) can0 351#00000000
(1676418432.771577) can0 020#000007
(1676418432.771585) can0 0B4#000000002C0000E8
(1676418432.772149) can0 025#0F900FC378787806
(1676418432.773431) can0 024#020301F6620E8018
(1676418432.774455) can0 2C4#0394002508802133
(1676418432.777794) can0 0B0#00000000110F
(1676418432.777803) can0 0B2#00000000110F
(1676418432.777807) can0 223#000000000000002D
(1676418432.783229) can0 3B3#039528
(1676418432.783240) can0 020#000007
(1676418432.784203) can0 0B4#000000002C0000E8
(1676418432.784212) can0 025#0F900FC378787806
(1676418432.784217) can0 024#020301F7620E8019
(1676418432.785885) can0 2D0#06EF0900100000E8
(1676418432.785893) can0 4C6#0700010000000000
(1676418432.790255) can0 0B0#000000001100
(1676418432.790263) can0 0B2#000000001100
(1676418432.791843) can0 224#0000000000000008
(1676418432.791850) can0 235#00000000003D
(1676418432.794031) can0 260#0E00000000000078
(1676418432.795882) can0 020#000007
(1676418432.795891) can0 0B4#000000002C0000E8
(1676418432.795899) can0 024#020301F7620D8018
(1676418432.796895) can0 025#0F900FC378787806
(1676418432.796905) can0 2C1#0800DE001BC60092
(1676418432.797812) can0 2C4#038F00250880212E
(1676418432.802092) can0 0B0#000000001101
(1676418432.802101) can0 0B2#000000001101
(1676418432.803699) can0 223#000000000000002D
(1676418432.808029) can0 020#000007
(1676418432.808038) can0 0B4#000000002C0000E8
(1676418432.809050) can0 024#020201F6620E8017
(1676418432.809058) can0 025#0F900FC378787806
(1676418432.809062) can0 260#0E00000000000078
(1676418432.815034) can0 0B0#000000001102
(1676418432.815046) can0 0B2#000000001102
(1676418432.815052) can0 224#0000000000000008
(1676418432.816197) can0 235#00000000003D
(1676418432.817620) can0 2D0#06EE0900100000E7
(1676418432.819872) can0 020#000007
(1676418432.819879) can0 0B4#000000002C0000E8
(1676418432.819883) can0 025#0F900FC378787806
(1676418432.821469) can0 024#020201F6620E7F16
(1676418432.821476) can0 2C4#039000250880212F
(1676418432.825984) can0 0B0#000000001103
(1676418432.825995) can0 0B2#000000001103
(1676418432.826000) can0 223#000000000000002D
(1676418432.828114) can0 2C1#0800CA000AC6006D
(1676418432.829606) can0 260#0E00000000000078
(1676418432.830363) can0 351#00000000
(1676418432.832996) can0 3A0#005C000000000039
(1676418432.833008) can0 020#000007
(1676418432.833014) can0 0B4#000000002C0000E8
(1676418432.833019) can0 025#0F900FC378787806
(1676418432.833026) can0 024#020301F7620D8018
(1676418432.837986) can0 0B0#000000001104
(1676418432.837995) can0 0B2#000000001104
(1676418432.837999) can0 224#0000000000000008
(1676418432.839842) can0 235#00000000003D
(1676418432.839850) can0 440#4202000001000000
(1676418432.839853) can0 3B4#0000ADB080000000
(1676418432.844023) can0 020#000007
(1676418432.844033) can0 0B4#000000002C0000E8
(1676418432.845469) can0 024#020301F7620D8018
(1676418432.845477) can0 025#0F900FC378787806
(1676418432.845481) can0 2C4#039000250880212F
(1676418432.850483) can0 2D0#06E90900100000E2
(1676418432.850492) can0 260#0E00000000000078
(1676418432.850496) can0 0B0#000000001105
(1676418432.850500) can0 0B2#000000001105
(1676418432.850504) can0 223#000000000000002D
(1676418432.856019) can0 020#000007
(1676418432.856029) can0 0B4#000000002C0000E8
(1676418432.856897) can0 025#0F900FC378787806
(1676418432.856905) can0 024#020301F7620E8019
(1676418432.859654) can0 2C1#0800F50006C70095
(1676418432.862133) can0 0B0#000000001106
(1676418432.862143) can0 0B2#000000001106
(1676418432.862147) can0 224#0000000000000008
(1676418432.862152) can0 235#00000000003D
(1676418432.867932) can0 020#000007
(1676418432.867946) can0 0B4#000000002C0000E8
(1676418432.869008) can0 025#0F900FC378787806
(1676418432.869015) can0 024#020301F6620E8018
(1676418432.869019) can0 2C4#038F00250880212E
(1676418432.869371) can0 260#0E00000000000078
(1676418432.874302) can0 0B0#000000001107
(1676418432.874316) can0 0B2#000000001107
(1676418432.874322) can0 223#000000000000002D
(1676418432.881174) can0 020#000007
(1676418432.881188) can0 0B4#000000002C0000E8
(1676418432.881194) can0 025#0F900FC378787806
(1676418432.881202) can0 024#020301F6620E8018
(1676418432.881209) can0 2D0#06E10900100000DA
(1676418432.886149) can0 0B0#000000001108
(1676418432.886157) can0 0B2#000000001108
(1676418432.886161) can0 224#0000000000000008
(1676418432.887230) can0 235#00000000003D
(1676418432.890175) can0 260#0E00000000000078
(1676418432.890187) can0 351#00000000
(1676418432.891747) can0 2C1#0800D30010C6007C
(1676418432.891826) can0 020#000007
(1676418432.892538) can0 0B4#000000002C0000E8
(1676418432.893579) can0 024#020301F6620E8018
(1676418432.893591) can0 025#0F900FC378787806
(1676418432.895300) can0 2C4#0392002508802131
(1676418432.898439) can0 0B0#000000001109
(1676418432.898449) can0 0B2#000000001109
(1676418432.899856) can0 223#000000000000002D
(1676418432.903910) can0 020#000007
(1676418432.903920) can0 0B4#000000002C0000E8
(1676418432.903924) can0 025#0F900FC378787806
(1676418432.905045) can0 024#020301F7620E8019
(1676418432.910036) can0 260#0E00000000000078
(1676418432.910046) can0 0B0#00000000110A
(1676418432.911359) can0 0B2#00000000110A
(1676418432.911367) can0 224#0000000000000008
(1676418432.913141) can0 235#00000000003D
(1676418432.913149) can0 2D0#06DA0900100000D3
(1676418432.916551) can0 020#000007
(1676418432.916567) can0 0B4#000000002C0000E8
(1676418432.917264) can0 025#0F900FC378787806
(1676418432.917270) can0 2C4#0391002508802130
(1676418432.920041) can0 024#020301F6620E8018
(1676418432.922553) can0 0B0#00000000110B
(1676418432.922567) can0 0B2#00000000110B
(1676418432.922572) can0 223#000000000000002D
(1676418432.923959) can0 2C1#0800D00010C60079
(1676418432.928495) can0 020#000007
(1676418432.928504) can0 0B4#000000002C0000E8
(1676418432.929271) can0 025#0F900FC378787806
(1676418432.929277) can0 024#020301F6620E8018
(1676418432.929282) can0 260#0E00000000000078
(1676418432.931942) can0 442#4002000000000000
(1676418432.931950) can0 3A0#005C000000000039
(1676418432.934029) can0 0B0#00000000110C
(1676418432.934037) can0 0B2#00000000110C
(1676418432.934041) can0 224#0000000000000008
(1676418432.935491) can0 235#00000000003D
(1676418432.938635) can0 620#10000259F0402040
(1676418432.940121) can0 2C4#0393002508802132
(1676418432.940135) can0 020#000007
(1676418432.940139) can0 0B4#000000002C0000E8
(1676418432.940143) can0 025#0F900FC378787806
(1676418432.941161) can0 024#020301F6620E8018
(1676418432.944866) can0 2D0#06D40900100000CD
(1676418432.946191) can0 0B0#00000000110D
(1676418432.946197) can0 0B2#00000000110D
(1676418432.946201) can0 223#000000000000002D
(1676418432.950057) can0 260#0E00000000000078
(1676418432.950068) can0 351#00000000
(1676418432.952449) can0 020#000007
(1676418432.952459) can0 0B4#000000002C0000E8
(1676418432.952465) can0 025#0F900FC378787806
(1676418432.953549) can0 024#020301F6620E8018
(1676418432.953568) can0 4C1#0100090000000000
(1676418432.954808) can0 2C1#0800CC0007C6006C
(1676418432.958280) can0 0B0#00000000110E
(1676418432.958288) can0 0B2#00000000110E
(1676418432.959814) can0 224#0000000000000008
(1676418432.959821) can0 235#00000000003D
(1676418432.962928) can0 2C4#0388002508802127
(1676418432.964565) can0 020#000007
(1676418432.964599) can0 0B4#000000002C0000E8
(1676418432.964606) can0 025#0F900FC378787806
(1676418432.964611) can0 024#020301F6620D8017
(1676418432.969072) can0 394#00
(1676418432.969080) can0 260#0E00000000000078
(1676418432.970099) can0 0B0#00000000110F
(1676418432.970109) can0 0B2#00000000110F
(1676418432.971128) can0 223#000000000000002D
(1676418432.976609) can0 020#000007
(1676418432.976634) can0 0B4#000000002C0000E8
(1676418432.976640) can0 025#0F900FC378787806
(1676418432.978292) can0 2D0#06D00900100000C9
(1676418432.978299) can0 3B7#0000800000000000
(1676418432.978303) can0 024#020301F5620E8017
(1676418432.980409) can0 38A#0800040000
(1676418432.982898) can0 0B0#000000001100
(1676418432.982908) can0 0B2#000000001100
(1676418432.983777) can0 224#0000000000000008
(1676418432.983786) can0 235#00000000003D
(1676418432.985157) can0 623#1900000000000000
(1676418432.986631) can0 2C1#0800DB000EC60082
(1676418432.986639) can0 2C4#038B00250880212A
(1676418432.988121) can0 020#000007
(1676418432.988129) can0 0B4#000000002C0000E8
(1676418432.988133) can0 025#0F900FC378787806
(1676418432.989795) can0 024#020301F6620E8018
(1676418432.989802) can0 260#0E00000000000078
(1676418432.994250) can0 624#1A00414949400000
(1676418432.994259) can0 0B0#000000001101
(1676418432.994264) can0 0B2#000000001101
(1676418432.994884) can0 223#000000000000002D
(1676418433.000883) can0 020#000007
(1676418433.000894) can0 0B4#000000002C0000E8
(1676418433.000898) can0 024#020301F7620D8018
(1676418433.000901) can0 025#0F900FC382828224
(1676418433.003682) can0 630#1700000000000000
(1676418433.006804) can0 0B0#000000001102
(1676418433.006814) can0 0B2#000000001102
(1676418433.006818) can0 224#0000000000000008
(1676418433.006822) can0 235#00000000003D
(1676418433.007696) can0 2D0#06CE0900100000C7
(1676418433.009952) can0 260#0E00000000000078
(1676418433.009961) can0 2C4#038A002508802129
(1676418433.010652) can0 351#00000000
(1676418433.012921) can0 020#000007
(1676418433.012930) can0 0B4#000000002C0000E8
(1676418433.012937) can0 024#020201F7620D7F16
(1676418433.014193) can0 025#0F900FC378787806
(1676418433.018962) can0 2C1#0800DC0003C60078
(1676418433.018975) can0 0B0#000000001103
(1676418433.019965) can0 0B2#000000001103
(1676418433.019972) can0 223#000000000000002D
(1676418433.019976) can0 423#00
(1676418433.025309) can0 020#000007
(1676418433.025323) can0 0B4#000000002C0000E8
(1676418433.025329) can0 024#020301F6620D8017
(1676418433.026098) can0 025#0F900FC378787806
(1676418433.029179) can0 440#4202000001000000
(1676418433.029188) can0 260#0E00000000000078
(1676418433.030895) can0 0B0#000000001104
(1676418433.030904) can0 0B2#000000001104
(1676418433.030910) can0 224#0000000000000008
(1676418433.032530) can0 235#00000000003D
(1676418433.032537) can0 3A0#005C000000000039
(1676418433.033897) can0 2C4#038C00250880212B
(1676418433.037196) can0 020#000007
(1676418433.037210) can0 0B4#000000002C0000E8
(1676418433.037216) can0 025#0F900FC378787806
(1676418433.038327) can0 024#020301F6620E8018
(1676418433.039752) can0 2D0#06CB0900100000C4
(1676418433.043102) can0 0B0#000000001105
(1676418433.044193) can0 0B2#000000001105
(1676418433.044200) can0 223#000000000000002D
(1676418433.050104) can0 020#000007
(1676418433.050117) can0 0B4#000000002C0000E8
(1676418433.050123) can0 025#0F900FC378787806
(1676418433.050128) can0 260#0E00000000000078
(1676418433.050133) can0 024#020301F6620E8018
(1676418433.051705) can0 2C1#0800DB0005C60079
(1676418433.055394) can0 0B0#000000001106
(1676418433.055406) can0 0B2#000000001106
(1676418433.055411) can0 224#0000000000000008
(1676418433.055415) can0 235#00000000003D
(1676418433.057483) can0 2C4#038B00250880212A
(1676418433.060778) can0 020#000007
(1676418433.060792) can0 0B4#000000002C0000E8
(1676418433.061602) can0 024#020301F7620E8019
(1676418433.062459) can0 025#0F900FC378787806
(1676418433.067278) can0 0B0#000000001107
(1676418433.067288) can0 0B2#000000001107
(1676418433.067291) can0 223#000000000000002D
(1676418433.069867) can0 260#0E00000000000078
(1676418433.069876) can0 351#00000000
(1676418433.071583) can0 2D0#06C70900100000C0
(1676418433.072791) can0 020#000007
(1676418433.072800) can0 0B4#000000002C0000E8
(1676418433.072806) can0 025#0F900FC378787806
(1676418433.073507) can0 024#020301F8620E801A
(1676418433.078981) can0 0B0#000000001108
(1676418433.078990) can0 0B2#000000001108
(1676418433.078994) can0 224#0000000000000008
(1676418433.079679) can0 235#00000000003D
(1676418433.081152) can0 2C4#038C00250880212B
(1676418433.082456) can0 2C1#0800C70009C60069
(1676418433.084963) can0 020#000007
(1676418433.084972) can0 0B4#000000002C0000E8
(1676418433.084976) can0 025#0F900FC378787806
(1676418433.086281) can0 024#020301F6620E8018
(1676418433.090413) can0 260#0E00000000000078
(1676418433.090426) can0 0B0#000000001109
(1676418433.091333) can0 0B2#000000001109
(1676418433.091340) can0 223#000000000000002D
(1676418433.097508) can0 020#000007
(1676418433.097517) can0 0B4#000000002C0000E8
(1676418433.098872) can0 025#0F900FC378787806
(1676418433.098879) can0 024#020301F6620E8018
(1676418433.103209) can0 0B0#00000000110A
(1676418433.103217) can0 0B2#00000000110A
(1676418433.103221) can0 224#0000000000000008
(1676418433.104396) can0 235#00000000003D
(1676418433.104404) can0 2D0#06C70900100000C0
(1676418433.104409) can0 2C4#038E00250880212D
(1676418433.109241) can0 020#000007
(1676418433.109258) can0 0B4#000000002C0000E8
(1676418433.109264) can0 024#020301F7620E8019
(1676418433.109268) can0 025#0F900FC378787806
(1676418433.111158) can0 260#0E00000000000078
(1676418433.113843) can0 2C1#0800D80016C60087
(1676418433.115628) can0 0B0#00000000110B
(1676418433.115635) can0 0B2#00000000110B
(1676418433.115639) can0 223#000000000000002D
(1676418433.121035) can0 442#4002000000000000
(1676418433.121044) can0 020#000007
(1676418433.121049) can0 0B4#000000002C0000E8
(1676418433.121952) can0 025#0F900FC378787806
(1676418433.121959) can0 024#020301F7620D8018
(1676418433.127696) can0 0B0#00000000110C
(1676418433.127709) can0 0B2#00000000110C
(1676418433.127715) can0 224#0000000000000008
(1676418433.127721) can0 235#00000000003D
(1676418433.128220) can0 2C4#0389002508802128
(1676418433.130287) can0 260#0E00000000000078
(1676418433.130296) can0 351#00000000
(1676418433.131660) can0 3A0#005C000000000039
(1676418433.133270) can0 020#000007
(1676418433.133278) can0 0B4#000000002C0000E8
(1676418433.133281) can0 025#0F900FC378787806
(1676418433.134153) can0 024#020301F6620D8017
(1676418433.135329) can0 2D0#06C90900100000C2
(1676418433.139473) can0 0B0#00000000110D
(1676418433.141041) can0 0B2#00000000110D
(1676418433.141049) can0 223#000000000000002D
(1676418433.145429) can0 020#000007
(1676418433.145439) can0 0B4#000000002C0000E8
(1676418433.145442) can0 025#0F900FC378787806
(1676418433.145446) can0 2C1#0800DC0015C6008A
(1676418433.147108) can0 024#020301F6620E8018
(1676418433.149650) can0 260#0E00000000000078
(1676418433.150950) can0 0B0#00000000110E
(1676418433.150957) can0 0B2#00000000110E
(1676418433.150961) can0 224#0000000000000008
(1676418433.152030) can0 235#00000000003D
(1676418433.152038) can0 2C4#0387002508802126
(1676418433.157679) can0 020#000007
(1676418433.157689) can0 0B4#000000002C0000E8
(1676418433.158320) can0 024#020301F7620E8019
(1676418433.159227) can0 025#0F900FC378787806
(1676418433.163762) can0 0B0#00000000110F
(1676418433.163776) can0 0B2#00000000110F
(1676418433.163784) can0 223#000000000000002D
(1676418433.163788) can0 622#1200E83800000000
(1676418433.166992) can0 2D0#06C90900100000C2
(1676418433.169416) can0 020#000007
(1676418433.169425) can0 0B4#000000002C0000E8
(1676418433.169430) can0 025#0F900FC378787806
(1676418433.170000) can0 024#020301F7620D8018
(1676418433.170006) can0 260#0E00000000000078
(1676418433.172294) can0 4C8#0900010200000000
(1676418433.175306) can0 0B0#000000001100
(1676418433.175315) can0 0B2#000000001100
(1676418433.175319) can0 224#0000000000000008
(1676418433.176801) can0 235#00000000003D
(1676418433.176808) can0 2C4#0387002508802126
(1676418433.176895) can0 2C1#0800DA0010C60083
(1676418433.182331) can0 020#000007
(1676418433.182341) can0 0B4#000000002C0000E8
(1676418433.182344) can0 025#0F900FC378787806
(1676418433.182350) can0 024#020201F7620D7F16
(1676418433.187422) can0 0B0#000000001101
(1676418433.188832) can0 0B2#000000001101
(1676418433.188846) can0 223#000000000000002D
(1676418433.190394) can0 260#0E00000000000078
(1676418433.190408) can0 351#00000000
(1676418433.191362) can0 612#2700FFFEE045FFFE
(1676418433.193134) can0 020#000007
(1676418433.193142) can0 0B4#000000002C0000E8
(1676418433.193146) can0 025#0F900FC378787806
(1676418433.193881) can0 024#020201F6620E8017
(1676418433.199683) can0 2D0#06C90900100000C2
(1676418433.199697) can0 2C4#0389002508802128
(1676418433.199703) can0 0B0#000000001102
(1676418433.200380) can0 0B2#000000001102
(1676418433.200389) can0 224#0000000000000008
(1676418433.202033) can0 235#00000000003D
(1676418433.202049) can0 610#20000064C0FFFEE0
(1676418433.206178) can0 020#000007
(1676418433.206189) can0 0B4#000000002C0000E8
(1676418433.207386) can0 024#020201F6620E7F16
(1676418433.207400) can0 025#0F900FC378787806
(1676418433.209564) can0 2C1#0800D6000AC60079
(1676418433.209575) can0 260#0E00000000000078
(1676418433.212354) can0 0B0#000000001103
(1676418433.213384) can0 0B2#000000001103
(1676418433.213393) can0 223#000000000000002D
(1676418433.217439) can0 020#000007
(1676418433.217450) can0 0B4#000000002C0000E8
(1676418433.218853) can0 025#0F900FC378787806
(1676418433.218860) can0 024#020201F6620E8118
(1676418433.218864) can0 440#4202000001000000
(1676418433.221994) can0 4DD#1E00000100000000
(1676418433.222005) can0 2C4#038D00250880212C
(1676418433.223317) can0 0B0#000000001104
(1676418433.223327) can0 0B2#000000001104
(1676418433.223331) can0 224#0000000000000008
(1676418433.223335) can0 235#00000000003D
(1676418433.229809) can0 020#000007
(1676418433.229837) can0 0B4#000000002C0000E8
(1676418433.229844) can0 025#0F900FC378787806
(1676418433.229849) can0 260#0E00000000000078
(1676418433.229855) can0 024#020301F7620D8018
(1676418433.230552) can0 2D0#06C80900100000C1
(1676418433.230560) can0 3A0#005C000000000039
(1676418433.239783) can0 0B0#000000001105
(1676418433.239795) can0 0B2#000000001105
(1676418433.239801) can0 223#000000000000002D
(1676418433.240785) can0 620#10000259F0402040
(1676418433.240794) can0 2C1#0800BD000BC50060
(1676418433.240799) can0 020#000007
(1676418433.242416) can0 0B4#000000002C0000E8
(1676418433.242430) can0 025#0F900FC382828224
(1676418433.242434) can0 024#020301F7620E8019
(1676418433.245796) can0 2C4#038A002508802129
(1676418433.247539) can0 0B0#000000001106
(1676418433.247547) can0 0B2#000000001106
(1676418433.247551) can0 224#0000000000000008
(1676418433.249456) can0 235#00000000003D
(1676418433.249464) can0 260#0E00000000000078
(1676418433.250809) can0 351#00000000
(1676418433.253827) can0 020#000007
(1676418433.253841) can0 0B4#000000002C0000E8
(1676418433.253847) can0 025#0F900FC378787806
(1676418433.255725) can0 024#020301F6620E8018
(1676418433.259695) can0 0B0#000000001107
(1676418433.259707) can0 0B2#000000001107
(1676418433.261689) can0 223#000000000000002D
(1676418433.261697) can0 2D0#06C60900100000BF
(1676418433.266593) can0 020#000007
(1676418433.266603) can0 0B4#000000002C0000E8
(1676418433.266607) can0 024#020301F6620E8018
(1676418433.266611) can0 025#0F900FC378787806
(1676418433.268886) can0 394#00
(1676418433.268894) can0 2C4#0388002508802127
(1676418433.269704) can0 260#0E00000000000078
(1676418433.271837) can0 0B0#000000001108
(1676418433.271845) can0 0B2#000000001108
(1676418433.271849) can0 224#0000000000000008
(1676418433.271853) can0 235#00000000003D
(1676418433.272566) can0 2C1#0800CB0014C60078
(1676418433.277949) can0 020#000007
(1676418433.277964) can0 0B4#000000002C0000E8
(1676418433.277970) can0 3B7#0000800000000000
(1676418433.279043) can0 024#020201F6620E8017
(1676418433.279051) can0 025#0F900FC378787806
(1676418433.284056) can0 0B0#000000001109
(1676418433.284064) can0 0B2#000000001109
(1676418433.284068) can0 223#000000000000002D
(1676418433.290161) can0 020#000007
(1676418433.290170) can0 0B4#000000002C0000E8
(1676418433.291073) can0 260#0E00000000000078
(1676418433.291080) can0 025#0F900FC378787806
(1676418433.293452) can0 024#020201F6620E8017
(1676418433.293460) can0 2C4#0388002508802127
(1676418433.293464) can0 2D0#06C60900100000BF
(1676418433.295495) can0 3B3#038828
(1676418433.295503) can0 0B0#00000000110A
(1676418433.296131) can0 0B2#00000000110A
(1676418433.296137) can0 224#0000000000000008
(1676418433.296142) can0 235#00000000003D
(1676418433.302086) can0 020#000007
(1676418433.302102) can0 0B4#000000002C0000E8
(1676418433.302108) can0 025#0F900FC378787806
(1676418433.303752) can0 024#020301F6620D8017
(1676418433.303760) can0 2C1#0800CD0014C6007A
(1676418433.307858) can0 0B0#00000000110B
(1676418433.307866) can0 0B2#00000000110B
(1676418433.309351) can0 223#000000000000002D
(1676418433.309361) can0 260#0E00000000000078
(1676418433.310698) can0 351#00000000
(1676418433.310706) can0 442#4002000000000000
(1676418433.313729) can0 020#000007
(1676418433.313736) can0 0B4#000000002C0000E8
(1676418433.313741) can0 024#020201F5620E7F15
(1676418433.315157) can0 025#0F900FC378787806
(1676418433.316286) can0 2C4#0381002508802120
(1676418433.319866) can0 0B0#00000000110C
(1676418433.319880) can0 0B2#00000000110C
(1676418433.319885) can0 224#0000000000000008
(1676418433.321597) can0 235#00000000003D
(1676418433.321606) can0 611#210010A0000282AA
(1676418433.326620) can0 020#000007
(1676418433.326634) can0 0B4#000000002C0000E8
(1676418433.326638) can0 2D0#06C50900100000BE
(1676418433.326642) can0 024#020301F6620E8018
(1676418433.326645) can0 025#0F900FC378787806
(1676418433.330187) can0 260#0E00000000000078
(1676418433.331866) can0 3A0#005C000000000039
(1676418433.331877) can0 0B0#00000000110D
(1676418433.331883) can0 0B2#00000000110D
(1676418433.332480) can0 223#000000000000002D
(1676418433.335957) can0 2C1#0800C90010C60072
(1676418433.338167) can0 020#000007
(1676418433.338178) can0 0B4#000000002C0000E8
(1676418433.338184) can0 025#0F900FC378787806
(1676418433.338189) can0 024#020301F6620D8017
(1676418433.339939) can0 2C4#0385002508802124
(1676418433.344188) can0 0B0#00000000110E
(1676418433.344197) can0 0B2#00000000110E
(1676418433.345760) can0 224#0000000000000008
(1676418433.345768) can0 235#00000000003D
(1676418433.350805) can0 020#000007
(1676418433.350813) can0 0B4#000000002C0000E8
(1676418433.350817) can0 260#0E00000000000078
(1676418433.350821) can0 025#0F900FC378787806
(1676418433.352661) can0 024#020301F7620D8018
(1676418433.356519) can0 0B0#00000000110F
(1676418433.357408) can0 0B2#00000000110F
(1676418433.357414) can0 223#000000000000002D
(1676418433.357418) can0 2D0#06C40900100000BD
(1676418433.361430) can0 4DC#1D00030200000000
(1676418433.361442) can0 020#000007
(1676418433.362557) can0 0B4#000000002C0000E8
(1676418433.362566) can0 024#020301F7620E8019
(1676418433.362571) can0 025#0F900FC378787806
(1676418433.364078) can0 2C4#0383002508802122
(1676418433.367894) can0 2C1#0800DD001BC60091
(1676418433.367908) can0 0B0#000000001100
(1676418433.367914) can0 0B2#000000001100
(1676418433.367920) can0 224#0000000000000008
(1676418433.369229) can0 235#00000000003D
(1676418433.369236) can0 260#0E00000000000078
(1676418433.370677) can0 351#00000000
(1676418433.370687) can0 38C#0000000000000039
(1676418433.374060) can0 020#000007
(1676418433.374069) can0 0B4#000000002C0000E8
(1676418433.374073) can0 025#0F900FC378787806
(1676418433.375273) can0 024#020301F6620E8018
(1676418433.380143) can0 0B0#000000001101
(1676418433.380155) can0 0B2#000000001101
(1676418433.380161) can0 223#000000000000002D
(1676418433.381694) can0 381#0000022000000000
(1676418433.386408) can0 020#000007
(1676418433.386424) can0 0B4#000000002C0000E8
(1676418433.386429) can0 025#0F900FC378787806
(1676418433.387837) can0 024#020301F6620E8018
(1676418433.387844) can0 2C4#0386002508802125
(1676418433.389203) can0 2D0#06C10900100000BA
(1676418433.389210) can0 260#0E00000000000078
(1676418433.391990) can0 0B0#000000001102
(1676418433.391999) can0 0B2#000000001102
(1676418433.392004) can0 224#0000000000000008
(1676418433.392585) can0 235#00000000003D
(1676418433.399051) can0 020#000007
(1676418433.399073) can0 0B4#000000002C0000E8
(1676418433.399081) can0 025#0F900FC378787806
(1676418433.399086) can0 024#020301F7620D8018
(1676418433.400261) can0 2C1#0800C20016C60071
(1676418433.401176) can0 3B0#0000003B0000
(1676418433.403985) can0 0B0#000000001103
(1676418433.403998) can0 0B2#000000001103
(1676418433.406194) can0 223#000000000000002D
(1676418433.408561) can0 440#4202000001000000
(1676418433.410202) can0 260#0E00000000000078
(1676418433.410210) can0 020#000007
(1676418433.410213) can0 0B4#000000002C0000E8
(1676418433.411309) can0 025#0F900FC378787806
(1676418433.411316) can0 2C4#0386002508802125
(1676418433.411320) can0 024#020301F7620D8018
(1676418433.416431) can0 0B0#000000001104
(1676418433.417252) can0 0B2#000000001104
(1676418433.417260) can0 224#0000000000000008
(1676418433.418645) can0 235#00000000003D
(1676418433.420771) can0 2D0#06BD0900100000B6
(1676418433.422172) can0 020#000007
(1676418433.422191) can0 0B4#000000002C0000E8
(1676418433.422201) can0 025#0F900FC378787806
(1676418433.422206) can0 024#020301F7620D8018
(1676418433.427940) can0 0B0#000000001105
(1676418433.427949) can0 0B2#000000001105
(1676418433.429093) can0 223#000000000000002D
(1676418433.429099) can0 260#0E00000000000078
(1676418433.430613) can0 351#00000000
(1676418433.430621) can0 3A0#005C000000000039
(1676418433.430625) can0 2C1#0800D00014C6007D
(1676418433.434409) can0 020#000007
(1676418433.434417) can0 0B4#000000002C0000E8
(1676418433.435552) can0 025#0F900FC378787806
(1676418433.435559) can0 2C4#0387002508802126
(1676418433.438192) can0 024#020301F6620D8017
(1676418433.440601) can0 0B0#000000001106
(1676418433.440611) can0 0B2#000000001106
(1676418433.440615) can0 224#0000000000000008
(1676418433.440619) can0 235#00000000003D
(1676418433.446627) can0 020#000007
(1676418433.446639) can0 0B4#000000002C0000E8
(1676418433.447542) can0 025#0F900FC378787806
(1676418433.447549) can0 024#020201F6620D8117
(1676418433.450062) can0 260#0E00000000000078
(1676418433.452087) can0 0B0#000000001107
(1676418433.452094) can0 0B2#000000001107
(1676418433.453637) can0 223#000000000000002D
(1676418433.453647) can0 2D0#06BD0900100000B6
(1676418433.453777) can0 621#1100000000000000
(1676418433.458024) can0 2C4#0385002508802124
(1676418433.458035) can0 020#000007
(1676418433.458041) can0 0B4#000000002C0000E8
(1676418433.458047) can0 024#020301F7620D8018
(1676418433.458832) can0 025#0F900FC378787806
(1676418433.460906) can0 380#0000000000001900
(1676418433.462723) can0 2C1#0800D2001CC60087
(1676418433.464212) can0 0B0#000000001108
(1676418433.464219) can0 0B2#000000001108
(1676418433.464222) can0 224#0000000000000008
(1676418433.465485) can0 235#00000000003D
(1676418433.470136) can0 260#0E00000000000078
(1676418433.470151) can0 020#000007
(1676418433.471706) can0 0B4#000000002C0000E8
(1676418433.471712) can0 025#0F900FC378787806
(1676418433.473912) can0 024#020201F7620C8016
(1676418433.473920) can0 638#13001F0000000000
(1676418433.476377) can0 0B0#000000001109
(1676418433.476388) can0 0B2#000000001109
(1676418433.476395) can0 223#000000000000002D
(1676418433.482824) can0 2C4#0386002508802125
(1676418433.482839) can0 020#000007
(1676418433.482845) can0 0B4#000000002C0000E8
(1676418433.484260) can0 025#0F900FC378787806
(1676418433.484268) can0 024#020201F6620D7F15
(1676418433.485579) can0 2D0#06BF0900100000B8
(1676418433.488238) can0 0B0#00000000110A
(1676418433.488249) can0 0B2#00000000110A
(1676418433.489690) can0 224#0000000000000008
(1676418433.489779) can0 235#00000000003D
(1676418433.489784) can0 260#0E00000000000078
(1676418433.490904) can0 351#00000000
(1676418433.490912) can0 3A1#0000000000FF0000
(1676418433.494453) can0 020#000007
(1676418433.494461) can0 0B4#000000002C0000E8
(1676418433.494465) can0 025#0F900FC378787806
(1676418433.494469) can0 2C1#0800D30019C60085
(1676418433.495761) can0 024#020201F7620E8119
(1676418433.500466) can0 0B0#00000000110B
(1676418433.500475) can0 0B2#00000000110B
(1676418433.501625) can0 223#000000000000002D
(1676418433.501631) can0 442#4002000000000000
(1676418433.504907) can0 2C4#0387002508802126
(1676418433.506548) can0 020#000007
(1676418433.506559) can0 0B4#000000002C0000E8
(1676418433.506652) can0 024#020301F7620D8018
(1676418433.506660) can0 025#0F900FC378787806
(1676418433.510501) can0 260#0E00000000000078
(1676418433.510510) can0 382#1919
(1676418433.511728) can0 383#0000000000000000
(1676418433.511736) can0 0B0#00000000110C
(1676418433.512568) can0 0B2#00000000110C
(1676418433.512577) can0 224#0000000000000008
(1676418433.512582) can0 235#00000000003D
(1676418433.515968) can0 2D0#06BE0900100000B7
(1676418433.518832) can0 020#000007
(1676418433.518841) can0 0B4#000000002C0000E8
(1676418433.520063) can0 024#020301F7620D8018
(1676418433.520072) can0 025#0F900FC382828224
(1676418433.524628) can0 0B0#00000000110D
(1676418433.524636) can0 0B2#00000000110D
(1676418433.525726) can0 223#000000000000002D
(1676418433.525733) can0 2C1#0800D8002EC6009F
(1676418433.528259) can0 2C4#0387002508802126
(1676418433.530037) can0 260#0E00000000000078
(1676418433.530047) can0 020#000007
(1676418433.531250) can0 0B4#000000002C0000E8
(1676418433.531259) can0 024#020301F7620E8019
(1676418433.531265) can0 3A0#005C000000000039
(1676418433.531270) can0 025#0F900FC378787806
(1676418433.537051) can0 0B0#00000000110E
(1676418433.537060) can0 0B2#00000000110E
(1676418433.537064) can0 224#0000000000000008
(1676418433.538467) can0 235#00000000003D
(1676418433.538473) can0 620#10000259F0402040
(1676418433.543337) can0 020#000007
(1676418433.543350) can0 0B4#000000002C0000E8
(1676418433.543356) can0 025#0F900FC378787806
(1676418433.544786) can0 024#020301F6620F8019
(1676418433.548593) can0 2D0#06C00900100000B9
(1676418433.548604) can0 0B0#00000000110F
(1676418433.548610) can0 0B2#00000000110F
(1676418433.549728) can0 223#000000000000002D
(1676418433.549738) can0 260#0E00000000000078
(1676418433.550941) can0 351#00000000
(1676418433.552242) can0 2C4#0386002508802125
(1676418433.554901) can0 020#000007
(1676418433.554913) can0 0B4#000000002C0000E8
(1676418433.554919) can0 025#0F900FC378787806
(1676418433.554924) can0 024#020201F6620E7F16
(1676418433.558100) can0 2C1#0800CF0025C6008D
(1676418433.560629) can0 0B0#000000001100
(1676418433.560637) can0 0B2#000000001100
(1676418433.560641) can0 224#0000000000000008
(1676418433.561263) can0 235#00000000003D
(1676418433.567192) can0 020#000007
(1676418433.567207) can0 0B4#000000002C0000E8
(1676418433.567211) can0 024#020201F6620E7F16
(1676418433.567215) can0 025#0F900FC378787806
(1676418433.568664) can0 394#00
(1676418433.569665) can0 260#0E00000000000078
(1676418433.573243) can0 0B0#000000001101
(1676418433.574245) can0 0B2#000000001101
(1676418433.574253) can0 223#000000000000002D
(1676418433.575638) can0 2C4#0387002508802126
(1676418433.578990) can0 020#000007
(1676418433.578999) can0 0B4#000000002C0000E8
(1676418433.579004) can0 3B7#0000800000000000
(1676418433.579008) can0 024#020201F7620E8018
(1676418433.581049) can0 025#0F900FC378787806
(1676418433.581062) can0 2D0#06C20900100000BB
(1676418433.584502) can0 0B0#000000001102
(1676418433.584509) can0 0B2#000000001102
(1676418433.584513) can0 224#0000000000000008
(1676418433.584517) can0 235#00000000003D
(1676418433.590907) can0 260#0E00000000000078
(1676418433.590918) can0 2C1#0800DB001CC60090
(1676418433.590924) can0 020#000007
(1676418433.590930) can0 0B4#000000002C0000E8
(1676418433.591511) can0 025#0F900FC378787806
(1676418433.592951) can0 024#020301F7620E8019
(1676418433.596676) can0 0B0#000000001103
(1676418433.596685) can0 0B2#000000001103
(1676418433.598435) can0 223#000000000000002D
(1676418433.598445) can0 440#4202000001000000
(1676418433.599630) can0 2C4#0388002508802127
(1676418433.603078) can0 020#000007
(1676418433.603088) can0 0B4#000000002C0000E8
(1676418433.604040) can0 025#0F900FC378787806
(1676418433.604047) can0 024#020301F6620E8018
(1676418433.609175) can0 0B0#000000001104
(1676418433.609189) can0 0B2#000000001104
(1676418433.609194) can0 224#0000000000000008
(1676418433.609199) can0 235#00000000003D
(1676418433.609203) can0 4C3#0300120100000000
(1676418433.610788) can0 260#0E00000000000078
(1676418433.610796) can0 351#00000000
(1676418433.610815) can0 2D0#06C30900100000BC
(1676418433.615021) can0 020#000007
(1676418433.615030) can0 0B4#000000002C0000E8
(1676418433.615034) can0 024#020301F6620E8018
(1676418433.616295) can0 025#0F900FC378787806
(1676418433.617844) can0 4C7#0800012100000000
(1676418433.620813) can0 0B0#000000001105
(1676418433.620824) can0 0B2#000000001105
(1676418433.620832) can0 223#000000000000002D
(1676418433.620837) can0 2C1#0800CF0018C60080
(1676418433.622126) can0 2C4#0388002508802127
(1676418433.627175) can0 020#000007
(1676418433.627188) can0 0B4#000000002C0000E8
(1676418433.628000) can0 024#020201F6620E8017
(1676418433.628007) can0 025#0F900FC378787806
(1676418433.630149) can0 260#0E00000000000078
(1676418433.630157) can0 3A0#005D000000000039
(1676418433.632717) can0 0B0#000000001106
(1676418433.632728) can0 0B2#000000001106
(1676418433.633855) can0 224#0000000000000008
(1676418433.633862) can0 235#00000000003D
(1676418433.639135) can0 020#000007
(1676418433.639145) can0 0B4#000000002C0000E8
(1676418433.639149) can0 025#0F900FC378787806
(1676418433.641123) can0 024#020201F6620D7F15
(1676418433.643061) can0 2D0#06C40900100000BD
(1676418433.644888) can0 0B0#000000001107
(1676418433.644898) can0 0B2#000000001107
(1676418433.644902) can0 223#000000000000002D
(1676418433.646129) can0 2C4#0382002508802121
(1676418433.650235) can0 260#0E00000000000078
(1676418433.650249) can0 020#000007
(1676418433.651520) can0 0B4#000000002C0000E8
(1676418433.651526) can0 025#0F900FC378787806
(1676418433.651530) can0 024#020201F6620E8017
(1676418433.653283) can0 2C1#0800D0000CC60075
(1676418433.657085) can0 0B0#000000001108
(1676418433.658105) can0 0B2#000000001108
(1676418433.658112) can0 224#0000000000000008
(1676418433.658115) can0 235#00000000003D
(1676418433.663031) can0 020#000007
(1676418433.663045) can0 0B4#000000002C0000E8
(1676418433.664594) can0 024#020301F6620E8018
(1676418433.664604) can0 025#0F900FC378787806
(1676418433.669592) can0 0B0#000000001109
(1676418433.669601) can0 0B2#000000001109
(1676418433.669605) can0 223#000000000000002D
(1676418433.669609) can0 2C4#0386002508802125
(1676418433.670286) can0 260#0E00000000000078
(1676418433.671509) can0 351#00000000
(1676418433.675336) can0 020#000007
(1676418433.675347) can0 0B4#000000002C0000E8
(1676418433.676178) can0 2D0#06C50900100000BE
(1676418433.676184) can0 024#020301F7620D8018
(1676418433.677514) can0 025#0F900FC378787806
(1676418433.681350) can0 0B0#00000000110A
(1676418433.681371) can0 0B2#00000000110A
(1676418433.681381) can0 224#0000000000000008
(1676418433.683165) can0 235#00000000003D
(1676418433.684880) can0 2C1#0800D9001DC6008F
(1676418433.687238) can0 020#000007
(1676418433.687248) can0 0B4#000000002C0000E8
(1676418433.687254) can0 025#0F900FC378787806
(1676418433.687940) can0 024#020301F7620D8018
(1676418433.689784) can0 260#0E00000000000078
(1676418433.691106) can0 442#4002000000000000
(1676418433.693341) can0 0B0#00000000110B
(1676418433.693350) can0 0B2#00000000110B
(1676418433.693355) can0 223#000000000000002D
(1676418433.694559) can0 2C4#0387002508802126
(1676418433.699919) can0 020#000007
(1676418433.699928) can0 0B4#000000002C0000E8
(1676418433.699932) can0 025#0F900FC378787806
(1676418433.700351) can0 024#020301F6620D8017
(1676418433.701875) can0 610#20000064C0FFFEE0
(1676418433.705043) can0 0B0#00000000110C
(1676418433.705052) can0 0B2#00000000110C
(1676418433.705056) can0 224#0000000000000008
(1676418433.706378) can0 235#00000000003D
(1676418433.706388) can0 2D0#06C40900100000BD
(1676418433.711001) can0 260#0E00000000000078
(1676418433.711198) can0 020#000007
(1676418433.711206) can0 0B4#000000002C0000E8
(1676418433.712461) can0 024#020301F6620E8018
(1676418433.712468) can0 025#0F900FC378787806
(1676418433.717260) can0 2C1#0800EA0025C700A9
(1676418433.717268) can0 0B0#00000000110D
(1676418433.717272) can0 0B2#00000000110D
(1676418433.717276) can0 223#000000000000002D
(1676418433.717280) can0 2C4#0388002508802127
(1676418433.723012) can0 020#000007
(1676418433.723021) can0 0B4#000000002C0000E8
(1676418433.723025) can0 025#0F900FC378787806
(1676418433.724102) can0 024#020301F6620E8018
(1676418433.729348) can0 0B0#00000000110E
(1676418433.729362) can0 0B2#00000000110E
(1676418433.729368) can0 224#0000000000000008
(1676418433.730841) can0 235#00000000003D
(1676418433.730850) can0 260#0E00000000000078
(1676418433.730867) can0 351#00000000
(1676418433.730874) can0 3A0#005D000000000039
(1676418433.735347) can0 020#000007
(1676418433.735357) can0 0B4#000000002C0000E8
(1676418433.735361) can0 025#0F900FC378787806
(1676418433.736025) can0 024#020301F6620E8018
(1676418433.738283) can0 2D0#06C30900100000BC
(1676418433.741169) can0 2C4#0388002508802127
(1676418433.741182) can0 0B0#00000000110F
(1676418433.742623) can0 0B2#00000000110F
(1676418433.742629) can0 223#000000000000002D
(1676418433.746510) can0 4C6#0700010000000000
(1676418433.746521) can0 020#000007
(1676418433.747541) can0 0B4#000000002C0000E8
(1676418433.747552) can0 025#0F900FC378787806
(1676418433.747556) can0 024#020301F8620E801A
(1676418433.748840) can0 2C1#0800D20016C60081
(1676418433.749704) can0 260#0E00000000000078
(1676418433.753898) can0 0B0#000000001100
(1676418433.753911) can0 0B2#000000001100
(1676418433.753915) can0 224#0000000000000008
(1676418433.753919) can0 235#00000000003D
(1676418433.759420) can0 020#000007
(1676418433.759434) can0 0B4#000000002C0000E8
(1676418433.761087) can0 024#020301F7620E8019
(1676418433.761093) can0 025#0F900FC378787806
(1676418433.761097) can0 3B1#0000012500000000
(1676418433.764769) can0 2C4#0388002508802127
(1676418433.764781) can0 0B0#000000001101
(1676418433.764788) can0 0B2#000000001101
(1676418433.766517) can0 223#000000000000002D
(1676418433.770343) can0 260#0E00000000000078
(1676418433.770355) can0 2D0#06C40900100000BD
(1676418433.770361) can0 020#000007
(1676418433.771631) can0 0B4#000000002C0000E8
(1676418433.771639) can0 025#0F900FC378787806
(1676418433.771642) can0 024#020301F6620E8018
(1676418433.777777) can0 0B0#000000001102
(1676418433.777786) can0 0B2#000000001102
(1676418433.777790) can0 224#0000000000000008
(1676418433.777793) can0 235#00000000003D
(1676418433.780169) can0 2C1#0800CA0012C60075
(1676418433.783522) can0 020#000007
(1676418433.783530) can0 0B4#000000002C0000E8
(1676418433.783533) can0 025#0F900FC378787806
(1676418433.783537) can0 024#020301F6620E8018
(1676418433.787675) can0 2C4#0388002508802127
(1676418433.789161) can0 440#4202000001000000
(1676418433.789169) can0 0B0#000000001103
(1676418433.789173) can0 0B2#000000001103
(1676418433.790181) can0 223#000000000000002D
(1676418433.790189) can0 260#0E00000000000078
(1676418433.790193) can0 351#00000000
(1676418433.795649) can0 020#000007
(1676418433.795663) can0 0B4#000000002C0000E8
(1676418433.795669) can0 025#0F900FC378787806
(1676418433.796453) can0 024#020301F6620E8018
(1676418433.801538) can0 0B0#000000001104
(1676418433.801546) can0 0B2#000000001104
(1676418433.802098) can0 224#0000000000000008
(1676418433.803040) can0 235#00000000003D
(1676418433.803049) can0 2D0#06C40900100000BD
(1676418433.808060) can0 3B3#038728
(1676418433.808072) can0 020#000007
(1676418433.808077) can0 0B4#000000002C0000E8
(1676418433.808238) can0 025#0F900FC378787806
(1676418433.808840) can0 024#020301F6620D8017
(1676418433.810450) can0 260#0E00000000000078
(1676418433.810459) can0 2C4#0387002508802126
(1676418433.811912) can0 2C1#0800CF0017C6007F
(1676418433.815311) can0 0B0#000000001105
(1676418433.815323) can0 0B2#000000001105
(1676418433.815329) can0 223#000000000000002D
(1676418433.819962) can0 020#000007
(1676418433.819975) can0 0B4#000000002C0000E8
(1676418433.819979) can0 024#020301F6620D8017
(1676418433.819983) can0 025#0F900FC382828224
(1676418433.825664) can0 0B0#000000001106
(1676418433.825676) can0 0B2#000000001106
(1676418433.826395) can0 224#0000000000000008
(1676418433.827372) can0 235#00000000003D
(1676418433.830165) can0 260#0E00000000000078
(1676418433.830174) can0 3A0#005D000000000039
(1676418433.831128) can0 020#000007
(1676418433.832400) can0 0B4#000000002C0000E8
(1676418433.832410) can0 024#020301F6620E8018
(1676418433.833767) can0 025#0F900FC378787806
(1676418433.833775) can0 2D0#06C50900100000BE
(1676418433.834895) can0 2C4#0382002508802121
(1676418433.837470) can0 0B0#000000001107
(1676418433.837479) can0 0B2#000000001107
(1676418433.837484) can0 223#000000000000002D
(1676418433.838888) can0 620#10000259F0402040
(1676418433.843653) can0 020#000007
(1676418433.843667) can0 0B4#000000002C0000E8
(1676418433.843672) can0 2C1#0800D30014C60080
(1676418433.844984) can0 024#020301F7620E8019
(1676418433.844995) can0 025#0F900FC378787806
(1676418433.849958) can0 0B0#000000001108
(1676418433.849968) can0 0B2#000000001108
(1676418433.849972) can0 224#0000000000000008
(1676418433.849976) can0 235#00000000003D
(1676418433.851821) can0 260#0E00000000000078
(1676418433.851829) can0 351#00000000
(1676418433.856112) can0 020#000007
(1676418433.856121) can0 0B4#000000002C0000E8
(1676418433.856125) can0 025#0F900FC378787806
(1676418433.856739) can0 024#020301F6620D8017
(1676418433.857936) can0 2C4#0385002508802124
(1676418433.861650) can0 0B0#000000001109
(1676418433.861659) can0 0B2#000000001109
(1676418433.862625) can0 223#000000000000002D
(1676418433.865007) can0 3B4#0000ADB080000000
(1676418433.865018) can0 4C1#0100090000000000
(1676418433.865023) can0 2D0#06C40900100000BD
(1676418433.867547) can0 020#000007
(1676418433.867555) can0 0B4#000000002C0000E8
(1676418433.867559) can0 024#020301F6620D8017
(1676418433.868568) can0 025#0F900FC378787806
(1676418433.868575) can0 394#00
(1676418433.869828) can0 260#0E00000000000078
(1676418433.873577) can0 0B0#00000000110A
(1676418433.873585) can0 0B2#00000000110A
(1676418433.873590) can0 224#0000000000000008
(1676418433.873593) can0 235#00000000003D
(1676418433.875311) can0 2C1#0800E3001FC7009C
(1676418433.880192) can0 020#000007
(1676418433.880202) can0 0B4#000000002C0000E8
(1676418433.880207) can0 3B7#0000800000000000
(1676418433.881817) can0 024#020301F6620E8018
(1676418433.881826) can0 025#0F900FC378787806
(1676418433.881832) can0 442#4002000000000000
(1676418433.881838) can0 2C4#0382002508802121
(1676418433.885869) can0 0B0#00000000110B
(1676418433.885883) can0 0B2#00000000110B
(1676418433.885891) can0 223#000000000000002D
(1676418433.889952) can0 260#0E00000000000078
(1676418433.892281) can0 020#000007
(1676418433.892290) can0 0B4#000000002C0000E8
(1676418433.892295) can0 025#0F900FC378787806
(1676418433.893144) can0 024#020301F6620E8018
(1676418433.897484) can0 2D0#06C30900100000BC
(1676418433.897493) can0 0B0#00000000110C
(1676418433.897498) can0 0B2#00000000110C
(1676418433.899769) can0 224#0000000000000008
(1676418433.899777) can0 235#00000000003D
(1676418433.904646) can0 020#000007
(1676418433.904660) can0 0B4#000000002C0000E8
(1676418433.904665) can0 025#0F900FC378787806
(1676418433.904671) can0 024#020301F6620D8017
(1676418433.905475) can0 2C4#038A002508802129
(1676418433.907134) can0 2C1#0800DC0027C6009C
(1676418433.910225) can0 0B0#00000000110D
(1676418433.910238) can0 0B2#00000000110D
(1676418433.910246) can0 223#000000000000002D
(1676418433.911696) can0 260#0E00000000000078
(1676418433.911703) can0 351#00000000
(1676418433.916075) can0 020#000007
(1676418433.916088) can0 0B4#000000002C0000E8
(1676418433.916768) can0 025#0F900FC378787806
(1676418433.916775) can0 024#020301F7620D8018
(1676418433.922203) can0 0B0#00000000110E
(1676418433.923093) can0 0B2#00000000110E
(1676418433.923101) can0 224#0000000000000008
(1676418433.925392) can0 235#00000000003D
(1676418433.928457) can0 020#000007
(1676418433.928468) can0 0B4#000000002C0000E8
(1676418433.928474) can0 024#020201F7620D7F16
(1676418433.928479) can0 025#0F900FC378787806
(1676418433.929831) can0 2D0#06C10900100000BA
(1676418433.929838) can0 2C4#0387002508802126
(1676418433.929842) can0 260#0E00000000000078
(1676418433.929846) can0 3A0#005D000000000039
(1676418433.934396) can0 0B0#00000000110F
(1676418433.934406) can0 0B2#00000000110F
(1676418433.934410) can0 223#000000000000002D
(1676418433.939709) can0 2C1#0800D8001FC60090
(1676418433.939718) can0 020#000007
(1676418433.939722) can0 0B4#000000002C0000E8
(1676418433.939726) can0 025#0F900FC378787806
(1676418433.940445) can0 024#020301F6620E8018
(1676418433.946295) can0 0B0#000000001100
(1676418433.946432) can0 0B2#000000001100
(1676418433.947246) can0 224#0000000000000008
(1676418433.947252) can0 235#00000000003D
(1676418433.949871) can0 260#0E00000000000078
(1676418433.951804) can0 020#000007
(1676418433.951814) can0 0B4#000000002C0000E8
(1676418433.951819) can0 025#0F900FC378787806
(1676418433.952495) can0 2C4#0387002508802126
(1676418433.952502) can0 024#020301F6620E8018
(1676418433.957669) can0 0B0#000000001101
(1676418433.958527) can0 0B2#000000001101
(1676418433.960014) can0 223#000000000000002D
(1676418433.960022) can0 2D0#06BF0900100000B8
(1676418433.964663) can0 020#000007
(1676418433.964676) can0 0B4#000000002C0000E8
(1676418433.964681) can0 025#0F900FC378787806
(1676418433.966088) can0 024#020301F7620E8019
(1676418433.970487) can0 0B0#000000001102
(1676418433.970500) can0 0B2#000000001102
(1676418433.970507) can0 224#0000000000000008
(1676418433.970512) can0 235#00000000003D
(1676418433.970519) can0 260#0E00000000000078
(1676418433.970887) can0 2C1#0800DC0024C60099
(1676418433.972526) can0 351#00000000
(1676418433.976079) can0 2C4#0381002508802120
(1676418433.976087) can0 020#000007
(1676418433.976091) can0 0B4#000000002C0000E8
(1676418433.976095) can0 025#0F900FC378787806
(1676418433.977573) can0 024#020301F7620D8018
(1676418433.978935) can0 440#4202000001000000
(1676418433.982601) can0 0B0#000000001103
(1676418433.982621) can0 0B2#000000001103
(1676418433.983706) can0 223#000000000000002D
(1676418433.983718) can0 623#1900000000000000
(1676418433.988162) can0 020#000007
(1676418433.988171) can0 0B4#000000002C0000E8
(1676418433.989510) can0 025#0F900FC378787806
(1676418433.989517) can0 024#020301F6620D8017
(1676418433.989521) can0 260#0E00000000000078
(1676418433.992220) can0 2D0#06C00900100000B9
(1676418433.994103) can0 0B0#000000001104
(1676418433.994114) can0 0B2#000000001104
(1676418433.994119) can0 224#0000000000000008
(1676418433.994133) can0 235#00000000003D
(1676418433.994598) can0 624#1A00414949400000
(1676418434.000420) can0 2C4#0381002508802120
(1676418434.000429) can0 020#000007
(1676418434.000433) can0 0B4#000000002C0000E8
(1676418434.000940) can0 025#0F900FC378787806
(1676418434.000948) can0 024#020301F6620E8018
(1676418434.002775) can0 2C1#0800EA0026C700AA
(1676418434.004303) can0 630#1700000000000000
(1676418434.006040) can0 0B0#000000001105
(1676418434.006047) can0 0B2#000000001105
(1676418434.006051) can0 223#000000000000002D
(1676418434.009933) can0 260#0E00000000000078
(1676418434.012166) can0 020#000007
(1676418434.012177) can0 0B4#000000002C0000E8
(1676418434.012183) can0 025#0F900FC378787806
(1676418434.012669) can0 024#020301F7620D8018
(1676418434.018420) can0 0B0#000000001106
(1676418434.018534) can0 0B2#000000001106
(1676418434.018539) can0 224#0000000000000008
(1676418434.018544) can0 235#00000000003D
(1676418434.024002) can0 2C4#0383002508802122
(1676418434.024011) can0 2D0#06BF0900100000B8
(1676418434.024015) can0 020#000007
(1676418434.024019) can0 0B4#000000002C0000E8
(1676418434.024023) can0 025#0F900FC378787806
(1676418434.025763) can0 024#020301F7620D8018
(1676418434.027925) can0 423#00
(1676418434.031766) can0 260#0E00000000000078
(1676418434.031779) can0 0B0#000000001107
(1676418434.031783) can0 0B2#000000001107
(1676418434.031787) can0 223#000000000000002D
(1676418434.031790) can0 351#00000000
(1676418434.031794) can0 3A0#005D000000000039
(1676418434.033959) can0 2C1#0800E10024C7009F
(1676418434.036789) can0 020#000007
(1676418434.036800) can0 0B4#000000002C0000E8
(1676418434.036806) can0 025#0F900FC378787806
(1676418434.037750) can0 024#020301F7620D8018
(1676418434.042905) can0 0B0#000000001108
(1676418434.042913) can0 0B2#000000001108
(1676418434.042917) can0 224#0000000000000008
(1676418434.044338) can0 235#00000000003D
(1676418434.046580) can0 2C4#0381002508802120
(1676418434.049480) can0 020#000007
(1676418434.049498) can0 0B4#000000002C0000E8
(1676418434.049504) can0 025#0F900FC378787806
(1676418434.049510) can0 024#020301F6620E8018
(1676418434.050567) can0 260#0E00000000000078
(1676418434.055272) can0 0B0#000000001109
(1676418434.055281) can0 0B2#000000001109
(1676418434.055285) can0 223#000000000000002D
(1676418434.055997) can0 2D0#06BB0900100000B4
(1676418434.060666) can0 020#000007
(1676418434.060674) can0 0B4#000000002C0000E8
(1676418434.062085) can0 025#0F900FC378787806
(1676418434.062096) can0 024#020301F6620E8018
(1676418434.066848) can0 2C1#0800DF0020C60098
(1676418434.066873) can0 0B0#00000000110A
(1676418434.066880) can0 0B2#00000000110A
(1676418434.066885) can0 224#0000000000000008
(1676418434.068505) can0 235#00000000003D
(1676418434.070024) can0 260#0E00000000000078
(1676418434.070034) can0 2C4#037E00250880211D
(1676418434.071075) can0 442#4002000000000000
(1676418434.072951) can0 020#000007
(1676418434.073058) can0 0B4#000000002C0000E8
(1676418434.073069) can0 025#0F900FC382828224
(1676418434.074221) can0 024#020301F6620E8018
(1676418434.079165) can0 0B0#00000000110B
(1676418434.079177) can0 0B2#00000000110B
(1676418434.079181) can0 223#000000000000002D
(1676418434.084617) can0 020#000007
(1676418434.084631) can0 0B4#000000002C0000E8
(1676418434.085819) can0 024#020301F7620D8018
(1676418434.085825) can0 025#0F900FC378787806
(1676418434.087629) can0 2D0#06B80900100000B1
(1676418434.090310) can0 260#0E00000000000078
(1676418434.090320) can0 0B0#00000000110C
(1676418434.090323) can0 0B2#00000000110C
(1676418434.091068) can0 224#0000000000000008
(1676418434.091075) can0 235#00000000003D
(1676418434.092384) can0 351#00000000
(1676418434.092391) can0 3B7#0080800000000000
(1676418434.093793) can0 2C4#038000250880211F
(1676418434.096923) can0 020#000007
(1676418434.096935) can0 0B4#000000002C0000E8
(1676418434.096942) can0 024#020301F8620D8019
(1676418434.098241) can0 025#0F900FC378787806
(1676418434.098254) can0 2C1#0800D60023C60092
(1676418434.102806) can0 0B0#00000000110D
(1676418434.102815) can0 0B2#00000000110D
(1676418434.102818) can0 223#000000000000002D
(1676418434.109022) can0 020#000007
(1676418434.109031) can0 0B4#000000002C0000E8
(1676418434.110197) can0 025#0F900FC378787806
(1676418434.110205) can0 024#020301F6620D8017
(1676418434.110209) can0 260#0E00000000000078
(1676418434.115255) can0 0B0#00000000110E
(1676418434.115267) can0 0B2#00000000110E
(1676418434.115273) can0 224#0000000000000008
(1676418434.116646) can0 235#00000000003D
(1676418434.116657) can0 2C4#037E00250880211D
(1676418434.126317) can0 620#10800259F0402050
(1676418434.126326) can0 2D0#06B50900100000AE
(1676418434.126330) can0 020#000007
(1676418434.128751) can0 0B4#000000002C0000E8
(1676418434.128765) can0 025#0F900FC378787806
(1676418434.128770) can0 024#020301F6620D8017
(1676418434.129386) can0 0B0#00000000110F
(1676418434.129395) can0 0B2#00000000110F
(1676418434.130420) can0 223#000000000000002D
(1676418434.130428) can0 2C1#0800D50024C60092
(1676418434.130445) can0 260#0E00000000000078
(1676418434.131581) can0 3A0#005E000000000039
(1676418434.131591) can0 38A#0800040000
(1676418434.133731) can0 020#000007
(1676418434.133740) can0 0B4#000000002C0000E8
(1676418434.133746) can0 024#020301F6620E8018
(1676418434.134267) can0 025#0F900FC378787806
(1676418434.138963) can0 0B0#000000001100
(1676418434.138974) can0 0B2#000000001100
(1676418434.140259) can0 224#0000000000000008
(1676418434.140266) can0 235#00000000003D
(1676418434.140270) can0 2C4#0381002508802120
(1676418434.145011) can0 020#000007
(1676418434.145020) can0 0B4#000000002C0000E8
(1676418434.145024) can0 024#020301F6620E8018
(1676418434.145744) can0 025#0F900FC378787806
(1676418434.150588) can0 260#0E00000000000078
(1676418434.150599) can0 4C8#0900010200000000
(1676418434.150605) can0 0B0#000000001101
(1676418434.151912) can0 0B2#000000001101
(1676418434.151929) can0 223#000000000000002D
(1676418434.151933) can0 2D0#06B20900100000AB
(1676418434.153176) can0 351#00000000
(1676418434.153184) can0 398#00F6
(1676418434.156996) can0 020#000007
(1676418434.157011) can0 0B4#000000002C0000E8
(1676418434.158178) can0 025#0F900FC378787806
(1676418434.158185) can0 024#020301F6620D8017
(1676418434.161112) can0 2C1#0800D80022C60093
(1676418434.163240) can0 0B0#000000001102
(1676418434.163252) can0 0B2#000000001102
(1676418434.163258) can0 224#0000000000000008
(1676418434.163263) can0 235#00000000003D
(1676418434.164516) can0 622#1200E83800000000
(1676418434.164525) can0 2C4#037D00250880211C
(1676418434.169102) can0 020#000007
(1676418434.169116) can0 0B4#000000002C0000E8
(1676418434.169121) can0 394#00
(1676418434.170086) can0 440#4202000001000000
(1676418434.170093) can0 025#0F900FC378787806
(1676418434.170114) can0 024#020301F6620E8018
(1676418434.171838) can0 260#0E00000000000078
(1676418434.175209) can0 0B0#000000001103
(1676418434.175315) can0 0B2#000000001103
(1676418434.176598) can0 223#000000000000002D
(1676418434.181738) can0 020#000007
(1676418434.181752) can0 0B4#000000002C0000E8
(1676418434.181758) can0 024#020301F7620E8019
(1676418434.181763) can0 025#0F900FC378787806
(1676418434.183080) can0 2D0#06B10900100000AA
(1676418434.188092) can0 0B0#000000001104
(1676418434.188103) can0 0B2#000000001104
(1676418434.188106) can0 224#0000000000000008
(1676418434.188110) can0 235#00000000003D
(1676418434.188114) can0 2C4#038000250880211F
(1676418434.189694) can0 260#0E00000000000078
(1676418434.193215) can0 020#000007
(1676418434.193224) can0 0B4#000000002C0000E8
(1676418434.195285) can0 2C1#0800D4001FC6008C
(1676418434.195294) can0 024#020301F7620D8018
(1676418434.197621) can0 025#0F900FC378787806
(1676418434.199025) can0 0B0#000000001105
(1676418434.199035) can0 0B2#000000001105
(1676418434.199177) can0 223#000000000000002D
(1676418434.201143) can0 610#20000064C0FFFEE0
(1676418434.205320) can0 020#000007
(1676418434.205328) can0 0B4#000000002C0000E8
(1676418434.206308) can0 025#0F900FC378787806
(1676418434.206314) can0 024#020301F6620D8017
(1676418434.210928) can0 260#0E00000000000078
(1676418434.210946) can0 351#00000000
(1676418434.210953) can0 0B0#000000001106
(1676418434.210957) can0 0B2#000000001106
(1676418434.211495) can0 224#0000000000000008
(1676418434.211503) can0 235#00000000003D
(1676418434.211509) can0 2C4#038000250880211F
(1676418434.214226) can0 2D0#06B00900100000A9
(1676418434.217102) can0 020#000007
(1676418434.217111) can0 0B4#000000002C0000E8
(1676418434.217862) can0 025#0F900FC378787806
(1676418434.217882) can0 024#020301F6620E8018
(1676418434.223454) can0 0B0#000000001107
(1676418434.224605) can0 0B2#000000001107
(1676418434.224613) can0 223#000000000000002D
(1676418434.224617) can0 2C1#0800CE0021C60088
(1676418434.230215) can0 020#000007
(1676418434.230226) can0 0B4#000000002C0000E8
(1676418434.230230) can0 024#020301F6620F8019
(1676418434.230234) can0 025#0F900FC378787806
(1676418434.230237) can0 260#0E00000000000078
(1676418434.230241) can0 3A0#005E000000000039
(1676418434.230802) can0 4DD#1E00000100000000
(1676418434.238362) can0 2C4#0381002508802120
(1676418434.239290) can0 0B0#000000001108
(1676418434.239297) can0 0B2#000000001108
(1676418434.241054) can0 224#0000000000000008
(1676418434.241062) can0 235#00000000003D
(1676418434.241065) can0 020#000007
(1676418434.241069) can0 0B4#000000002C0000E8
(1676418434.242989) can0 025#0F900FC378787806
(1676418434.242999) can0 024#020301F6620E8018
(1676418434.246760) can0 2D0#06B00900100000A9
(1676418434.246771) can0 0B0#000000001109
(1676418434.247603) can0 0B2#000000001109
(1676418434.248832) can0 223#000000000000002D
(1676418434.249812) can0 260#0E00000000000078
(1676418434.253234) can0 020#000007
(1676418434.253243) can0 0B4#000000002C0000E8
(1676418434.253247) can0 025#0F900FC378787806
(1676418434.254806) can0 024#020301F7620D8018
(1676418434.256210) can0 2C1#0800D3002FC6009B
(1676418434.259413) can0 2C4#0383002508802122
(1676418434.259424) can0 0B0#00000000110A
(1676418434.259430) can0 0B2#00000000110A
(1676418434.261261) can0 224#0000000000000008
(1676418434.261273) can0 235#00000000003D
(1676418434.261276) can0 442#4002000000000000
(1676418434.266401) can0 020#000007
(1676418434.266414) can0 0B4#000000002C0000E8
(1676418434.267056) can0 025#0F900FC378787806
(1676418434.267065) can0 024#020301F8620D8019
(1676418434.269938) can0 260#0E00000000000078
(1676418434.271132) can0 351#00000000
(1676418434.271139) can0 0B0#00000000110B
(1676418434.271144) can0 0B2#00000000110B
(1676418434.273106) can0 223#000000000000002D
(1676418434.277530) can0 020#000007
(1676418434.277543) can0 0B4#000000002C0000E8
(1676418434.277547) can0 024#020301F7620D8018
(1676418434.277552) can0 025#0F900FC378787806
(1676418434.277557) can0 2D0#06B10900100000AA
(1676418434.283116) can0 2C4#0384002508802123
(1676418434.283125) can0 0B0#00000000110C
(1676418434.283129) can0 0B2#00000000110C
(1676418434.283859) can0 224#0000000000000008
(1676418434.283866) can0 235#00000000003D
(1676418434.288177) can0 2C1#0800C80029C6008A
(1676418434.289357) can0 020#000007
(1676418434.289366) can0 0B4#000000002C0000E8
(1676418434.289372) can0 024#020301F6620D8017
(1676418434.290047) can0 025#0F900FC378787806
(1676418434.291236) can0 260#0E00000000000078
(1676418434.295593) can0 0B0#00000000110D
(1676418434.295601) can0 0B2#00000000110D
(1676418434.295605) can0 223#000000000000002D
(1676418434.301564) can0 020#000007
(1676418434.301574) can0 0B4#000000002C0000E8
(1676418434.301578) can0 025#0F900FC378787806
(1676418434.301581) can0 024#020301F6620E8018
(1676418434.305588) can0 2C4#0384002508802123
(1676418434.307551) can0 0B0#00000000110E
(1676418434.307563) can0 0B2#00000000110E
(1676418434.308297) can0 224#0000000000000008
(1676418434.308304) can0 235#00000000003D
(1676418434.310048) can0 2D0#06B40900100000AD
(1676418434.310055) can0 260#0E00000000000078
(1676418434.313871) can0 020#000007
(1676418434.313880) can0 0B4#000000002C0000E8
(1676418434.315122) can0 025#0F900FC378787806
(1676418434.315132) can0 024#020301F6620E8018
(1676418434.319409) can0 3B3#038428
(1676418434.319420) can0 0B0#00000000110F
(1676418434.320812) can0 0B2#00000000110F
(1676418434.320822) can0 223#000000000000002D
(1676418434.320828) can0 2C1#0800C40027C60084
(1676418434.321559) can0 611#210010A0000282AA
(1676418434.326356) can0 020#000007
(1676418434.326371) can0 0B4#000000002C0000E8
(1676418434.326376) can0 025#0F900FC382828224
(1676418434.327095) can0 024#020301F7620D8018
(1676418434.329091) can0 2C4#0384002508802123
(1676418434.330421) can0 260#0E00000000000078
(1676418434.330433) can0 3A0#005E000000000039
(1676418434.330441) can0 351#00000000
(1676418434.332042) can0 0B0#000000001100
(1676418434.332052) can0 0B2#000000001100
(1676418434.332057) can0 224#0000000000000008
(1676418434.332140) can0 235#00000000003D
(1676418434.338002) can0 020#000007
(1676418434.338011) can0 0B4#000000002C0000E8
(1676418434.339383) can0 024#020301F7620E8019
(1676418434.339463) can0 025#0F900FC378787806
(1676418434.341581) can0 2D0#06B90900100000B2
(1676418434.343347) can0 0B0#000000001101
(1676418434.343355) can0 0B2#000000001101
(1676418434.343359) can0 223#000000000000002D
(1676418434.350181) can0 020#000007
(1676418434.351497) can0 0B4#000000002C0000E8
(1676418434.351507) can0 024#020301F7620E8019
(1676418434.351510) can0 260#0E00000000000078
(1676418434.351514) can0 025#0F900FC378787806
(1676418434.352330) can0 2C1#0800D30027C60093
(1676418434.353419) can0 2C4#0384002508802123
(1676418434.355908) can0 0B0#000000001102
(1676418434.355922) can0 0B2#000000001102
(1676418434.355928) can0 224#0000000000000008
(1676418434.357224) can0 235#00000000003D
(1676418434.359552) can0 440#4202000001000000
(1676418434.359559) can0 4DC#1D00030200000000
(1676418434.362029) can0 020#000007
(1676418434.362039) can0 0B4#000000002C0000E8
(1676418434.362045) can0 025#0F900FC378787806
(1676418434.363050) can0 024#020301F7620E8019
(1676418434.368523) can0 0B0#000000001103
(1676418434.368534) can0 0B2#000000001103
(1676418434.369646) can0 223#000000000000002D
(1676418434.369653) can0 260#0E00000000000078
(1676418434.370350) can0 38C#0000000000000039
(1676418434.374134) can0 2D0#06BD0900100000B6
(1676418434.374144) can0 020#000007
(1676418434.374147) can0 0B4#000000002C0000E8
(1676418434.374152) can0 025#0F900FC378787806
(1676418434.374665) can0 024#020301F7620D8018
(1676418434.376216) can0 2C4#0385002508802124
(1676418434.379883) can0 0B0#000000001104
(1676418434.379897) can0 0B2#000000001104
(1676418434.381886) can0 224#0000000000000008
(1676418434.381896) can0 235#00000000003D
(1676418434.383383) can0 2C1#0800CE0021C60088
(1676418434.385861) can0 020#000007
(1676418434.385874) can0 0B4#000000002C0000E8
(1676418434.385879) can0 025#0F900FC378787806
(1676418434.386356) can0 024#020301F7620E8019
(1676418434.390001) can0 260#0E00000000000078
(1676418434.391219) can0 351#00000000
(1676418434.391232) can0 0B0#000000001105
(1676418434.391784) can0 0B2#000000001105
(1676418434.392524) can0 223#000000000000002D
(1676418434.392531) can0 3B7#0080800000000000
(1676418434.398861) can0 020#000007
(1676418434.398873) can0 0B4#000000002C0000E8
(1676418434.398880) can0 024#020301F6620E7F17
(1676418434.400286) can0 025#0F900FC378787806
(1676418434.400294) can0 2C4#0384002508802123
(1676418434.401810) can0 3B0#0000003B0000
(1676418434.404412) can0 0B0#000000001106
(1676418434.404422) can0 0B2#000000001106
(1676418434.404428) can0 224#0000000000000008
(1676418434.405549) can0 235#00000000003D
(1676418434.405556) can0 2D0#06BF0900100000B8
(1676418434.410677) can0 020#000007
(1676418434.411329) can0 0B4#000000002C0000E8
(1676418434.411336) can0 260#0E00000000000078
(1676418434.411342) can0 025#0F900FC378787806
(1676418434.413423) can0 024#020301F6620E8018
(1676418434.416102) can0 2C1#0800D4002FC6009C
(1676418434.416111) can0 0B0#000000001107
(1676418434.416116) can0 0B2#000000001107
(1676418434.416121) can0 223#000000000000002D
(1676418434.419155) can0 620#10000259F0402050
(1676418434.422360) can0 020#000007
(1676418434.422375) can0 0B4#000000002C0000E8
(1676418434.422380) can0 025#0F900FC378787806
(1676418434.422385) can0 024#020301F6620E8018
(1676418434.422391) can0 2C4#0386002508802125
(1676418434.428022) can0 0B0#000000001108
(1676418434.428031) can0 0B2#000000001108
(1676418434.428034) can0 224#0000000000000008
(1676418434.428038) can0 235#00000000003D
(1676418434.430008) can0 3A0#005D000000000039
(1676418434.430016) can0 260#0E00000000000078
(1676418434.433894) can0 020#000007
(1676418434.433902) can0 0B4#000000002C0000E8
(1676418434.433907) can0 024#020301F7620E8019
(1676418434.435054) can0 025#0F900FC378787806
(1676418434.436513) can0 2D0#06C10900100000BA
(1676418434.440392) can0 0B0#000000001109
(1676418434.441028) can0 0B2#000000001109
(1676418434.441041) can0 223#000000000000002D
(1676418434.446591) can0 020#000007
(1676418434.446704) can0 0B4#000000002C0000E8
(1676418434.446712) can0 024#020301F7620D8018
(1676418434.446717) can0 025#0F900FC378787806
(1676418434.448249) can0 2C1#0800D70029C60099
(1676418434.448258) can0 2C4#0383002508802122
(1676418434.449467) can0 260#0E00000000000078
(1676418434.450930) can0 351#00000000
(1676418434.450944) can0 442#4002000000000000
(1676418434.451550) can0 0B0#00000000110A
(1676418434.451556) can0 0B2#00000000110A
(1676418434.452211) can0 224#0000000000000008
(1676418434.452218) can0 235#00000000003D
(1676418434.453998) can0 621#1100000000000000
(1676418434.457920) can0 020#000007
(1676418434.457929) can0 0B4#000000002C0000E8
(1676418434.457933) can0 025#0F900FC378787806
(1676418434.459429) can0 024#020301F6620D8017
(1676418434.459443) can0 380#0000000000001900
(1676418434.464056) can0 0B0#00000000110B
(1676418434.464067) can0 0B2#00000000110B
(1676418434.464071) can0 223#000000000000002D
(1676418434.468523) can0 2D0#06C10900100000BA
(1676418434.468531) can0 394#00
(1676418434.469617) can0 020#000007
(1676418434.469628) can0 0B4#000000002C0000E8
(1676418434.470577) can0 260#0E00000000000078
(1676418434.470586) can0 025#0F900FC378787806
(1676418434.470594) can0 2C4#0382002508802121
(1676418434.470599) can0 024#020301F6620D8017
(1676418434.474869) can0 638#13001F0000000000
(1676418434.475991) can0 0B0#00000000110C
(1676418434.476001) can0 0B2#00000000110C
(1676418434.476009) can0 224#0000000000000008
(1676418434.478060) can0 235#00000000003D
(1676418434.478070) can0 2C1#0800DC0030C600A5
(1676418434.482666) can0 020#000007
(1676418434.482678) can0 0B4#000000002C0000E8
(1676418434.483509) can0 025#0F900FC378787806
(1676418434.483515) can0 024#020301F6620D8017
(1676418434.488201) can0 0B0#00000000110D
(1676418434.488209) can0 0B2#00000000110D
(1676418434.488214) can0 223#000000000000002D
(1676418434.490021) can0 3A1#0000000000FF0000
(1676418434.490029) can0 260#0E00000000000078
(1676418434.494181) can0 020#000007
(1676418434.494191) can0 0B4#000000002C0000E8
(1676418434.494196) can0 025#0F900FC378787806
(1676418434.494201) can0 024#020301F6620D8017
(1676418434.494206) can0 2C4#038000250880211F
(1676418434.500178) can0 0B0#00000000110E
(1676418434.500193) can0 0B2#00000000110E
(1676418434.501654) can0 224#0000000000000008
(1676418434.501661) can0 235#00000000003D
(1676418434.503789) can0 2D0#06BF0900100000B8
(1676418434.506202) can0 020#000007
(1676418434.506210) can0 0B4#000000002C0000E8
(1676418434.506214) can0 025#0F900FC378787806
(1676418434.506217) can0 024#020301F6620D8017
(1676418434.510290) can0 260#0E00000000000078
(1676418434.510298) can0 2C1#0800E1002AC700A5
(1676418434.511909) can0 351#00000000
(1676418434.511916) can0 0B0#00000000110F
(1676418434.513543) can0 0B2#00000000110F
(1676418434.513552) can0 223#000000000000002D
(1676418434.517964) can0 2C4#0381002508802120
(1676418434.517984) can0 020#000007
(1676418434.517990) can0 0B4#000000002C0000E8
(1676418434.518369) can0 025#0F900FC378787806
(1676418434.519469) can0 024#020301F7620E8019
(1676418434.524477) can0 0B0#000000001100
(1676418434.524486) can0 0B2#000000001100
(1676418434.524489) can0 224#0000000000000008
(1676418434.524494) can0 235#00000000003D
(1676418434.530268) can0 3A0#005D000000000039
(1676418434.530279) can0 020#000007
(1676418434.530284) can0 0B4#000000002C0000E8
(1676418434.530287) can0 025#0F900FC378787806
(1676418434.530712) can0 260#0E00000000000078
(1676418434.532733) can0 024#020301F7620D8018
(1676418434.532740) can0 2D0#06BD0900100000B6
(1676418434.536240) can0 0B0#000000001101
(1676418434.536249) can0 0B2#000000001101
(1676418434.537317) can0 223#000000000000002D
(1676418434.542341) can0 2C4#0384002508802123
(1676418434.542352) can0 020#000007
(1676418434.543085) can0 2C1#0800E6002FC700AF
(1676418434.543092) can0 025#0F900FC378787806
(1676418434.543096) can0 024#020301F7620D8018
(1676418434.544423) can0 0B4#000000002C0000E8
(1676418434.544432) can0 4C3#0300120100000000
(1676418434.549249) can0 0B0#000000001102
(1676418434.549367) can0 0B2#000000001102
(1676418434.549375) can0 224#0000000000000008
(1676418434.550208) can0 235#00000000003D
(1676418434.550215) can0 440#4202000001000000
(1676418434.551225) can0 260#0E00000000000078
(1676418434.554488) can0 020#000007
(1676418434.554503) can0 0B4#000000002C0000E8
(1676418434.555660) can0 025#0F900FC378787806
(1676418434.555666) can0 024#020201F7620D8118
(1676418434.560521) can0 0B0#000000001103
(1676418434.560530) can0 0B2#000000001103
(1676418434.560534) can0 223#000000000000002D
(1676418434.563439) can0 2D0#06BA0900100000B3
(1676418434.564677) can0 2C4#0384002508802123
(1676418434.566401) can0 020#000007
(1676418434.566411) can0 0B4#000000002C0000E8
(1676418434.567685) can0 025#0F900FC378787806
(1676418434.567693) can0 024#020301F6620E8018
(1676418434.570518) can0 260#0E00000000000078
(1676418434.570526) can0 351#00000000
(1676418434.572718) can0 0B0#000000001104
(1676418434.572729) can0 0B2#000000001104
(1676418434.572736) can0 224#0000000000000008
(1676418434.574135) can0 235#00000000003D
(1676418434.574144) can0 2C1#0800D30025C60091
(1676418434.578860) can0 020#000007
(1676418434.578869) can0 0B4#000000002C0000E8
(1676418434.578873) can0 025#0F900FC378787806
(1676418434.578876) can0 024#020301F6620E8018
(1676418434.584429) can0 0B0#000000001105
(1676418434.584439) can0 0B2#000000001105
(1676418434.584443) can0 223#000000000000002D
(1676418434.587835) can0 4C7#0800012100000000
(1676418434.587844) can0 2C4#0382002508802121
(1676418434.590387) can0 260#0E00000000000078
(1676418434.590398) can0 020#000007
(1676418434.590403) can0 0B4#000000002C0000E8
(1676418434.591212) can0 025#0F900FC378787806
(1676418434.591221) can0 024#020301F6620E8018
(1676418434.595170) can0 2D0#06B90900100000B2
(1676418434.596694) can0 0B0#000000001106
(1676418434.596701) can0 0B2#000000001106
(1676418434.596705) can0 224#0000000000000008
(1676418434.596709) can0 235#00000000003D
(1676418434.602989) can0 020#000007
(1676418434.602998) can0 0B4#000000002C0000E8
(1676418434.603002) can0 024#020301F7620E8019
(1676418434.604280) can0 025#0F900FC382828224
(1676418434.605783) can0 2C1#0800C9001DC6007F
(1676418434.608954) can0 0B0#000000001107
(1676418434.608962) can0 0B2#000000001107
(1676418434.608965) can0 223#000000000000002D
(1676418434.609661) can0 260#0E00000000000078
(1676418434.611499) can0 2C4#0384002508802123
(1676418434.617335) can0 020#000007
(1676418434.617345) can0 0B4#000000002C0000E8
(1676418434.617349) can0 024#020301F7620D8018
(1676418434.617353) can0 025#0F900FC378787806
(1676418434.620936) can0 0B0#000000001108
(1676418434.620950) can0 0B2#000000001108
(1676418434.620955) can0 224#0000000000000008
(1676418434.622372) can0 235#00000000003D
(1676418434.627046) can0 020#000007
(1676418434.627058) can0 0B4#000000002C0000E8
(1676418434.628408) can0 2D0#06B90900100000B2
(1676418434.628416) can0 025#0F900FC378787806
(1676418434.628420) can0 024#020301F6620D8017
(1676418434.629916) can0 3A0#005E000000000039
(1676418434.629923) can0 260#0E00000000000078
(1676418434.632767) can0 351#00000000
(1676418434.632779) can0 0B0#000000001109
(1676418434.632784) can0 0B2#000000001109
(1676418434.632790) can0 223#000000000000002D
(1676418434.635328) can0 2C4#0387002508802126
(1676418434.637995) can0 2C1#0800D7001DC6008D
(1676418434.638004) can0 020#000007
(1676418434.639127) can0 0B4#000000002C0000E8
(1676418434.639139) can0 025#0F900FC378787806
(1676418434.641031) can0 024#020301F6620D8017
(1676418434.641043) can0 442#4002000000000000
(1676418434.644996) can0 0B0#00000000110A
(1676418434.646341) can0 0B2#00000000110A
(1676418434.646349) can0 224#0000000000000008
(1676418434.648411) can0 235#00000000003D
(1676418434.650513) can0 260#0E00000000000078
(1676418434.650524) can0 020#000007
(1676418434.651430) can0 0B4#000000002C0000E8
(1676418434.652462) can0 024#020301F6620E8018
(1676418434.653111) can0 025#0F900FC378787806
(1676418434.656672) can0 0B0#00000000110B
(1676418434.656681) can0 0B2#00000000110B
(1676418434.657941) can0 223#000000000000002D
(1676418434.659321) can0 2D0#06B90900100000B2
(1676418434.659330) can0 2C4#037F00250880211E
(1676418434.662688) can0 020#000007
(1676418434.662699) can0 0B4#000000002C0000E8
(1676418434.662704) can0 024#020301F6620D8017
(1676418434.664548) can0 025#0F900FC378787806
