(1675217238.697918) can0 3A0#005800000000001F
(1675217238.701589) can0 0B0#000000001100
(1675217238.701594) can0 0B2#000000001100
(1675217238.701733) can0 224#0000000000000008
(1675217238.702536) can0 235#00000000003D
(1675217238.702539) can0 2C1#08015D0061CA005C
(1675217238.706846) can0 020#000007
(1675217238.707076) can0 0B4#00000000000000BC
(1675217238.707283) can0 025#00170FC37878787E
(1675217238.707639) can0 024#020301FA620B8019
(1675217238.710907) can0 260#0E00000000000078
(1675217238.711501) can0 351#00000000
(1675217238.713204) can0 0B0#000000001101
(1675217238.713208) can0 0B2#000000001101
(1675217238.713431) can0 223#000000000000002D
(1675217238.716294) can0 2C4#038B001A0880211F
(1675217238.719319) can0 020#000007
(1675217238.719321) can0 0B4#00000000000000BC
(1675217238.719322) can0 025#00170FC37878787E
(1675217238.720180) can0 024#020301FB620A8019
(1675217238.723583) can0 2D0#06AA0900100000A3
(1675217238.725519) can0 0B0#000000001102
(1675217238.725522) can0 0B2#000000001102
(1675217238.725761) can0 224#0000000000000008
(1675217238.725764) can0 235#00000000003D
(1675217238.727919) can0 4DC#1D00030200000000
(1675217238.729599) can0 394#00
(1675217238.730982) can0 260#0E00000000000078
(1675217238.730986) can0 020#000007
(1675217238.731438) can0 0B4#00000000000000BC
(1675217238.731443) can0 024#020301FA620A8018
(1675217238.731723) can0 025#00170FC37878787E
(1675217238.733540) can0 2C1#080151005BCA004A
(1675217238.737707) can0 0B0#000000001103
(1675217238.737715) can0 0B2#000000001103
(1675217238.737719) can0 223#000000000000002D
(1675217238.738152) can0 38C#0000000000000037
(1675217238.739749) can0 2C4#038C001A08802120
(1675217238.743720) can0 020#000007
(1675217238.743725) can0 0B4#00000000000000BC
(1675217238.743726) can0 025#00170FC37878787E
(1675217238.743728) can0 024#020301F9620B8018
(1675217238.749754) can0 0B0#000000001104
(1675217238.749760) can0 0B2#000000001104
(1675217238.749763) can0 224#0000000000000008
(1675217238.749766) can0 235#00000000003D
(1675217238.750764) can0 260#0E00000000000078
(1675217238.755033) can0 2D0#06AA0900100000A3
(1675217238.755037) can0 020#000007
(1675217238.755383) can0 0B4#00000000000000BC
(1675217238.755973) can0 024#020301FA620B8019
(1675217238.755976) can0 025#00170FC38282829C
(1675217238.761571) can0 0B0#000000001105
(1675217238.761576) can0 0B2#000000001105
(1675217238.761984) can0 223#000000000000002D
(1675217238.763189) can0 2C4#038A001A0880211E
(1675217238.765387) can0 2C1#0801610064CB0064
(1675217238.767456) can0 020#000007
(1675217238.767461) can0 0B4#00000000000000BC
(1675217238.767721) can0 3B0#0000002A0000
(1675217238.768059) can0 025#00170FC37878787E
(1675217238.768281) can0 024#020301FA620B8019
(1675217238.768824) can0 440#4202000001000000
(1675217238.770860) can0 260#0E00000000000078
(1675217238.771720) can0 351#00000000
(1675217238.773797) can0 0B0#000000001106
(1675217238.773803) can0 0B2#000000001106
(1675217238.773806) can0 224#0000000000000008
(1675217238.773808) can0 235#00000000003D
(1675217238.779469) can0 020#000007
(1675217238.779473) can0 0B4#00000000000000BC
(1675217238.780206) can0 025#00170FC37878787E
(1675217238.780516) can0 024#020301FB620A8019
(1675217238.785518) can0 0B0#000000001107
(1675217238.785521) can0 0B2#000000001107
(1675217238.785901) can0 223#000000000000002D
(1675217238.786879) can0 2D0#06A90900100000A2
(1675217238.786882) can0 2C4#038A001A0880211E
(1675217238.791026) can0 260#0E00000000000078
(1675217238.791465) can0 020#000007
(1675217238.791784) can0 0B4#00000000000000BC
(1675217238.791788) can0 024#020301FA620A8018
(1675217238.792063) can0 025#00170FC37878787E
(1675217238.797410) can0 2C1#0801570061CA0056
(1675217238.797414) can0 0B0#000000001108
(1675217238.797882) can0 0B2#000000001108
(1675217238.797888) can0 224#0000000000000008
(1675217238.798087) can0 235#00000000003D
(1675217238.798283) can0 3A0#005900000000001F
(1675217238.803561) can0 020#000007
(1675217238.803564) can0 0B4#00000000000000BC
(1675217238.804123) can0 024#020301FA620B8019
(1675217238.804126) can0 025#00170FC37878787E
(1675217238.809973) can0 0B0#000000001109
(1675217238.809977) can0 0B2#000000001109
(1675217238.809978) can0 223#000000000000002D
(1675217238.810317) can0 2C4#0389001A0880211D
(1675217238.810811) can0 260#0E00000000000078
(1675217238.815579) can0 020#000007
(1675217238.815583) can0 0B4#00000000000000BC
(1675217238.816034) can0 025#00170FC37878787E
(1675217238.816377) can0 024#020301FA620B8019
(1675217238.818753) can0 2D0#06AB0900100000A4
(1675217238.822304) can0 0B0#00000000110A
(1675217238.824073) can0 0B2#00000000110A
(1675217238.824076) can0 224#0000000000000008
(1675217238.825473) can0 235#00000000003D
(1675217238.827715) can0 020#000007
(1675217238.827720) can0 0B4#00000000000000BC
(1675217238.828132) can0 380#2008080000000000
(1675217238.828136) can0 025#00170FC37878787E
(1675217238.828822) can0 024#020301FA620A8018
(1675217238.828826) can0 2C1#080155005DCA0050
(1675217238.830870) can0 260#0E00000000000078
(1675217238.831894) can0 351#00000000
(1675217238.834110) can0 0B0#00000000110B
(1675217238.834113) can0 0B2#00000000110B
(1675217238.834115) can0 223#000000000000002D
(1675217238.836141) can0 2C4#038B001A0880211F
(1675217238.839893) can0 020#000007
(1675217238.839899) can0 0B4#00000000000000BC
(1675217238.840176) can0 024#020301FA620A8018
(1675217238.841274) can0 025#00170FC37878787E
(1675217238.845850) can0 0B0#00000000110C
(1675217238.845853) can0 0B2#00000000110C
(1675217238.845855) can0 224#0000000000000008
(1675217238.846185) can0 235#00000000003D
(1675217238.850552) can0 2D0#06AB0900100000A4
(1675217238.850844) can0 260#0E00000000000078
(1675217238.851677) can0 020#000007
(1675217238.851679) can0 0B4#00000000000000BC
(1675217238.852015) can0 025#00170FC37878787E
(1675217238.852248) can0 024#020301FA620B8019
(1675217238.857770) can0 2C4#0389001A0880211D
(1675217238.857775) can0 3A1#0000000000FF0000
(1675217238.858242) can0 0B0#00000000110D
(1675217238.858245) can0 0B2#00000000110D
(1675217238.858692) can0 223#000000000000002D
(1675217238.859310) can0 442#4002000000000000
(1675217238.860579) can0 2C1#08015A0067CA005F
(1675217238.864239) can0 020#000007
(1675217238.864244) can0 0B4#00000000000000BC
(1675217238.864246) can0 025#00170FC37878787E
(1675217238.864578) can0 024#020301FA620B8019
(1675217238.870177) can0 0B0#00000000110E
(1675217238.870184) can0 0B2#00000000110E
(1675217238.870186) can0 224#0000000000000008
(1675217238.870187) can0 235#00000000003D
(1675217238.870810) can0 260#0E00000000000078
(1675217238.874081) can0 620#1000022DF0402040
(1675217238.875825) can0 020#000007
(1675217238.875829) can0 0B4#00000000000000BC
(1675217238.876125) can0 025#00170FC37878787E
(1675217238.876841) can0 024#020301FA620B8019
(1675217238.880217) can0 610#20000064C0FFFEE0
(1675217238.881019) can0 2C4#038A001A0880211E
(1675217238.881821) can0 0B0#00000000110F
(1675217238.881824) can0 0B2#00000000110F
(1675217238.882217) can0 223#000000000000002D
(1675217238.882220) can0 2D0#06AB0900100000A4
(1675217238.882438) can0 621#1100000000000000
(1675217238.887817) can0 020#000007
(1675217238.887821) can0 0B4#00000000000000BC
(1675217238.888272) can0 024#020301FB620B801A
(1675217238.888275) can0 025#00170FC37878787E
(1675217238.891234) can0 260#0E00000000000078
(1675217238.891534) can0 351#00000000
(1675217238.892271) can0 2C1#0801520066CA0056
(1675217238.894037) can0 0B0#000000001100
(1675217238.894044) can0 0B2#000000001100
(1675217238.894046) can0 224#0000000000000008
(1675217238.894285) can0 235#00000000003D
(1675217238.897736) can0 3A0#005900000000001F
(1675217238.900345) can0 020#000007
(1675217238.900348) can0 0B4#00000000000000BC
(1675217238.900350) can0 025#00170FC37878787E
(1675217238.900351) can0 024#020301FB620A8019
(1675217238.904737) can0 2C4#038A001A0880211E
(1675217238.906050) can0 0B0#000000001101
(1675217238.906057) can0 0B2#000000001101
(1675217238.906350) can0 223#000000000000002D
(1675217238.911260) can0 260#0E00000000000078
(1675217238.911983) can0 020#000007
(1675217238.911986) can0 0B4#00000000000000BC
(1675217238.911988) can0 025#00170FC37878787E
(1675217238.912507) can0 024#020301F9620A8017
(1675217238.914115) can0 2D0#06AA0900100000A3
(1675217238.918316) can0 0B0#000000001102
(1675217238.918319) can0 0B2#000000001102
(1675217238.918320) can0 224#0000000000000008
(1675217238.919490) can0 235#00000000003D
(1675217238.924097) can0 020#000007
(1675217238.924100) can0 0B4#00000000000000BC
(1675217238.924102) can0 025#00170FC37878787E
(1675217238.924436) can0 2C1#0801560064CA0058
(1675217238.924771) can0 024#020301FA620B8019
(1675217238.928800) can0 2C4#038C001A08802120
(1675217238.929988) can0 0B0#000000001103
(1675217238.929991) can0 0B2#000000001103
(1675217238.930282) can0 223#000000000000002D
(1675217238.931095) can0 260#0E00000000000078
(1675217238.936333) can0 020#000007
(1675217238.936337) can0 0B4#00000000000000BC
(1675217238.937520) can0 025#00170FC37878787E
(1675217238.937524) can0 024#020301FA620A8018
(1675217238.942228) can0 0B0#000000001104
(1675217238.942232) can0 0B2#000000001104
(1675217238.942233) can0 224#0000000000000008
(1675217238.942770) can0 235#00000000003D
(1675217238.945488) can0 2D0#06A90900100000A2
(1675217238.948408) can0 020#000007
(1675217238.948415) can0 0B4#00000000000000BC
(1675217238.948418) can0 025#00170FC37878787E
(1675217238.948421) can0 024#020301FA620A8018
(1675217238.950976) can0 260#0E00000000000078
(1675217238.950979) can0 4C8#0900010200000000
(1675217238.951653) can0 2C4#0388001A0880211C
(1675217238.951657) can0 351#00000000
(1675217238.954390) can0 0B0#000000001105
(1675217238.954393) can0 0B2#000000001105
(1675217238.955713) can0 223#000000000000002D
(1675217238.955716) can0 2C1#0801570069CA005E
(1675217238.958900) can0 440#4202000001000000
(1675217238.960107) can0 020#000007
(1675217238.960111) can0 0B4#00000000000000BC
(1675217238.960454) can0 025#00170FC37878787E
(1675217238.960457) can0 024#020301FA620B8019
(1675217238.966188) can0 0B0#000000001106
(1675217238.966192) can0 0B2#000000001106
(1675217238.966376) can0 224#0000000000000008
(1675217238.966760) can0 235#00000000003D
(1675217238.966763) can0 3B7#0000800000000000
(1675217238.971258) can0 260#0E00000000000078
(1675217238.972144) can0 020#000007
(1675217238.972148) can0 0B4#00000000000000BC
(1675217238.972394) can0 025#00170FC37878787E
(1675217238.973051) can0 024#020301FA620B8019
(1675217238.975292) can0 2C4#038A001A0880211E
(1675217238.977461) can0 2D0#06A90900100000A2
(1675217238.978361) can0 0B0#000000001107
(1675217238.978364) can0 0B2#000000001107
(1675217238.978365) can0 223#000000000000002D
(1675217238.980119) can0 4C7#0800012100000000
(1675217238.984206) can0 020#000007
(1675217238.984211) can0 0B4#00000000000000BC
(1675217238.984496) can0 025#00170FC37878787E
(1675217238.985253) can0 024#020301FA620A8018
(1675217238.987488) can0 2C1#0801490068CA004F
(1675217238.990028) can0 0B0#000000001108
(1675217238.990736) can0 0B2#000000001108
(1675217238.990740) can0 224#0000000000000008
(1675217238.990741) can0 235#00000000003D
(1675217238.991104) can0 260#0E00000000000078
(1675217238.996197) can0 020#000007
(1675217238.996200) can0 0B4#00000000000000BC
(1675217238.996689) can0 025#00170FC37878787E
(1675217238.996698) can0 024#020301FA620A8018
(1675217238.997415) can0 382#1C1C
(1675217238.997718) can0 3A0#005700000000001F
(1675217238.998982) can0 2C4#038D001A08802121
(1675217239.002362) can0 0B0#000000001109
(1675217239.002366) can0 0B2#000000001109
(1675217239.002367) can0 223#000000000000002D
(1675217239.008498) can0 020#000007
(1675217239.008503) can0 0B4#00000000000000BC
(1675217239.008926) can0 025#00170FC37878787E
(1675217239.008931) can0 024#020301FB620A8019
(1675217239.009572) can0 2D0#06AA0900100000A3
(1675217239.010958) can0 260#0E00000000000078
(1675217239.011958) can0 351#00000000
(1675217239.014630) can0 0B0#00000000110A
(1675217239.014636) can0 0B2#00000000110A
(1675217239.014638) can0 224#0000000000000008
(1675217239.014883) can0 235#00000000003D
(1675217239.016318) can0 4C3#0300120100000000
(1675217239.019418) can0 2C1#080157006CCA0061
(1675217239.020302) can0 020#000007
(1675217239.020308) can0 0B4#00000000000000BC
(1675217239.020636) can0 025#00170FC37878787E
(1675217239.021070) can0 024#020301F9620A8017
(1675217239.022324) can0 2C4#038D001A08802121
(1675217239.026602) can0 0B0#00000000110B
(1675217239.026605) can0 0B2#00000000110B
(1675217239.026607) can0 223#000000000000002D
(1675217239.030360) can0 394#00
(1675217239.030892) can0 260#0E00000000000078
(1675217239.032357) can0 020#000007
(1675217239.032361) can0 0B4#00000000000000BC
(1675217239.033214) can0 025#00170FC38282829C
(1675217239.033217) can0 024#020301F9620B8018
(1675217239.038565) can0 0B0#00000000110C
(1675217239.038571) can0 0B2#00000000110C
(1675217239.038574) can0 224#0000000000000008
(1675217239.038732) can0 235#00000000003D
(1675217239.039173) can0 623#1900000000000000
(1675217239.041367) can0 2D0#06AB0900100000A4
(1675217239.044583) can0 020#000007
(1675217239.044587) can0 0B4#00000000000000BC
(1675217239.044588) can0 024#020301F9620B8018
(1675217239.045288) can0 025#00170FC37878787E
(1675217239.045791) can0 2C4#038D001A08802121
(1675217239.049084) can0 624#1A00414949400000
(1675217239.049606) can0 442#4002000000000000
(1675217239.050524) can0 0B0#00000000110D
(1675217239.050526) can0 0B2#00000000110D
(1675217239.050975) can0 223#000000000000002D
(1675217239.050978) can0 260#0E00000000000078
(1675217239.051219) can0 2C1#08014C006BCA0055
(1675217239.053820) can0 4DD#1E00000100000000
(1675217239.057015) can0 020#000007
(1675217239.057020) can0 0B4#00000000000000BC
(1675217239.058256) can0 024#020301FB620A8019
(1675217239.058259) can0 025#00170FC37878787E
(1675217239.063097) can0 0B0#00000000110E
(1675217239.063103) can0 0B2#00000000110E
(1675217239.063105) can0 224#0000000000000008
(1675217239.063107) can0 235#00000000003D
(1675217239.063831) can0 630#1700000000000000
(1675217239.068886) can0 020#000007
(1675217239.068893) can0 0B4#00000000000000BC
(1675217239.069295) can0 382#1B1B
(1675217239.069299) can0 025#00170FC37878787E
(1675217239.069676) can0 024#020301FB620A8019
(1675217239.070132) can0 2C4#0390001A08802124
(1675217239.071056) can0 260#0E00000000000078
(1675217239.071887) can0 351#00000000
(1675217239.072422) can0 2D0#06AD0900100000A6
(1675217239.074975) can0 0B0#00000000110F
(1675217239.074981) can0 0B2#00000000110F
(1675217239.076533) can0 223#000000000000002D
(1675217239.081194) can0 020#000007
(1675217239.081199) can0 0B4#00000000000000BC
(1675217239.081490) can0 025#00170FC37878787E
(1675217239.082185) can0 024#020301F9620A8017
(1675217239.082644) can0 2C1#08014A0061CA0049
(1675217239.086957) can0 0B0#000000001100
(1675217239.086961) can0 0B2#000000001100
(1675217239.086963) can0 224#0000000000000008
(1675217239.087599) can0 235#00000000003D
(1675217239.091329) can0 260#0E00000000000078
(1675217239.093487) can0 020#000007
(1675217239.093493) can0 0B4#00000000000000BC
(1675217239.093906) can0 2C4#0392001A08802126
(1675217239.095114) can0 025#00170FC37878787E
(1675217239.095117) can0 024#020301FA620B8019
(1675217239.097529) can0 3A0#005700000000001F
(1675217239.098838) can0 0B0#000000001101
(1675217239.098843) can0 0B2#000000001101
(1675217239.099114) can0 223#000000000000002D
(1675217239.104611) can0 2D0#06B00900100000A9
(1675217239.104618) can0 020#000007
(1675217239.104903) can0 0B4#00000000000000BC
(1675217239.105466) can0 024#020301FA620B8019
(1675217239.105468) can0 025#00170FC37878787E
(1675217239.111362) can0 0B0#000000001102
(1675217239.111496) can0 0B2#000000001102
(1675217239.111505) can0 224#0000000000000008
(1675217239.111507) can0 235#00000000003D
(1675217239.112455) can0 260#0E00000000000078
(1675217239.114544) can0 2C1#08014E0066CA0052
(1675217239.116895) can0 2C4#0392001A08802126
(1675217239.116903) can0 020#000007
(1675217239.116905) can0 0B4#00000000000000BC
(1675217239.117159) can0 025#00170FC37878787E
(1675217239.117813) can0 024#020301FA620A8018
(1675217239.123217) can0 0B0#000000001103
(1675217239.123223) can0 0B2#000000001103
(1675217239.123225) can0 223#000000000000002D
(1675217239.128977) can0 020#000007
(1675217239.128983) can0 0B4#00000000000000BC
(1675217239.129508) can0 025#00170FC37878787E
(1675217239.129519) can0 024#020301FA620A8018
(1675217239.131382) can0 260#0E00000000000078
(1675217239.131387) can0 351#00000000
(1675217239.135169) can0 0B0#000000001104
(1675217239.135175) can0 0B2#000000001104
(1675217239.135491) can0 224#0000000000000008
(1675217239.135494) can0 235#00000000003D
(1675217239.135924) can0 2D0#06B30900100000AC
(1675217239.140366) can0 2C4#0391001A08802125
(1675217239.141131) can0 020#000007
(1675217239.141136) can0 0B4#00000000000000BC
(1675217239.141139) can0 025#00170FC37878787E
(1675217239.141455) can0 3B3#039328
(1675217239.141888) can0 024#020301FA620B8019
(1675217239.146370) can0 2C1#0801400063CA0041
(1675217239.147054) can0 0B0#000000001105
(1675217239.147059) can0 0B2#000000001105
(1675217239.149149) can0 223#000000000000002D
(1675217239.149154) can0 440#4202000001000000
(1675217239.149710) can0 382#1C1C
(1675217239.151062) can0 260#0E00000000000078
(1675217239.153276) can0 020#000007
(1675217239.153283) can0 0B4#00000000000000BC
(1675217239.153285) can0 024#020301FA620B8019
(1675217239.153447) can0 025#00170FC37878787E
(1675217239.159500) can0 0B0#000000001106
(1675217239.159504) can0 0B2#000000001106
(1675217239.159506) can0 224#0000000000000008
(1675217239.161094) can0 235#00000000003D
(1675217239.163867) can0 2C4#0394001A08802128
(1675217239.165273) can0 020#000007
(1675217239.165278) can0 0B4#00000000000000BC
(1675217239.165887) can0 025#00170FC37878787E
(1675217239.165890) can0 024#020301FA620A8018
(1675217239.167983) can0 2D0#06B80900100000B1
(1675217239.171977) can0 260#0E00000000000078
(1675217239.171982) can0 0B0#000000001107
(1675217239.171985) can0 0B2#000000001107
(1675217239.171987) can0 223#000000000000002D
(1675217239.174149) can0 620#1000022DF0402040
(1675217239.177439) can0 020#000007
(1675217239.177444) can0 0B4#00000000000000BC
(1675217239.177446) can0 025#00170FC37878787E
(1675217239.177642) can0 024#020301FB620A8019
(1675217239.178048) can0 2C1#0801460063CA0047
(1675217239.183140) can0 0B0#000000001108
(1675217239.183146) can0 0B2#000000001108
(1675217239.183564) can0 224#0000000000000008
(1675217239.183567) can0 235#00000000003D
(1675217239.187185) can0 2C4#0390001A08802124
(1675217239.189223) can0 020#000007
(1675217239.189230) can0 0B4#00000000000000BC
(1675217239.189233) can0 025#00170FC37878787E
(1675217239.190029) can0 024#020301FA620A8018
(1675217239.191083) can0 260#0E00000000000078
(1675217239.191805) can0 351#00000000
(1675217239.195347) can0 0B0#000000001109
(1675217239.195354) can0 0B2#000000001109
(1675217239.195703) can0 223#000000000000002D
(1675217239.197590) can0 3A0#005700000000001F
(1675217239.199895) can0 2D0#06BD0900100000B6
(1675217239.201525) can0 020#000007
(1675217239.201531) can0 0B4#00000000000000BC
(1675217239.201534) can0 024#020301FA620A8018
(1675217239.201537) can0 025#00170FC37878787E
(1675217239.207167) can0 0B0#00000000110A
(1675217239.207172) can0 0B2#00000000110A
(1675217239.207622) can0 224#0000000000000008
(1675217239.207626) can0 235#00000000003D
(1675217239.209893) can0 2C1#080149005ECA0045
(1675217239.210714) can0 2C4#0391001A08802125
(1675217239.211166) can0 260#0E00000000000078
(1675217239.213561) can0 020#000007
(1675217239.213569) can0 0B4#00000000000000BC
(1675217239.213572) can0 025#00170FC37878787E
(1675217239.213575) can0 024#020301FA620A8018
(1675217239.219552) can0 0B0#00000000110B
(1675217239.219557) can0 0B2#00000000110B
(1675217239.220687) can0 223#000000000000002D
(1675217239.225359) can0 020#000007
(1675217239.225364) can0 0B4#00000000000000BC
(1675217239.225702) can0 025#00170FC37878787E
(1675217239.225705) can0 024#020301FB620A8019
(1675217239.231305) can0 260#0E00000000000078
(1675217239.231312) can0 0B0#00000000110C
(1675217239.231762) can0 0B2#00000000110C
(1675217239.231768) can0 224#0000000000000008
(1675217239.232268) can0 235#00000000003D
(1675217239.232271) can0 2D0#06BE0900100000B7
(1675217239.234519) can0 2C4#0390001A08802124
(1675217239.237426) can0 020#000007
(1675217239.237435) can0 0B4#00000000000000BC
(1675217239.238188) can0 025#00170FC37878787E
(1675217239.238757) can0 024#020301FB620A8019
(1675217239.239903) can0 442#4002000000000000
(1675217239.241817) can0 2C1#080144005ACA003C
(1675217239.243773) can0 0B0#00000000110D
(1675217239.243777) can0 0B2#00000000110D
(1675217239.243779) can0 223#000000000000002D
(1675217239.249511) can0 020#000007
(1675217239.249515) can0 0B4#00000000000000BC
(1675217239.249517) can0 025#00170FC37878787E
(1675217239.250585) can0 024#020301F9620A8017
(1675217239.251009) can0 260#0E00000000000078
(1675217239.251883) can0 351#00000000
(1675217239.255585) can0 0B0#00000000110E
(1675217239.255591) can0 0B2#00000000110E
(1675217239.255593) can0 224#0000000000000008
(1675217239.256006) can0 235#00000000003D
(1675217239.258082) can0 2C4#0390001A08802124
(1675217239.261683) can0 020#000007
(1675217239.261687) can0 0B4#00000000000000BC
(1675217239.262143) can0 025#00170FC37878787E
(1675217239.262149) can0 024#020301FA620B8019
(1675217239.262557) can0 4C6#0700010000000000
(1675217239.262943) can0 2D0#06BE0900100000B7
(1675217239.267800) can0 0B0#00000000110F
(1675217239.267805) can0 0B2#00000000110F
(1675217239.267807) can0 223#000000000000002D
(1675217239.269168) can0 3B7#0000800000000000
(1675217239.271280) can0 260#0E00000000000078
(1675217239.273503) can0 2C1#0801460058CA003C
(1675217239.273507) can0 020#000007
(1675217239.273510) can0 0B4#00000000000000BC
(1675217239.274060) can0 024#020301FA620B8019
(1675217239.274064) can0 025#00170FC38282829C
(1675217239.279916) can0 0B0#000000001100
(1675217239.279924) can0 0B2#000000001100
(1675217239.279928) can0 224#0000000000000008
(1675217239.279930) can0 235#00000000003D
(1675217239.281578) can0 2C4#0392001A08802126
(1675217239.286625) can0 020#000007
(1675217239.288036) can0 0B4#00000000000000BC
(1675217239.288041) can0 025#00170FC37878787E
(1675217239.289441) can0 024#020301FB620A8019
(1675217239.291629) can0 260#0E00000000000078
(1675217239.291633) can0 0B0#000000001101
(1675217239.291710) can0 0B2#000000001101
(1675217239.292108) can0 223#000000000000002D
(1675217239.294955) can0 2D0#06BD0900100000B6
(1675217239.297672) can0 020#000007
(1675217239.297676) can0 0B4#00000000000000BC
(1675217239.298309) can0 025#00170FC37878787E
(1675217239.298692) can0 024#020301FA620B8019
(1675217239.299762) can0 382#1B1B
(1675217239.299765) can0 3A0#005900000000001F
(1675217239.304257) can0 0B0#000000001102
(1675217239.304261) can0 0B2#000000001102
(1675217239.305034) can0 224#0000000000000008
(1675217239.305037) can0 235#00000000003D
(1675217239.305039) can0 423#00
(1675217239.305211) can0 2C1#0801430057CA0038
(1675217239.306661) can0 2C4#0390001A08802124
(1675217239.307075) can0 4C1#0100090000000000
(1675217239.309757) can0 020#000007
(1675217239.309763) can0 0B4#00000000000000BC
(1675217239.310070) can0 025#00170FC37878787E
(1675217239.311051) can0 024#020301FA620B8019
(1675217239.311054) can0 260#0E00000000000078
(1675217239.312205) can0 351#00000000
(1675217239.315754) can0 0B0#000000001103
(1675217239.315758) can0 0B2#000000001103
(1675217239.316160) can0 223#000000000000002D
(1675217239.319271) can0 622#1200E83000000000
(1675217239.321968) can0 020#000007
(1675217239.322047) can0 0B4#00000000000000BC
(1675217239.322388) can0 024#020301FA620B8019
(1675217239.323760) can0 025#00170FC37878787E
(1675217239.326726) can0 2D0#06BB0900100000B4
(1675217239.327871) can0 0B0#000000001104
(1675217239.327875) can0 0B2#000000001104
(1675217239.328548) can0 224#0000000000000008
(1675217239.328594) can0 235#00000000003D
(1675217239.328597) can0 2C4#0394001A08802128
(1675217239.329996) can0 394#00
(1675217239.331126) can0 260#0E00000000000078
(1675217239.333910) can0 020#000007
(1675217239.333916) can0 0B4#00000000000000BC
(1675217239.334348) can0 025#00170FC37878787E
(1675217239.334351) can0 024#020301FA620A8018
(1675217239.336808) can0 2C1#0801440058CA003A
(1675217239.339104) can0 440#4202000001000000
(1675217239.339860) can0 0B0#000000001105
(1675217239.339863) can0 0B2#000000001105
(1675217239.340348) can0 223#000000000000002D
(1675217239.345854) can0 020#000007
(1675217239.346218) can0 0B4#00000000000000BC
(1675217239.346608) can0 025#00170FC37878787E
(1675217239.347207) can0 024#020301FA620A8018
(1675217239.351171) can0 260#0E00000000000078
(1675217239.351961) can0 0B0#000000001106
(1675217239.351964) can0 0B2#000000001106
(1675217239.352286) can0 224#0000000000000008
(1675217239.352289) can0 235#00000000003D
(1675217239.352685) can0 2C4#0392001A08802126
(1675217239.353986) can0 638#13001E0000000000
(1675217239.358247) can0 020#000007
(1675217239.358254) can0 0B4#00000000000000BC
(1675217239.358257) can0 025#00170FC37878787E
(1675217239.358946) can0 2D0#06BB0900100000B4
(1675217239.359494) can0 024#020301FA620B8019
(1675217239.363920) can0 0B0#000000001107
(1675217239.363927) can0 0B2#000000001107
(1675217239.364312) can0 223#000000000000002D
(1675217239.368470) can0 2C1#08013D0057C90031
(1675217239.370277) can0 020#000007
(1675217239.370282) can0 0B4#00000000000000BC
(1675217239.370284) can0 025#00170FC37878787E
(1675217239.371135) can0 024#020301FA620B8019
(1675217239.371138) can0 260#0E00000000000078
(1675217239.371766) can0 351#00000000
(1675217239.375886) can0 2C4#0391001A08802125
(1675217239.375891) can0 0B0#000000001108
(1675217239.375972) can0 0B2#000000001108
(1675217239.376390) can0 224#0000000000000008
(1675217239.376393) can0 235#00000000003D
(1675217239.380155) can0 382#1C1C
(1675217239.380160) can0 610#20000064C0FFFEE0
(1675217239.381879) can0 020#000007
(1675217239.381884) can0 0B4#00000000000000BC
(1675217239.382083) can0 025#00170FC37878787E
(1675217239.382500) can0 024#020301FA620B8019
(1675217239.388105) can0 0B0#000000001109
(1675217239.388335) can0 0B2#000000001109
(1675217239.389695) can0 223#000000000000002D
(1675217239.389698) can0 2D0#06BC0900100000B5
(1675217239.391191) can0 260#0E00000000000078
(1675217239.394006) can0 020#000007
(1675217239.394013) can0 0B4#00000000000000BC
(1675217239.394233) can0 025#00170FC37878787E
(1675217239.394786) can0 024#020301FB620A8019
(1675217239.397399) can0 3A0#005900000000001F
(1675217239.399345) can0 2C4#0394001A08802128
(1675217239.400195) can0 0B0#00000000110A
(1675217239.400200) can0 0B2#00000000110A
(1675217239.400202) can0 224#0000000000000008
(1675217239.400591) can0 235#00000000003D
(1675217239.400975) can0 2C1#0801410055CA0034
(1675217239.406237) can0 020#000007
(1675217239.406244) can0 0B4#00000000000000BC
(1675217239.406246) can0 025#00170FC37878787E
(1675217239.407176) can0 024#020301FB620A8019
(1675217239.412338) can0 260#0E00000000000078
(1675217239.412344) can0 0B0#00000000110B
(1675217239.412346) can0 0B2#00000000110B
(1675217239.413185) can0 223#000000000000002D
(1675217239.418188) can0 020#000007
(1675217239.418193) can0 0B4#00000000000000BC
(1675217239.418629) can0 024#020301F9620A8017
(1675217239.418632) can0 025#00170FC37878787E
(1675217239.421882) can0 2D0#06BD0900100000B6
(1675217239.422796) can0 2C4#0392001A08802126
(1675217239.424626) can0 0B0#00000000110C
(1675217239.424634) can0 0B2#00000000110C
(1675217239.424636) can0 224#0000000000000008
(1675217239.424638) can0 235#00000000003D
(1675217239.430103) can0 442#4002000000000000
(1675217239.430589) can0 020#000007
(1675217239.430592) can0 0B4#00000000000000BC
(1675217239.430594) can0 025#00170FC37878787E
(1675217239.431208) can0 024#020301FA620B8019
(1675217239.431211) can0 260#0E00000000000078
(1675217239.431611) can0 351#00000000
(1675217239.431852) can0 2C1#0801470056CA003B
(1675217239.436373) can0 0B0#00000000110D
(1675217239.436377) can0 0B2#00000000110D
(1675217239.437972) can0 223#000000000000002D
(1675217239.442415) can0 020#000007
(1675217239.442419) can0 0B4#00000000000000BC
(1675217239.442939) can0 025#00170FC37878787E
(1675217239.443546) can0 024#020301FA620B8019
(1675217239.446421) can0 2C4#0392001A08802126
(1675217239.448392) can0 0B0#00000000110E
(1675217239.448396) can0 0B2#00000000110E
(1675217239.448573) can0 224#0000000000000008
(1675217239.449679) can0 235#00000000003D
(1675217239.451720) can0 260#0E00000000000078
(1675217239.453454) can0 2D0#06BE0900100000B7
(1675217239.454416) can0 020#000007
(1675217239.454420) can0 0B4#00000000000000BC
(1675217239.454421) can0 025#00170FC37878787E
(1675217239.455183) can0 024#020301FA620A8018
(1675217239.460476) can0 0B0#00000000110F
(1675217239.460480) can0 0B2#00000000110F
(1675217239.460482) can0 223#000000000000002D
(1675217239.463772) can0 2C1#0801550056CA0049
(1675217239.466911) can0 020#000007
(1675217239.466917) can0 0B4#00000000000000BC
(1675217239.466920) can0 024#020301FA620A8018
(1675217239.466922) can0 025#00170FC37878787E
(1675217239.469948) can0 2C4#038D001A08802121
(1675217239.471447) can0 260#0E00000000000078
(1675217239.472698) can0 0B0#000000001100
(1675217239.472704) can0 0B2#000000001100
(1675217239.472707) can0 224#0000000000000008
(1675217239.472709) can0 235#00000000003D
(1675217239.474240) can0 620#1000022DF0402040
(1675217239.478646) can0 020#000007
(1675217239.478652) can0 0B4#00000000000000BC
(1675217239.478654) can0 025#00170FC37878787E
(1675217239.478844) can0 024#020301FA620B8019
(1675217239.484341) can0 0B0#000000001101
(1675217239.484345) can0 0B2#000000001101
(1675217239.484775) can0 223#000000000000002D
(1675217239.485135) can0 2D0#06BC0900100000B5
(1675217239.490808) can0 020#000007
(1675217239.490812) can0 0B4#00000000000000BC
(1675217239.490814) can0 025#00170FC37878787E
(1675217239.491325) can0 024#020301FA620B8019
(1675217239.491328) can0 260#0E00000000000078
(1675217239.491964) can0 351#00000000
(1675217239.493886) can0 2C4#0388001A0880211C
(1675217239.495596) can0 2C1#0801550053CA0046
(1675217239.496323) can0 0B0#000000001102
(1675217239.496327) can0 0B2#000000001102
(1675217239.496749) can0 224#0000000000000008
(1675217239.496752) can0 235#00000000003D
(1675217239.497154) can0 3A0#005800000000001F
(1675217239.502332) can0 020#000007
(1675217239.502337) can0 0B4#00000000000000BC
(1675217239.502495) can0 025#00170FC37878787E
(1675217239.503239) can0 024#020301FA620A8018
(1675217239.508397) can0 0B0#000000001103
(1675217239.508402) can0 0B2#000000001103
(1675217239.508858) can0 223#000000000000002D
(1675217239.511747) can0 260#0E00000000000078
(1675217239.514777) can0 020#000007
(1675217239.514789) can0 0B4#00000000000000BC
(1675217239.514791) can0 024#020301FA620A8018
(1675217239.514795) can0 025#00170FC37878787E
(1675217239.517451) can0 2D0#06BA0900100000B3
(1675217239.517456) can0 2C4#038B001A0880211F
(1675217239.520888) can0 0B0#000000001104
(1675217239.520893) can0 0B2#000000001104
(1675217239.520895) can0 224#0000000000000008
(1675217239.522156) can0 235#00000000003D
(1675217239.526932) can0 020#000007
(1675217239.526938) can0 0B4#00000000000000BC
(1675217239.526941) can0 024#020301FA620B8019
(1675217239.527310) can0 2C1#08014D0055CA0040
(1675217239.527314) can0 025#00170FC38282829C
(1675217239.529000) can0 440#4202000001000000
(1675217239.529622) can0 382#1B1B
(1675217239.531219) can0 260#0E00000000000078
(1675217239.533032) can0 0B0#000000001105
(1675217239.533037) can0 0B2#000000001105
(1675217239.534263) can0 223#000000000000002D
(1675217239.538714) can0 020#000007
(1675217239.539253) can0 0B4#00000000000000BC
(1675217239.539257) can0 024#020301FA620B8019
(1675217239.539697) can0 025#00170FC37878787E
(1675217239.540527) can0 2C4#038C001A08802120
(1675217239.545033) can0 0B0#000000001106
(1675217239.545038) can0 0B2#000000001106
(1675217239.545039) can0 224#0000000000000008
(1675217239.545811) can0 235#00000000003D
(1675217239.548855) can0 2D0#06B50900100000AE
(1675217239.550558) can0 020#000007
(1675217239.550563) can0 0B4#00000000000000BC
(1675217239.551255) can0 260#0E00000000000078
(1675217239.551261) can0 025#00170FC37878787E
(1675217239.551444) can0 024#020301FA620B8019
(1675217239.551995) can0 351#00000000
(1675217239.553978) can0 3B1#0000012500000000
(1675217239.556730) can0 0B0#000000001107
(1675217239.556734) can0 0B2#000000001107
(1675217239.557910) can0 223#000000000000002D
(1675217239.559096) can0 2C1#08013E005AC90035
(1675217239.562574) can0 020#000007
(1675217239.562578) can0 0B4#00000000000000BC
(1675217239.563218) can0 025#00170FC37878787E
(1675217239.563801) can0 024#020301FB620A8019
(1675217239.563804) can0 2C4#038E001A08802122
(1675217239.569216) can0 0B0#000000001108
(1675217239.569223) can0 0B2#000000001108
(1675217239.569583) can0 224#0000000000000008
(1675217239.570093) can0 235#00000000003D
(1675217239.570096) can0 3B7#0000800000000000
(1675217239.571287) can0 260#0E00000000000078
(1675217239.574966) can0 020#000007
(1675217239.575053) can0 0B4#00000000000000BC
(1675217239.575057) can0 024#020301FA620A8018
(1675217239.575392) can0 025#00170FC37878787E
(1675217239.580029) can0 611#210010A000028219
(1675217239.580476) can0 2D0#06AF0900100000A8
(1675217239.580480) can0 0B0#000000001109
(1675217239.580825) can0 0B2#000000001109
(1675217239.581123) can0 223#000000000000002D
(1675217239.586862) can0 020#000007
(1675217239.586867) can0 0B4#00000000000000BC
(1675217239.587230) can0 025#00170FC37878787E
(1675217239.587233) can0 024#020301F9620B8018
(1675217239.587591) can0 2C4#0392001A08802126
(1675217239.590727) can0 2C1#0801500059CA0047
(1675217239.591550) can0 260#0E00000000000078
(1675217239.593064) can0 0B0#00000000110A
(1675217239.593068) can0 0B2#00000000110A
(1675217239.593070) can0 224#0000000000000008
(1675217239.593534) can0 235#00000000003D
(1675217239.597373) can0 3A0#005800000000001F
(1675217239.598845) can0 020#000007
(1675217239.598848) can0 0B4#00000000000000BC
(1675217239.599173) can0 025#00170FC37878787E
(1675217239.599705) can0 024#020301FA620B8019
(1675217239.605018) can0 0B0#00000000110B
(1675217239.605022) can0 0B2#00000000110B
(1675217239.607046) can0 223#000000000000002D
(1675217239.611296) can0 020#000007
(1675217239.611307) can0 0B4#00000000000000BC
(1675217239.611309) can0 260#0E00000000000078
(1675217239.611311) can0 025#00170FC37878787E
(1675217239.611951) can0 2C4#038F001A08802123
(1675217239.611961) can0 024#020301FA620A8018
(1675217239.611964) can0 2D0#06AC0900100000A5
(1675217239.612186) can0 351#00000000
(1675217239.615535) can0 38A#0800040000
(1675217239.617174) can0 0B0#00000000110C
(1675217239.617181) can0 0B2#00000000110C
(1675217239.617184) can0 224#0000000000000008
(1675217239.617510) can0 235#00000000003D
(1675217239.619896) can0 442#4002000000000000
(1675217239.622623) can0 2C1#080155005DCA0050
(1675217239.622628) can0 020#000007
(1675217239.623159) can0 0B4#00000000000000BC
(1675217239.623164) can0 024#020301FA62098017
(1675217239.623463) can0 025#00170FC37878787E
(1675217239.625576) can0 398#00F4
(1675217239.629038) can0 0B0#00000000110D
(1675217239.629042) can0 0B2#00000000110D
(1675217239.629333) can0 223#000000000000002D
(1675217239.629710) can0 394#00
(1675217239.631477) can0 260#0E00000000000078
(1675217239.635419) can0 2C4#038F001A08802123
(1675217239.635424) can0 020#000007
(1675217239.635426) can0 0B4#00000000000000BC
(1675217239.636306) can0 025#00170FC37878787E
(1675217239.636310) can0 024#020301FA620A8018
(1675217239.641322) can0 0B0#00000000110E
(1675217239.641326) can0 0B2#00000000110E
(1675217239.641328) can0 224#0000000000000008
(1675217239.641329) can0 235#00000000003D
(1675217239.644087) can0 2D0#06AE0900100000A7
(1675217239.647604) can0 020#000007
(1675217239.647609) can0 0B4#00000000000000BC
(1675217239.647611) can0 025#00170FC37878787E
(1675217239.648348) can0 024#020301FA620B8019
(1675217239.651295) can0 260#0E00000000000078
(1675217239.653350) can0 0B0#00000000110F
(1675217239.653357) can0 0B2#00000000110F
(1675217239.653359) can0 223#000000000000002D
(1675217239.653361) can0 3B3#039328
(1675217239.654227) can0 2C1#0801460059CA003D
(1675217239.658783) can0 2C4#0393001A08802127
(1675217239.658790) can0 020#000007
(1675217239.658988) can0 0B4#00000000000000BC
(1675217239.659573) can0 025#00170FC37878787E
(1675217239.659852) can0 024#020301FA620B8019
(1675217239.665606) can0 0B0#000000001100
(1675217239.665611) can0 0B2#000000001100
(1675217239.666747) can0 224#0000000000000008
(1675217239.666751) can0 235#00000000003D
(1675217239.670983) can0 020#000007
(1675217239.670988) can0 0B4#00000000000000BC
(1675217239.671532) can0 024#020301FA620A8018
(1675217239.671537) can0 025#00170FC37878787E
(1675217239.672029) can0 260#0E00000000000078
(1675217239.672033) can0 351#00000000
(1675217239.675825) can0 2D0#06AF0900100000A8
(1675217239.677378) can0 0B0#000000001101
(1675217239.677382) can0 0B2#000000001101
(1675217239.678167) can0 223#000000000000002D
(1675217239.681885) can0 2C4#0394001A08802128
(1675217239.683193) can0 020#000007
(1675217239.683197) can0 0B4#00000000000000BC
(1675217239.683199) can0 025#00170FC37878787E
(1675217239.683661) can0 024#020301FA620A8018
(1675217239.685999) can0 2C1#0801540056CA0048
(1675217239.689517) can0 0B0#000000001102
(1675217239.689525) can0 0B2#000000001102
(1675217239.689527) can0 224#0000000000000008
(1675217239.690643) can0 235#00000000003D
(1675217239.691096) can0 260#0E00000000000078
(1675217239.695487) can0 020#000007
(1675217239.695895) can0 0B4#00000000000000BC
(1675217239.696835) can0 025#00170FC37878787E
(1675217239.696838) can0 024#020301FA620B8019
(1675217239.696839) can0 3A0#005800000000001F
(1675217239.701288) can0 0B0#000000001103
(1675217239.701292) can0 0B2#000000001103
(1675217239.701529) can0 223#000000000000002D
(1675217239.705492) can0 2C4#0390001A08802124
(1675217239.707586) can0 020#000007
(1675217239.707590) can0 0B4#00000000000000BC
(1675217239.708090) can0 025#00170FC37878787E
(1675217239.708677) can0 2D0#06B50900100000AE
(1675217239.708680) can0 024#020301FA620B8019
(1675217239.711308) can0 260#0E00000000000078
(1675217239.713391) can0 0B0#000000001104
(1675217239.713397) can0 0B2#000000001104
(1675217239.713778) can0 224#0000000000000008
(1675217239.714696) can0 235#00000000003D
(1675217239.714699) can0 3B4#0000A1B080000000
(1675217239.718176) can0 2C1#0801450055CA0038
(1675217239.719241) can0 440#4202000001000000
(1675217239.719246) can0 020#000007
(1675217239.719249) can0 0B4#00000000000000BC
(1675217239.719551) can0 025#00170FC37878787E
(1675217239.720494) can0 024#020301FA620B8019
(1675217239.725363) can0 0B0#000000001105
(1675217239.725367) can0 0B2#000000001105
(1675217239.725369) can0 223#000000000000002D
(1675217239.726959) can0 4DC#1D00030200000000
(1675217239.728975) can0 2C4#038E001A08802122
(1675217239.731642) can0 260#0E00000000000078
(1675217239.731650) can0 020#000007
(1675217239.731654) can0 0B4#00000000000000BC
(1675217239.731658) can0 024#020301FB620A8019
(1675217239.732120) can0 351#00000000
(1675217239.732124) can0 025#00170FC38282829C
(1675217239.737285) can0 38C#0000000000000037
(1675217239.737292) can0 0B0#000000001106
(1675217239.737684) can0 0B2#000000001106
(1675217239.737687) can0 224#0000000000000008
(1675217239.738322) can0 235#00000000003D
(1675217239.739206) can0 2D0#06B90900100000B2
(1675217239.743542) can0 020#000007
(1675217239.743549) can0 0B4#00000000000000BC
(1675217239.743552) can0 025#00170FC36E6E6E60
(1675217239.743892) can0 024#020301FB620A8019
(1675217239.749694) can0 0B0#000000001107
(1675217239.749698) can0 0B2#000000001107
(1675217239.749700) can0 223#000000000000002D
(1675217239.751953) can0 2C1#0801510055CA0044
(1675217239.751957) can0 260#0E00000000000078
(1675217239.752421) can0 2C4#038D001A08802121
(1675217239.755430) can0 020#000007
(1675217239.755434) can0 0B4#00000000000000BC
(1675217239.756170) can0 025#00170FC37878787E
(1675217239.757015) can0 024#020301F9620B8018
(1675217239.761591) can0 0B0#000000001108
(1675217239.761595) can0 0B2#000000001108
(1675217239.761932) can0 224#0000000000000008
(1675217239.763093) can0 235#00000000003D
(1675217239.767332) can0 3B0#0000002A0000
(1675217239.767337) can0 020#000007
(1675217239.767340) can0 0B4#00000000000000BC
(1675217239.767729) can0 025#00170FC37878787E
(1675217239.768486) can0 024#020301FA620B8019
(1675217239.771217) can0 2D0#06BA0900100000B3
(1675217239.771795) can0 260#0E00000000000078
(1675217239.773836) can0 0B0#000000001109
(1675217239.773841) can0 0B2#000000001109
(1675217239.773843) can0 223#000000000000002D
(1675217239.773845) can0 620#1000022DF0402040
(1675217239.776394) can0 2C4#038C001A08802120
(1675217239.779535) can0 020#000007
(1675217239.779542) can0 0B4#00000000000000BC
(1675217239.779552) can0 025#00170FC37878787E
(1675217239.779848) can0 024#020301FA620B8019
(1675217239.781010) can0 2C1#0801550058CA004B
(1675217239.785405) can0 0B0#00000000110A
(1675217239.785835) can0 0B2#00000000110A
(1675217239.785838) can0 224#0000000000000008
(1675217239.786669) can0 235#00000000003D
(1675217239.791534) can0 260#0E00000000000078
(1675217239.791540) can0 020#000007
(1675217239.791948) can0 0B4#00000000000000BC
(1675217239.791951) can0 351#00000000
(1675217239.792378) can0 024#020301FA620A8018
(1675217239.792934) can0 025#00170FC38282829C
(1675217239.797590) can0 0B0#00000000110B
(1675217239.797594) can0 0B2#00000000110B
(1675217239.798613) can0 223#000000000000002D
(1675217239.798617) can0 3A0#005900000000001F
(1675217239.799524) can0 2C4#038E001A08802122
(1675217239.802960) can0 2D0#06B90900100000B2
(1675217239.803596) can0 020#000007
(1675217239.803606) can0 0B4#00000000000000BC
(1675217239.803609) can0 025#00170FC36E6E6E60
(1675217239.804271) can0 024#020301FA620A8018
(1675217239.809535) can0 442#4002000000000000
(1675217239.809542) can0 0B0#00000000110C
(1675217239.809709) can0 0B2#00000000110C
(1675217239.810161) can0 224#0000000000000008
(1675217239.810166) can0 235#00000000003D
(1675217239.811221) can0 260#0E00000000000078
(1675217239.812785) can0 2C1#08015D0051CA004C
(1675217239.815762) can0 020#000007
(1675217239.815767) can0 0B4#00000000000000BC
(1675217239.816426) can0 025#00170FC38282829C
(1675217239.816436) can0 024#020301FA620B8019
(1675217239.821878) can0 0B0#00000000110D
(1675217239.821885) can0 0B2#00000000110D
(1675217239.821888) can0 223#000000000000002D
(1675217239.823258) can0 2C4#038D001A08802121
(1675217239.826953) can0 380#2008080000000000
(1675217239.827340) can0 020#000007
(1675217239.827690) can0 0B4#00000000000000BC
(1675217239.827693) can0 024#020301FA620B8019
(1675217239.828439) can0 025#00170FC37878787E
(1675217239.831387) can0 260#0E00000000000078
(1675217239.834262) can0 0B0#00000000110E
(1675217239.834273) can0 0B2#00000000110E
(1675217239.834276) can0 224#0000000000000008
(1675217239.834279) can0 235#00000000003D
(1675217239.834281) can0 2D0#06B80900100000B1
(1675217239.837766) can0 382#1C1C
(1675217239.839965) can0 020#000007
(1675217239.839973) can0 0B4#00000000000000BC
(1675217239.839975) can0 024#020301FA620A8018
(1675217239.840207) can0 025#00170FC37878787E
(1675217239.844675) can0 2C1#0801630058CB005A
(1675217239.845775) can0 0B0#00000000110F
(1675217239.845779) can0 0B2#00000000110F
(1675217239.845780) can0 223#000000000000002D
(1675217239.846673) can0 2C4#038C001A08802120
(1675217239.851519) can0 260#0E00000000000078
(1675217239.851527) can0 020#000007
(1675217239.851882) can0 0B4#00000000000000BC
(1675217239.851887) can0 351#00000000
(1675217239.852106) can0 025#00170FC37878787E
(1675217239.852486) can0 024#020301FA620A8018
(1675217239.857252) can0 3A1#0000000000FF0000
(1675217239.857781) can0 0B0#000000001100
(1675217239.857785) can0 0B2#000000001100
(1675217239.858384) can0 224#0000000000000008
(1675217239.858388) can0 235#00000000003D
(1675217239.864001) can0 020#000007
(1675217239.864005) can0 0B4#00000000000000BC
(1675217239.864738) can0 025#00170FC37878787E
(1675217239.865404) can0 024#020301FA620B8019
(1675217239.866005) can0 2D0#06B60900100000AF
(1675217239.870118) can0 0B0#000000001101
(1675217239.870124) can0 0B2#000000001101
(1675217239.870697) can0 223#000000000000002D
(1675217239.870700) can0 2C4#038D001A08802121
(1675217239.871233) can0 3B7#0000800000000000
(1675217239.871236) can0 260#0E00000000000078
(1675217239.876309) can0 020#000007
(1675217239.876313) can0 0B4#00000000000000BC
(1675217239.876315) can0 025#00170FC37878787E
(1675217239.877077) can0 2C1#0801520056CA0046
(1675217239.877582) can0 024#020301FA620B8019
(1675217239.878542) can0 383#0000000000000000
(1675217239.879044) can0 621#1100000000000000
(1675217239.880427) can0 610#20000064C0FFFEE0
(1675217239.882170) can0 0B0#000000001102
(1675217239.882176) can0 0B2#000000001102
(1675217239.882178) can0 224#0000000000000008
(1675217239.882526) can0 235#00000000003D
(1675217239.888152) can0 020#000007
(1675217239.888158) can0 0B4#00000000000000BC
(1675217239.888161) can0 025#00170FC37878787E
(1675217239.888481) can0 024#020301FA620B8019
(1675217239.891327) can0 260#0E00000000000078
(1675217239.894027) can0 2C4#038E001A08802122
(1675217239.894032) can0 0B0#000000001103
(1675217239.894034) can0 0B2#000000001103
(1675217239.894723) can0 223#000000000000002D
(1675217239.896881) can0 3A0#005900000000001F
(1675217239.898049) can0 2D0#06B30900100000AC
(1675217239.900262) can0 020#000007
(1675217239.900268) can0 0B4#00000000000000BC
(1675217239.900270) can0 025#00170FC37878787E
(1675217239.900608) can0 024#020301FB620A8019
(1675217239.905958) can0 0B0#000000001104
(1675217239.905962) can0 0B2#000000001104
(1675217239.906461) can0 224#0000000000000008
(1675217239.906471) can0 235#00000000003D
(1675217239.908196) can0 2C1#08015C0056CA0050
(1675217239.909083) can0 440#4202000001000000
(1675217239.911233) can0 260#0E00000000000078
(1675217239.912164) can0 020#000007
(1675217239.912170) can0 0B4#00000000000000BC
(1675217239.912173) can0 025#00170FC37878787E
(1675217239.912715) can0 351#00000000
(1675217239.913740) can0 024#020301FA620A8018
(1675217239.916750) can0 382#1B1B
(1675217239.917336) can0 2C4#038F001A08802123
(1675217239.918039) can0 0B0#000000001105
(1675217239.918043) can0 0B2#000000001105
(1675217239.918365) can0 223#000000000000002D
(1675217239.924263) can0 020#000007
(1675217239.924267) can0 0B4#00000000000000BC
(1675217239.924269) can0 025#00170FC37878787E
(1675217239.925081) can0 024#020301F9620B8018
(1675217239.929727) can0 2D0#06B10900100000AA
(1675217239.929827) can0 0B0#000000001106
(1675217239.930398) can0 0B2#000000001106
(1675217239.930403) can0 224#0000000000000008
(1675217239.930857) can0 235#00000000003D
(1675217239.930860) can0 394#00
(1675217239.931272) can0 260#0E00000000000078
(1675217239.931275) can0 4C8#0900010200000000
(1675217239.936518) can0 020#000007
(1675217239.936524) can0 0B4#00000000000000BC
(1675217239.936527) can0 025#00170FC37878787E
(1675217239.936530) can0 024#020301F9620B8018
(1675217239.940697) can0 2C1#0801570052CA0047
(1675217239.940703) can0 2C4#038E001A08802122
(1675217239.942275) can0 0B0#000000001107
(1675217239.942279) can0 0B2#000000001107
(1675217239.942280) can0 223#000000000000002D
(1675217239.948560) can0 020#000007
(1675217239.948567) can0 0B4#00000000000000BC
(1675217239.949023) can0 025#00170FC37878787E
(1675217239.949720) can0 024#020301FA620B8019
(1675217239.949723) can0 4C3#0300120100000000
(1675217239.950951) can0 4C7#0800012100000000
(1675217239.950956) can0 260#0E00000000000078
(1675217239.954368) can0 0B0#000000001108
(1675217239.954374) can0 0B2#000000001108
(1675217239.954774) can0 224#0000000000000008
(1675217239.956399) can0 235#00000000003D
(1675217239.960328) can0 020#000007
(1675217239.960333) can0 0B4#00000000000000BC
(1675217239.960335) can0 025#00170FC37878787E
(1675217239.961016) can0 024#020301FA620A8018
(1675217239.961295) can0 2D0#06B20900100000AB
(1675217239.964566) can0 2C4#038F001A08802123
(1675217239.966104) can0 0B0#000000001109
(1675217239.966107) can0 0B2#000000001109
(1675217239.966487) can0 223#000000000000002D
(1675217239.971466) can0 260#0E00000000000078
(1675217239.971471) can0 2C1#0801550055CA0048
(1675217239.972029) can0 351#00000000
(1675217239.972036) can0 020#000007
(1675217239.972561) can0 0B4#00000000000000BC
(1675217239.972564) can0 025#00170FC37878787E
(1675217239.973191) can0 024#020301FA620A8018
(1675217239.978596) can0 0B0#00000000110A
(1675217239.978603) can0 0B2#00000000110A
(1675217239.978605) can0 224#0000000000000008
(1675217239.980013) can0 235#00000000003D
(1675217239.984643) can0 020#000007
(1675217239.984651) can0 0B4#00000000000000BC
(1675217239.984655) can0 024#020301FA620B8019
(1675217239.984658) can0 025#00170FC37878787E
(1675217239.988333) can0 2C4#038A001A0880211E
(1675217239.990285) can0 0B0#00000000110B
(1675217239.990291) can0 0B2#00000000110B
(1675217239.990595) can0 223#000000000000002D
(1675217239.991142) can0 260#0E00000000000078
(1675217239.993147) can0 2D0#06B30900100000AC
(1675217239.996407) can0 020#000007
(1675217239.996414) can0 0B4#00000000000000BC
(1675217239.996416) can0 025#00170FC37878787E
(1675217239.996845) can0 024#020301FA620B8019
(1675217239.996848) can0 382#1C1C
(1675217239.997062) can0 3A0#005900000000001F
(1675217240.000266) can0 442#4002000000000000
(1675217240.002650) can0 0B0#00000000110C
(1675217240.002654) can0 0B2#00000000110C
(1675217240.002656) can0 224#0000000000000008
(1675217240.002658) can0 235#00000000003D
(1675217240.003255) can0 2C1#08015C0055CA004F
(1675217240.008621) can0 020#000007
(1675217240.008628) can0 0B4#00000000000000BC
(1675217240.008630) can0 025#00170FC37878787E
(1675217240.009028) can0 024#020301FA620A8018
(1675217240.012105) can0 260#0E00000000000078
(1675217240.012109) can0 2C4#038B001A0880211F
(1675217240.014237) can0 0B0#00000000110D
(1675217240.014290) can0 0B2#00000000110D
(1675217240.014496) can0 223#000000000000002D
(1675217240.020662) can0 020#000007
(1675217240.020666) can0 0B4#00000000000000BC
(1675217240.021529) can0 025#00170FC37878787E
(1675217240.021533) can0 024#020301FA620A8018
(1675217240.025075) can0 2D0#06B30900100000AC
(1675217240.026486) can0 0B0#00000000110E
(1675217240.026491) can0 0B2#00000000110E
(1675217240.026496) can0 224#0000000000000008
(1675217240.026695) can0 235#00000000003D
(1675217240.031370) can0 260#0E00000000000078
(1675217240.032002) can0 351#00000000
(1675217240.032309) can0 020#000007
(1675217240.032314) can0 0B4#00000000000000BC
(1675217240.032721) can0 024#020301FA620A8018
(1675217240.032724) can0 025#00170FC37878787E
(1675217240.035439) can0 2C1#08015B0055CA004E
(1675217240.035443) can0 2C4#038B001A0880211F
(1675217240.038583) can0 0B0#00000000110F
(1675217240.038589) can0 0B2#00000000110F
(1675217240.038591) can0 223#000000000000002D
(1675217240.039035) can0 623#1900000000000000
(1675217240.044962) can0 020#000007
(1675217240.044968) can0 0B4#00000000000000BC
(1675217240.044970) can0 025#00170FC37878787E
(1675217240.044972) can0 024#020301FA620A8018
(1675217240.049180) can0 624#1A00414949400000
(1675217240.050430) can0 0B0#000000001100
(1675217240.050434) can0 0B2#000000001100
(1675217240.050874) can0 224#0000000000000008
(1675217240.050880) can0 235#00000000003D
(1675217240.051053) can0 260#0E00000000000078
(1675217240.056791) can0 020#000007
(1675217240.056795) can0 0B4#00000000000000BC
(1675217240.056797) can0 025#00170FC37878787E
(1675217240.056798) can0 2D0#06B10900100000AA
(1675217240.057292) can0 024#020301FA620A7F17
(1675217240.058642) can0 2C4#038D001A08802121
(1675217240.062774) can0 0B0#000000001101
(1675217240.062778) can0 0B2#000000001101
(1675217240.062780) can0 223#000000000000002D
(1675217240.063269) can0 4DD#1E00000100000000
(1675217240.064247) can0 630#1700000000000000
(1675217240.066734) can0 382#1B1B
(1675217240.066739) can0 2C1#080152005CCA004C
(1675217240.068610) can0 020#000007
(1675217240.068614) can0 0B4#00000000000000BC
(1675217240.069423) can0 025#00170FC38282829C
(1675217240.069427) can0 024#020301FB620A8019
(1675217240.071768) can0 260#0E00000000000078
(1675217240.074788) can0 620#1000022DF0402040
(1675217240.074797) can0 0B0#000000001102
(1675217240.075154) can0 0B2#000000001102
(1675217240.075647) can0 224#0000000000000008
(1675217240.075650) can0 235#00000000003D
(1675217240.080661) can0 020#000007
(1675217240.081281) can0 0B4#00000000000000BC
(1675217240.081287) can0 025#00170FC37878787E
(1675217240.081685) can0 024#020301FA620A8018
(1675217240.082047) can0 2C4#038B001A0880211F
(1675217240.086650) can0 0B0#000000001103
(1675217240.086656) can0 0B2#000000001103
(1675217240.086990) can0 223#000000000000002D
(1675217240.088421) can0 2D0#06AF0900100000A8
(1675217240.091415) can0 260#0E00000000000078
(1675217240.092444) can0 351#00000000
(1675217240.092448) can0 020#000007
(1675217240.092646) can0 0B4#00000000000000BC
(1675217240.093060) can0 024#020301F9620B8018
(1675217240.093063) can0 025#00170FC37878787E
(1675217240.096916) can0 3A0#005900000000001F
(1675217240.099127) can0 2C1#0801550054CA0047
(1675217240.099132) can0 0B0#000000001104
(1675217240.099134) can0 0B2#000000001104
(1675217240.099135) can0 224#0000000000000008
(1675217240.099591) can0 235#00000000003D
(1675217240.099597) can0 440#4202000001000000
(1675217240.104725) can0 020#000007
(1675217240.104730) can0 0B4#00000000000000BC
(1675217240.105365) can0 024#020301FA620B8019
(1675217240.105368) can0 025#00170FC37878787E
(1675217240.105622) can0 2C4#038F001A08802123
(1675217240.111153) can0 0B0#000000001105
(1675217240.111158) can0 0B2#000000001105
(1675217240.112612) can0 223#000000000000002D
(1675217240.112616) can0 260#0E00000000000078
(1675217240.116764) can0 020#000007
(1675217240.117429) can0 0B4#00000000000000BC
(1675217240.117434) can0 025#00170FC37878787E
(1675217240.117798) can0 024#020301FA620A8018
(1675217240.120199) can0 2D0#06AD0900100000A6
(1675217240.123156) can0 0B0#000000001106
(1675217240.123161) can0 0B2#000000001106
(1675217240.123163) can0 224#0000000000000008
(1675217240.124266) can0 235#00000000003D
(1675217240.128757) can0 020#000007
(1675217240.128762) can0 0B4#00000000000000BC
(1675217240.129565) can0 2C4#038F001A08802123
(1675217240.129571) can0 025#00170FC37878787E
(1675217240.129902) can0 024#020301FA620A8018
(1675217240.130210) can0 2C1#08015A005FCA0057
(1675217240.131359) can0 260#0E00000000000078
(1675217240.135481) can0 0B0#000000001107
(1675217240.137319) can0 0B2#000000001107
(1675217240.137323) can0 223#000000000000002D
(1675217240.140929) can0 020#000007
(1675217240.140937) can0 0B4#00000000000000BC
(1675217240.141399) can0 024#020301FA620B8019
(1675217240.141402) can0 025#00170FC37878787E
(1675217240.147466) can0 0B0#000000001108
(1675217240.147472) can0 0B2#000000001108
(1675217240.147474) can0 224#0000000000000008
(1675217240.147481) can0 235#00000000003D
(1675217240.149101) can0 382#1C1C
(1675217240.151769) can0 260#0E00000000000078
(1675217240.151775) can0 2D0#06AD0900100000A6
(1675217240.151780) can0 351#00000000
(1675217240.152907) can0 2C4#0392001A08802126
(1675217240.152911) can0 020#000007
(1675217240.153306) can0 0B4#00000000000000BC
(1675217240.153310) can0 025#00170FC37878787E
(1675217240.153663) can0 024#020301FA620B8019
(1675217240.159362) can0 0B0#000000001109
(1675217240.159366) can0 0B2#000000001109
(1675217240.159368) can0 223#000000000000002D
(1675217240.162122) can0 2C1#080148005CCA0042
(1675217240.165301) can0 020#000007
(1675217240.165305) can0 0B4#00000000000000BC
(1675217240.165307) can0 025#00170FC37878787E
(1675217240.165308) can0 3B3#039328
(1675217240.165719) can0 024#020301FA620A8018
(1675217240.171430) can0 0B0#00000000110A
(1675217240.171437) can0 0B2#00000000110A
(1675217240.171440) can0 224#0000000000000008
(1675217240.171787) can0 235#00000000003D
(1675217240.172277) can0 260#0E00000000000078
(1675217240.172281) can0 3B7#0000800000000000
(1675217240.176804) can0 2C4#0394001A08802128
(1675217240.176811) can0 020#000007
(1675217240.177007) can0 0B4#00000000000000BC
(1675217240.177364) can0 025#00170FC37878787E
(1675217240.178136) can0 024#020301FA620A8018
(1675217240.183007) can0 0B0#00000000110B
(1675217240.183337) can0 0B2#00000000110B
(1675217240.183340) can0 223#000000000000002D
(1675217240.183626) can0 2D0#06B00900100000A9
(1675217240.189156) can0 020#000007
(1675217240.189160) can0 0B4#00000000000000BC
(1675217240.189673) can0 025#00170FC37878787E
(1675217240.190261) can0 024#020301FA620A8018
(1675217240.191258) can0 260#0E00000000000078
(1675217240.193927) can0 2C1#080156005ACA004E
(1675217240.195362) can0 0B0#00000000110C
(1675217240.195367) can0 0B2#00000000110C
(1675217240.195616) can0 224#0000000000000008
(1675217240.196854) can0 235#00000000003D
(1675217240.196858) can0 3A0#005900000000001F
(1675217240.200224) can0 442#4002000000000000
(1675217240.201221) can0 2C4#0391001A08802125
(1675217240.201225) can0 020#000007
(1675217240.201227) can0 0B4#00000000000000BC
(1675217240.201228) can0 025#00170FC37878787E
(1675217240.201681) can0 024#020301F9620B8018
(1675217240.207358) can0 0B0#00000000110D
(1675217240.207362) can0 0B2#00000000110D
(1675217240.209207) can0 223#000000000000002D
(1675217240.211771) can0 260#0E00000000000078
(1675217240.212054) can0 351#00000000
(1675217240.213414) can0 020#000007
(1675217240.213419) can0 0B4#00000000000000BC
(1675217240.213421) can0 025#00170FC37878787E
(1675217240.213852) can0 024#020301F9620B8119
(1675217240.215327) can0 2D0#06B30900100000AC
(1675217240.217369) can0 4C1#0100090000000000
(1675217240.219232) can0 382#1B1B
(1675217240.219238) can0 0B0#00000000110E
(1675217240.219241) can0 0B2#00000000110E
(1675217240.219648) can0 224#0000000000000008
(1675217240.219653) can0 235#00000000003D
(1675217240.222306) can0 4C6#0700010000000000
(1675217240.223809) can0 2C4#0392001A08802126
(1675217240.225466) can0 020#000007
(1675217240.225470) can0 0B4#00000000000000BC
(1675217240.225472) can0 025#00170FC37878787E
(1675217240.225932) can0 2C1#0801480054CA003A
(1675217240.225935) can0 024#020301FA620B8019
(1675217240.230522) can0 394#00
(1675217240.231629) can0 0B0#00000000110F
(1675217240.231634) can0 0B2#00000000110F
(1675217240.231637) can0 223#000000000000002D
(1675217240.231639) can0 260#0E00000000000078
(1675217240.237312) can0 020#000007
(1675217240.237317) can0 0B4#00000000000000BC
(1675217240.237319) can0 025#00170FC37878787E
(1675217240.238479) can0 024#020301FB620A8019
(1675217240.243722) can0 0B0#000000001100
(1675217240.243727) can0 0B2#000000001100
(1675217240.243728) can0 224#0000000000000008
(1675217240.243730) can0 235#00000000003D
(1675217240.248154) can0 2D0#06B80900100000B1
(1675217240.249384) can0 2C4#0392001A08802126
(1675217240.249387) can0 020#000007
(1675217240.249390) can0 0B4#00000000000000BC
(1675217240.249820) can0 025#00170FC37878787E
(1675217240.250691) can0 024#020301FA620A8018
(1675217240.251269) can0 260#0E00000000000078
(1675217240.255326) can0 0B0#000000001101
(1675217240.255330) can0 0B2#000000001101
(1675217240.255800) can0 223#000000000000002D
(1675217240.257563) can0 2C1#0801470053CA0038
(1675217240.261807) can0 020#000007
(1675217240.261811) can0 0B4#00000000000000BC
(1675217240.261813) can0 025#00170FC37878787E
(1675217240.263415) can0 024#020301F9620A8017
(1675217240.267761) can0 0B0#000000001102
(1675217240.267769) can0 0B2#000000001102
(1675217240.267772) can0 224#0000000000000008
(1675217240.267775) can0 235#00000000003D
(1675217240.270743) can0 2C4#0394001A08802128
(1675217240.271422) can0 260#0E00000000000078
(1675217240.272046) can0 351#00000000
(1675217240.274214) can0 020#000007
(1675217240.274219) can0 0B4#00000000000000BC
(1675217240.275815) can0 025#00170FC37878787E
(1675217240.275819) can0 024#020301FA620B8019
(1675217240.278837) can0 2D0#06BD0900100000B6
(1675217240.279666) can0 0B0#000000001103
(1675217240.279673) can0 0B2#000000001103
(1675217240.279677) can0 223#000000000000002D
(1675217240.285643) can0 020#000007
(1675217240.285647) can0 0B4#00000000000000BC
(1675217240.285649) can0 025#00170FC37878787E
(1675217240.286646) can0 024#020301FA620B8019
(1675217240.289001) can0 2C1#0801480051CA0037
(1675217240.291733) can0 260#0E00000000000078
(1675217240.291738) can0 0B0#000000001104
(1675217240.291741) can0 0B2#000000001104
(1675217240.292177) can0 224#0000000000000008
(1675217240.293141) can0 235#00000000003D
(1675217240.294244) can0 2C4#0392001A08802126
(1675217240.297453) can0 382#1C1C
(1675217240.297461) can0 3A0#005900000000001F
(1675217240.297691) can0 020#000007
(1675217240.297695) can0 0B4#00000000000000BC
(1675217240.298196) can0 025#00170FC38282829C
(1675217240.298886) can0 024#020301FA620A8018
(1675217240.298890) can0 440#4202000001000000
(1675217240.303692) can0 0B0#000000001105
(1675217240.303696) can0 0B2#000000001105
(1675217240.303698) can0 223#000000000000002D
(1675217240.309885) can0 020#000007
(1675217240.309892) can0 0B4#00000000000000BC
(1675217240.309895) can0 025#00170FC36E6E6E60
(1675217240.309898) can0 024#020301FA620B8019
(1675217240.310574) can0 2D0#06BE0900100000B7
(1675217240.311470) can0 260#0E00000000000078
(1675217240.311913) can0 423#00
(1675217240.316094) can0 0B0#000000001106
(1675217240.316099) can0 0B2#000000001106
(1675217240.316101) can0 224#0000000000000008
(1675217240.316103) can0 235#00000000003D
(1675217240.317638) can0 2C4#0390001A08802124
(1675217240.319739) can0 622#1200E83000000000
(1675217240.321537) can0 2C1#08014F0057CA0044
(1675217240.321547) can0 020#000007
(1675217240.321551) can0 0B4#00000000000000BC
(1675217240.322317) can0 024#020301FA620B8019
(1675217240.322320) can0 025#00170FC38282829C
(1675217240.327940) can0 0B0#000000001107
(1675217240.327945) can0 0B2#000000001107
(1675217240.327947) can0 223#000000000000002D
(1675217240.331905) can0 260#0E00000000000078
(1675217240.331910) can0 351#00000000
(1675217240.333542) can0 020#000007
(1675217240.333545) can0 0B4#00000000000000BC
(1675217240.334440) can0 025#00170FC37878787E
(1675217240.334443) can0 024#020301FA620B8019
(1675217240.340140) can0 0B0#000000001108
(1675217240.340144) can0 0B2#000000001108
(1675217240.341645) can0 224#0000000000000008
(1675217240.341650) can0 235#00000000003D
(1675217240.341651) can0 2C4#0394001A08802128
(1675217240.342212) can0 2D0#06C00900100000B9
(1675217240.345680) can0 020#000007
(1675217240.345686) can0 0B4#00000000000000BC
(1675217240.346103) can0 024#020301FA620A8018
(1675217240.346106) can0 025#00170FC37878787E
(1675217240.351872) can0 260#0E00000000000078
(1675217240.351876) can0 0B0#000000001109
(1675217240.352439) can0 0B2#000000001109
(1675217240.352958) can0 223#000000000000002D
(1675217240.352962) can0 2C1#0801420056CA0036
(1675217240.354291) can0 638#13001E0000000000
(1675217240.357961) can0 020#000007
(1675217240.357968) can0 0B4#00000000000000BC
(1675217240.358186) can0 024#020301FB620A8019
(1675217240.359194) can0 025#00170FC37878787E
(1675217240.364460) can0 0B0#00000000110A
(1675217240.364464) can0 0B2#00000000110A
(1675217240.364465) can0 224#0000000000000008
(1675217240.364467) can0 235#00000000003D
(1675217240.364703) can0 2C4#0394001A08802128
(1675217240.369738) can0 020#000007
(1675217240.369743) can0 0B4#00000000000000BC
(1675217240.370420) can0 025#00170FC37878787E
(1675217240.370423) can0 024#020301FA620B8019
(1675217240.371573) can0 260#0E00000000000078
(1675217240.374036) can0 2D0#06BF0900100000B8
(1675217240.374040) can0 620#1000022DF0402040
(1675217240.375965) can0 0B0#00000000110B
(1675217240.375970) can0 0B2#00000000110B
(1675217240.375972) can0 223#000000000000002D
(1675217240.377043) can0 382#1B1B
(1675217240.380703) can0 610#20000064C0FFFEE0
(1675217240.381929) can0 020#000007
(1675217240.381935) can0 0B4#00000000000000BC
(1675217240.382181) can0 025#00170FC37878787E
(1675217240.382632) can0 024#020301FA620B8019
(1675217240.384188) can0 2C1#08013B004FC90027
(1675217240.387773) can0 0B0#00000000110C
(1675217240.387778) can0 0B2#00000000110C
(1675217240.388253) can0 224#0000000000000008
(1675217240.388258) can0 235#00000000003D
(1675217240.388518) can0 2C4#0390001A08802124
(1675217240.389543) can0 442#4002000000000000
(1675217240.391472) can0 260#0E00000000000078
(1675217240.392147) can0 351#00000000
(1675217240.394232) can0 020#000007
(1675217240.394242) can0 0B4#00000000000000BC
(1675217240.394244) can0 024#020301FA620B8019
(1675217240.395528) can0 025#00170FC37878787E
(1675217240.396402) can0 3A0#005900000000001F
(1675217240.400012) can0 0B0#00000000110D
(1675217240.400017) can0 0B2#00000000110D
(1675217240.400252) can0 223#000000000000002D
(1675217240.405944) can0 2D0#06BF0900100000B8
(1675217240.405948) can0 020#000007
(1675217240.406518) can0 0B4#00000000000000BC
(1675217240.406521) can0 024#020301FB620A8019
(1675217240.406522) can0 025#00170FC37878787E
(1675217240.412387) can0 260#0E00000000000078
(1675217240.412393) can0 2C4#0391001A08802125
(1675217240.412396) can0 0B0#00000000110E
(1675217240.412398) can0 0B2#00000000110E
(1675217240.412796) can0 224#0000000000000008
(1675217240.412799) can0 235#00000000003D
(1675217240.416059) can0 2C1#0801460054CA0038
(1675217240.418025) can0 020#000007
(1675217240.418536) can0 0B4#00000000000000BC
(1675217240.418542) can0 025#00170FC37878787E
(1675217240.419487) can0 024#020301FB620A8019
(1675217240.424320) can0 0B0#00000000110F
(1675217240.424325) can0 0B2#00000000110F
(1675217240.424326) can0 223#000000000000002D
(1675217240.430119) can0 020#000007
(1675217240.430389) can0 0B4#00000000000000BC
(1675217240.430757) can0 025#00170FC37878787E
(1675217240.431479) can0 024#020301FA620A8018
(1675217240.431482) can0 260#0E00000000000078
(1675217240.435920) can0 2C4#0390001A08802124
(1675217240.435931) can0 0B0#000000001100
(1675217240.436365) can0 0B2#000000001100
(1675217240.436370) can0 224#0000000000000008
(1675217240.436859) can0 235#00000000003D
(1675217240.437403) can0 2D0#06BE0900100000B7
(1675217240.442444) can0 020#000007
(1675217240.442451) can0 0B4#00000000000000BC
(1675217240.442453) can0 025#00170FC37878787E
(1675217240.443104) can0 024#020301FA620B8019
(1675217240.448159) can0 2C1#0801530059CA004A
(1675217240.448166) can0 0B0#000000001101
(1675217240.448572) can0 0B2#000000001101
(1675217240.450526) can0 223#000000000000002D
(1675217240.451594) can0 260#0E00000000000078
(1675217240.452098) can0 351#00000000
(1675217240.454635) can0 020#000007
(1675217240.454641) can0 0B4#00000000000000BC
(1675217240.454643) can0 024#020301FA620B8019
(1675217240.455821) can0 025#00170FC37878787E
(1675217240.459127) can0 2C4#038F001A08802123
(1675217240.460674) can0 0B0#000000001102
(1675217240.460678) can0 0B2#000000001102
(1675217240.460680) can0 224#0000000000000008
(1675217240.460682) can0 235#00000000003D
(1675217240.466375) can0 020#000007
(1675217240.466379) can0 0B4#00000000000000BC
(1675217240.466741) can0 025#00170FC37878787E
(1675217240.466744) can0 024#020301FA620A8018
(1675217240.469392) can0 2D0#06BB0900100000B4
(1675217240.471524) can0 260#0E00000000000078
(1675217240.472264) can0 0B0#000000001103
(1675217240.472269) can0 0B2#000000001103
(1675217240.472714) can0 223#000000000000002D
(1675217240.472717) can0 3B7#0000800000000000
(1675217240.478786) can0 020#000007
(1675217240.478790) can0 0B4#00000000000000BC
(1675217240.478792) can0 025#00170FC37878787E
(1675217240.479441) can0 024#020301FA620B8019
(1675217240.480052) can0 2C1#08014F0058CA0045
(1675217240.482669) can0 2C4#038B001A0880211F
(1675217240.484768) can0 0B0#000000001104
(1675217240.484772) can0 0B2#000000001104
(1675217240.485966) can0 224#0000000000000008
(1675217240.485971) can0 235#00000000003D
(1675217240.489285) can0 440#4202000001000000
(1675217240.490729) can0 020#000007
(1675217240.490733) can0 0B4#00000000000000BC
(1675217240.490735) can0 025#00170FC37878787E
(1675217240.491327) can0 024#020301FA620B8019
(1675217240.491330) can0 260#0E00000000000078
(1675217240.496535) can0 0B0#000000001105
(1675217240.496539) can0 0B2#000000001105
(1675217240.496541) can0 223#000000000000002D
(1675217240.497141) can0 3A0#005900000000001F
(1675217240.501021) can0 2D0#06B80900100000B1
(1675217240.502690) can0 020#000007
(1675217240.502695) can0 0B4#00000000000000BC
(1675217240.502696) can0 025#00170FC37878787E
(1675217240.503831) can0 024#020301FA620A8018
(1675217240.506288) can0 2C4#0390001A08802124
(1675217240.508898) can0 0B0#000000001106
(1675217240.508903) can0 0B2#000000001106
(1675217240.508904) can0 224#0000000000000008
(1675217240.510211) can0 235#00000000003D
(1675217240.511207) can0 2C1#0801470053CA0038
(1675217240.511211) can0 260#0E00000000000078
(1675217240.512063) can0 351#00000000
(1675217240.514421) can0 020#000007
(1675217240.514813) can0 0B4#00000000000000BC
(1675217240.514816) can0 025#00170FC37878787E
(1675217240.514818) can0 024#020301FA620A8018
(1675217240.520553) can0 0B0#000000001107
(1675217240.520557) can0 0B2#000000001107
(1675217240.520877) can0 223#000000000000002D
(1675217240.526724) can0 020#000007
(1675217240.526730) can0 0B4#00000000000000BC
(1675217240.527068) can0 025#00170FC37878787E
(1675217240.527072) can0 024#020301FA620A8018
(1675217240.527877) can0 382#1C1C
(1675217240.529557) can0 2C4#038E001A08802122
(1675217240.530084) can0 394#00
(1675217240.531780) can0 260#0E00000000000078
(1675217240.532438) can0 0B0#000000001108
(1675217240.532442) can0 0B2#000000001108
(1675217240.532927) can0 224#0000000000000008
(1675217240.532931) can0 235#00000000003D
(1675217240.533357) can0 2D0#06B70900100000B0
(1675217240.538759) can0 020#000007
(1675217240.538768) can0 0B4#00000000000000BC
(1675217240.538770) can0 025#00170FC37878787E
(1675217240.539355) can0 024#020301F9620B8018
(1675217240.543001) can0 2C1#08014F0055CA0042
(1675217240.544865) can0 0B0#000000001109
(1675217240.544871) can0 0B2#000000001109
(1675217240.545193) can0 223#000000000000002D
(1675217240.550703) can0 020#000007
(1675217240.550707) can0 0B4#00000000000000BC
(1675217240.551655) can0 025#00170FC38282829C
(1675217240.551660) can0 260#0E00000000000078
(1675217240.551663) can0 024#020301F9620B8018
(1675217240.553256) can0 3B1#0000012500000000
(1675217240.553260) can0 2C4#0392001A08802126
(1675217240.557042) can0 0B0#00000000110A
(1675217240.557050) can0 0B2#00000000110A
(1675217240.557053) can0 224#0000000000000008
(1675217240.557055) can0 235#00000000003D
(1675217240.563223) can0 020#000007
(1675217240.563228) can0 0B4#00000000000000BC
(1675217240.564336) can0 024#020301FA620B8019
(1675217240.564339) can0 025#00170FC37878787E
(1675217240.564341) can0 2D0#06B40900100000AD
(1675217240.568607) can0 0B0#00000000110B
(1675217240.568611) can0 0B2#00000000110B
(1675217240.569066) can0 223#000000000000002D
(1675217240.571986) can0 260#0E00000000000078
(1675217240.571990) can0 351#00000000
(1675217240.575336) can0 020#000007
(1675217240.575342) can0 0B4#00000000000000BC
(1675217240.575346) can0 2C1#0801410055CA0034
(1675217240.575349) can0 024#020301FA620A8018
(1675217240.576947) can0 025#00170FC37878787E
(1675217240.576952) can0 2C4#0393001A08802127
(1675217240.579526) can0 442#4002000000000000
(1675217240.580104) can0 611#210010A000028219
(1675217240.580612) can0 0B0#00000000110C
(1675217240.580616) can0 0B2#00000000110C
(1675217240.581279) can0 224#0000000000000008
(1675217240.581283) can0 235#00000000003D
(1675217240.586855) can0 020#000007
(1675217240.586860) can0 0B4#00000000000000BC
(1675217240.587441) can0 025#00170FC37878787E
(1675217240.587445) can0 024#020301FA620A8018
(1675217240.591496) can0 260#0E00000000000078
(1675217240.592946) can0 0B0#00000000110D
(1675217240.592956) can0 0B2#00000000110D
(1675217240.592958) can0 223#000000000000002D
(1675217240.596393) can0 2D0#06B40900100000AD
(1675217240.597613) can0 3A0#005900000000001F
(1675217240.598812) can0 020#000007
(1675217240.598815) can0 0B4#00000000000000BC
(1675217240.599274) can0 025#00170FC37878787E
(1675217240.599586) can0 024#020301F9620A8017
(1675217240.600201) can0 2C4#0391001A08802125
(1675217240.605312) can0 0B0#00000000110E
(1675217240.605316) can0 0B2#00000000110E
(1675217240.606319) can0 224#0000000000000008
(1675217240.606322) can0 235#00000000003D
(1675217240.606324) can0 2C1#0801450057CA003A
(1675217240.610954) can0 020#000007
(1675217240.610959) can0 0B4#00000000000000BC
(1675217240.611031) can0 024#020301FA620B8019
(1675217240.611531) can0 025#00170FC37878787E
(1675217240.611536) can0 260#0E00000000000078
(1675217240.617282) can0 0B0#00000000110F
(1675217240.617286) can0 0B2#00000000110F
(1675217240.618335) can0 223#000000000000002D
(1675217240.623242) can0 020#000007
(1675217240.623246) can0 0B4#00000000000000BC
(1675217240.623248) can0 024#020301FA620B8019
(1675217240.623692) can0 025#00170FC37878787E
(1675217240.623695) can0 2C4#0392001A08802126
(1675217240.628462) can0 2D0#06B70900100000B0
(1675217240.629176) can0 0B0#000000001100
(1675217240.629181) can0 0B2#000000001100
(1675217240.629188) can0 224#0000000000000008
(1675217240.629636) can0 235#00000000003D
(1675217240.631976) can0 260#0E00000000000078
(1675217240.631983) can0 351#00000000
(1675217240.635385) can0 020#000007
(1675217240.635390) can0 0B4#00000000000000BC
(1675217240.635392) can0 025#00170FC37878787E
(1675217240.636896) can0 024#020301FA620A8018
(1675217240.638619) can0 2C1#0801520053CA0043
(1675217240.641345) can0 0B0#000000001101
(1675217240.641350) can0 0B2#000000001101
(1675217240.642484) can0 223#000000000000002D
(1675217240.647748) can0 020#000007
(1675217240.647755) can0 0B4#00000000000000BC
(1675217240.647758) can0 025#00170FC37878787E
(1675217240.647760) can0 2C4#0390001A08802124
(1675217240.647763) can0 024#020301FA620B8019
(1675217240.651524) can0 260#0E00000000000078
(1675217240.653540) can0 0B0#000000001102
(1675217240.653550) can0 0B2#000000001102
(1675217240.653551) can0 224#0000000000000008
(1675217240.653553) can0 235#00000000003D
(1675217240.659077) can0 020#000007
(1675217240.659081) can0 0B4#00000000000000BC
(1675217240.659631) can0 025#00170FC37878787E
(1675217240.659634) can0 2D0#06B80900100000B1
(1675217240.660218) can0 024#020301FA620B8019
(1675217240.665316) can0 0B0#000000001103
(1675217240.665321) can0 0B2#000000001103
(1675217240.667037) can0 223#000000000000002D
(1675217240.670374) can0 2C1#0801530059CA004A
(1675217240.671135) can0 2C4#0393001A08802127
(1675217240.671140) can0 020#000007
(1675217240.671142) can0 0B4#00000000000000BC
(1675217240.671655) can0 024#020301FA620B8019
(1675217240.671932) can0 025#00170FC37878787E
(1675217240.672884) can0 260#0E00000000000078
(1675217240.674304) can0 620#1000022DF0402040
(1675217240.677633) can0 3B3#039128
(1675217240.677641) can0 0B0#000000001104
(1675217240.677643) can0 0B2#000000001104
(1675217240.677645) can0 224#0000000000000008
(1675217240.678586) can0 235#00000000003D
(1675217240.679051) can0 440#4202000001000000
(1675217240.683666) can0 020#000007
(1675217240.683671) can0 0B4#00000000000000BC
(1675217240.683673) can0 025#00170FC37878787E
(1675217240.685283) can0 024#020301FA620A8018
(1675217240.686023) can0 382#1B1B
(1675217240.689472) can0 0B0#000000001105
(1675217240.689476) can0 0B2#000000001105
(1675217240.689478) can0 223#000000000000002D
(1675217240.691999) can0 2D0#06B90900100000B2
(1675217240.692004) can0 260#0E00000000000078
(1675217240.692005) can0 351#00000000
(1675217240.694992) can0 2C4#0394001A08802128
(1675217240.694997) can0 020#000007
(1675217240.695301) can0 0B4#00000000000000BC
(1675217240.695603) can0 025#00170FC37878787E
(1675217240.696062) can0 024#020301FA620A8018
(1675217240.696064) can0 3A0#005900000000001F
(1675217240.701503) can0 0B0#000000001106
(1675217240.701514) can0 0B2#000000001106
(1675217240.701518) can0 224#0000000000000008
(1675217240.701947) can0 235#00000000003D
(1675217240.701951) can0 2C1#08013C0055C9002E
(1675217240.707340) can0 020#000007
(1675217240.707347) can0 0B4#00000000000000BC
(1675217240.707503) can0 025#00170FC37878787E
(1675217240.708200) can0 024#020301F9620B8018
(1675217240.712029) can0 260#0E00000000000078
(1675217240.713560) can0 0B0#000000001107
(1675217240.713568) can0 0B2#000000001107
(1675217240.713570) can0 223#000000000000002D
(1675217240.718413) can0 2C4#0392001A08802126
(1675217240.719346) can0 020#000007
(1675217240.719351) can0 0B4#00000000000000BC
(1675217240.719797) can0 024#020301FA620B8019
(1675217240.719800) can0 025#00170FC37878787E
(1675217240.723592) can0 2D0#06BA0900100000B3
(1675217240.725738) can0 0B0#000000001108
(1675217240.725742) can0 0B2#000000001108
(1675217240.725744) can0 224#0000000000000008
(1675217240.725745) can0 235#00000000003D
(1675217240.726377) can0 4DC#1D00030200000000
(1675217240.731745) can0 020#000007
(1675217240.731749) can0 0B4#00000000000000BC
(1675217240.731751) can0 025#00170FC37878787E
(1675217240.732254) can0 024#020301FA620B8019
(1675217240.733038) can0 260#0E00000000000078
(1675217240.733351) can0 2C1#0801460057CA003B
(1675217240.736682) can0 38C#0000000000000037
(1675217240.737682) can0 0B0#000000001109
(1675217240.737686) can0 0B2#000000001109
(1675217240.737689) can0 223#000000000000002D
(1675217240.738397) can0 3B4#0000A1B080000000
(1675217240.741773) can0 2C4#0392001A08802126
(1675217240.743929) can0 020#000007
(1675217240.743933) can0 0B4#00000000000000BC
(1675217240.743935) can0 025#00170FC37878787E
(1675217240.745268) can0 024#020301FB620A8019
(1675217240.749883) can0 0B0#00000000110A
(1675217240.749887) can0 0B2#00000000110A
(1675217240.749888) can0 224#0000000000000008
(1675217240.749890) can0 235#00000000003D
(1675217240.751409) can0 260#0E00000000000078
(1675217240.752483) can0 351#00000000
(1675217240.755684) can0 2D0#06BA0900100000B3
(1675217240.755689) can0 020#000007
(1675217240.755691) can0 0B4#00000000000000BC
(1675217240.755692) can0 025#00170FC37878787E
(1675217240.756484) can0 024#020301FA620A8018
(1675217240.761988) can0 0B0#00000000110B
(1675217240.761995) can0 0B2#00000000110B
(1675217240.761997) can0 223#000000000000002D
(1675217240.765586) can0 2C1#0801470057CA003C
(1675217240.766155) can0 2C4#0395001A08802129
(1675217240.766159) can0 3B0#0000002A0000
(1675217240.767288) can0 38A#0800040000
(1675217240.767292) can0 020#000007
(1675217240.767697) can0 0B4#00000000000000BC
(1675217240.767700) can0 025#00170FC37878787E
(1675217240.768762) can0 024#020301F9620A8017
(1675217240.771095) can0 442#4002000000000000
(1675217240.771444) can0 260#0E00000000000078
(1675217240.774036) can0 0B0#00000000110C
(1675217240.774040) can0 0B2#00000000110C
(1675217240.774196) can0 224#0000000000000008
(1675217240.775719) can0 235#00000000003D
(1675217240.775724) can0 3B7#0000800000000000
(1675217240.779594) can0 020#000007
(1675217240.779598) can0 0B4#00000000000000BC
(1675217240.779750) can0 025#00170FC37878787E
(1675217240.780034) can0 024#020301FA620B8019
(1675217240.785674) can0 0B0#00000000110D
(1675217240.785679) can0 0B2#00000000110D
(1675217240.786035) can0 223#000000000000002D
(1675217240.786645) can0 2D0#06BC0900100000B5
(1675217240.788980) can0 2C4#0394001A08802128
(1675217240.791699) can0 260#0E00000000000078
(1675217240.791703) can0 020#000007
(1675217240.792306) can0 0B4#00000000000000BC
(1675217240.792311) can0 024#020301FA620A8018
(1675217240.792313) can0 025#00170FC38282829C
(1675217240.796251) can0 3A0#005800000000001F
(1675217240.796985) can0 2C1#0801430052CA0033
(1675217240.797591) can0 0B0#00000000110E
(1675217240.797594) can0 0B2#00000000110E
(1675217240.798131) can0 224#0000000000000008
(1675217240.798133) can0 235#00000000003D
(1675217240.803641) can0 020#000007
(1675217240.803645) can0 0B4#00000000000000BC
(1675217240.804570) can0 025#00170FC37878787E
(1675217240.804573) can0 024#020301FA620A7F17
(1675217240.809835) can0 0B0#00000000110F
(1675217240.809839) can0 0B2#00000000110F
(1675217240.809840) can0 223#000000000000002D
(1675217240.811628) can0 260#0E00000000000078
(1675217240.812277) can0 2C4#0394001A08802128
(1675217240.812281) can0 351#00000000
(1675217240.815928) can0 020#000007
(1675217240.815933) can0 0B4#00000000000000BC
(1675217240.816592) can0 025#00170FC37878787E
(1675217240.816595) can0 024#020301FA620B8019
(1675217240.818461) can0 2D0#06BF0900100000B8
(1675217240.822057) can0 0B0#000000001100
(1675217240.822068) can0 0B2#000000001100
(1675217240.822073) can0 224#0000000000000008
(1675217240.823449) can0 235#00000000003D
(1675217240.826223) can0 380#2008080000000000
(1675217240.827703) can0 020#000007
(1675217240.827711) can0 0B4#00000000000000BC
(1675217240.828183) can0 024#020301FA620B8019
(1675217240.828461) can0 025#00170FC37878787E
(1675217240.828464) can0 2C1#080145004DCA0030
(1675217240.830230) can0 394#00
(1675217240.831913) can0 260#0E00000000000078
(1675217240.834113) can0 0B0#000000001101
(1675217240.834118) can0 0B2#000000001101
(1675217240.836095) can0 223#000000000000002D
(1675217240.836100) can0 2C4#038E001A08802122
(1675217240.837374) can0 382#1C1C
(1675217240.839789) can0 020#000007
(1675217240.839793) can0 0B4#00000000000000BC
(1675217240.840480) can0 024#020301FA620B8019
(1675217240.840483) can0 025#00170FC37878787E
(1675217240.845917) can0 0B0#000000001102
(1675217240.845921) can0 0B2#000000001102
(1675217240.846316) can0 224#0000000000000008
(1675217240.847638) can0 235#00000000003D
(1675217240.850205) can0 2D0#06C00900100000B9
(1675217240.851862) can0 260#0E00000000000078
(1675217240.851867) can0 020#000007
(1675217240.851869) can0 0B4#00000000000000BC
(1675217240.852532) can0 025#00170FC37878787E
(1675217240.852536) can0 024#020301FA620A8018
(1675217240.856507) can0 3A1#0000000000FF0000
(1675217240.858100) can0 0B0#000000001103
(1675217240.858106) can0 0B2#000000001103
(1675217240.858109) can0 223#000000000000002D
(1675217240.859440) can0 2C4#038E001A08802122
(1675217240.860484) can0 2C1#08014E0050CA003C
(1675217240.863889) can0 020#000007
(1675217240.863894) can0 0B4#00000000000000BC
(1675217240.864542) can0 025#00170FC37878787E
(1675217240.864833) can0 024#020301FA620A8018
(1675217240.869237) can0 440#4202000001000000
(1675217240.869872) can0 0B0#000000001104
(1675217240.869877) can0 0B2#000000001104
(1675217240.870313) can0 224#0000000000000008
(1675217240.870317) can0 235#00000000003D
(1675217240.871631) can0 260#0E00000000000078
(1675217240.872720) can0 351#00000000
(1675217240.876273) can0 020#000007
(1675217240.876278) can0 0B4#00000000000000BC
(1675217240.876279) can0 024#020301FA620A8018
(1675217240.877733) can0 025#00170FC37878787E
(1675217240.879377) can0 621#1100000000000000
(1675217240.879672) can0 610#20000064C0FFFEE0
(1675217240.882273) can0 0B0#000000001105
(1675217240.882281) can0 0B2#000000001105
(1675217240.882282) can0 223#000000000000002D
(1675217240.882284) can0 2D0#06BF0900100000B8
(1675217240.882588) can0 4C3#0300120100000000
(1675217240.882789) can0 2C4#038E001A08802122
(1675217240.888432) can0 020#000007
(1675217240.888439) can0 0B4#00000000000000BC
(1675217240.888441) can0 025#00170FC37878787E
(1675217240.888779) can0 024#020301FA620A8018
(1675217240.892228) can0 260#0E00000000000078
(1675217240.894326) can0 2C1#08014B0050CA0039
(1675217240.894337) can0 0B0#000000001106
(1675217240.894344) can0 0B2#000000001106
(1675217240.894620) can0 224#0000000000000008
(1675217240.895423) can0 235#00000000003D
(1675217240.895948) can0 3A0#005800000000001F
(1675217240.900572) can0 020#000007
(1675217240.900576) can0 0B4#00000000000000BC
(1675217240.900577) can0 025#00170FC37878787E
(1675217240.900579) can0 024#020301FA620A8018
(1675217240.906108) can0 0B0#000000001107
(1675217240.906112) can0 0B2#000000001107
(1675217240.906635) can0 223#000000000000002D
(1675217240.906638) can0 2C4#0391001A08802125
(1675217240.911758) can0 260#0E00000000000078
(1675217240.911766) can0 4C8#0900010200000000
(1675217240.912490) can0 020#000007
(1675217240.912494) can0 0B4#00000000000000BC
(1675217240.912496) can0 025#00170FC37878787E
(1675217240.912990) can0 024#020301FB620A8019
(1675217240.913632) can0 2D0#06BA0900100000B3
(1675217240.915916) can0 382#1B1B
(1675217240.918387) can0 0B0#000000001108
(1675217240.918392) can0 0B2#000000001108
(1675217240.918395) can0 224#0000000000000008
(1675217240.918918) can0 235#00000000003D
(1675217240.920377) can0 4C7#0800012100000000
(1675217240.924381) can0 2C1#080143004FCA0030
(1675217240.924385) can0 020#000007
(1675217240.925394) can0 0B4#00000000000000BC
(1675217240.925398) can0 025#00170FC37878787E
(1675217240.925399) can0 024#020301FA620A8018
(1675217240.930150) can0 2C4#0391001A08802125
(1675217240.930155) can0 0B0#000000001109
(1675217240.930473) can0 0B2#000000001109
(1675217240.931735) can0 223#000000000000002D
(1675217240.931740) can0 260#0E00000000000078
(1675217240.932179) can0 351#00000000
(1675217240.936408) can0 020#000007
(1675217240.936415) can0 0B4#00000000000000BC
(1675217240.936417) can0 025#00170FC37878787E
(1675217240.936760) can0 024#020301F9620B8018
(1675217240.942417) can0 0B0#00000000110A
(1675217240.942423) can0 0B2#00000000110A
(1675217240.942426) can0 224#0000000000000008
(1675217240.942625) can0 235#00000000003D
(1675217240.945416) can0 2D0#06B80900100000B1
(1675217240.948640) can0 020#000007
(1675217240.948644) can0 0B4#00000000000000BC
(1675217240.948646) can0 025#00170FC37878787E
(1675217240.948648) can0 024#020301FA620B8019
(1675217240.951682) can0 260#0E00000000000078
(1675217240.953604) can0 2C4#0393001A08802127
(1675217240.954368) can0 0B0#00000000110B
(1675217240.954378) can0 0B2#00000000110B
(1675217240.954381) can0 223#000000000000002D
(1675217240.955651) can0 2C1#0801430050CA0031
(1675217240.959648) can0 442#4002000000000000
(1675217240.960287) can0 020#000007
(1675217240.960292) can0 0B4#00000000000000BC
(1675217240.960640) can0 025#00170FC37878787E
(1675217240.961026) can0 024#020301FA620A8018
(1675217240.966789) can0 0B0#00000000110C
(1675217240.966793) can0 0B2#00000000110C
(1675217240.967985) can0 224#0000000000000008
(1675217240.967989) can0 235#00000000003D
(1675217240.971683) can0 260#0E00000000000078
(1675217240.972270) can0 020#000007
(1675217240.972274) can0 0B4#00000000000000BC
(1675217240.972529) can0 025#00170FC37878787E
(1675217240.973565) can0 024#020301FA620A8018
(1675217240.974135) can0 620#1000022DF0402040
(1675217240.977200) can0 2D0#06B80900100000B1
(1675217240.977204) can0 2C4#0387001A0880211B
(1675217240.978495) can0 0B0#00000000110D
(1675217240.978502) can0 0B2#00000000110D
(1675217240.978795) can0 223#000000000000002D
(1675217240.984332) can0 020#000007
(1675217240.984338) can0 0B4#00000000000000BC
(1675217240.985010) can0 025#00170FC37878787E
(1675217240.985016) can0 024#020301F9620B8018
(1675217240.987467) can0 2C1#0801510050CA003F
(1675217240.990660) can0 0B0#00000000110E
(1675217240.990667) can0 0B2#00000000110E
(1675217240.990669) can0 224#0000000000000008
(1675217240.990954) can0 235#00000000003D
(1675217240.991540) can0 260#0E00000000000078
(1675217240.992281) can0 351#00000000
(1675217240.996374) can0 3A0#005900000000001F
(1675217240.996378) can0 020#000007
(1675217240.996971) can0 0B4#00000000000000BC
(1675217240.996976) can0 025#00170FC37878787E
(1675217240.998037) can0 024#020301FA620B8019
(1675217241.000756) can0 2C4#0385001A08802119
(1675217241.002540) can0 0B0#00000000110F
(1675217241.002545) can0 0B2#00000000110F
(1675217241.002547) can0 223#000000000000002D
(1675217241.008802) can0 020#000007
(1675217241.008904) can0 0B4#00000000000000BC
(1675217241.008907) can0 025#00170FC37878787E
(1675217241.008910) can0 2D0#06B40900100000AD
(1675217241.009109) can0 024#020301FA620B8019
(1675217241.012038) can0 260#0E00000000000078
(1675217241.014660) can0 0B0#000000001100
(1675217241.014668) can0 0B2#000000001100
(1675217241.014671) can0 224#0000000000000008
(1675217241.014967) can0 235#00000000003D
(1675217241.019194) can0 2C1#0801550052CA0045
(1675217241.020444) can0 020#000007
(1675217241.020448) can0 0B4#00000000000000BC
(1675217241.020821) can0 025#00170FC37878787E
(1675217241.021487) can0 024#020301FA620A8018
(1675217241.024383) can0 2C4#0387001A0880211B
(1675217241.026898) can0 0B0#000000001101
(1675217241.027633) can0 0B2#000000001101
(1675217241.027638) can0 223#000000000000002D
(1675217241.031924) can0 260#0E00000000000078
(1675217241.032475) can0 020#000007
(1675217241.032482) can0 0B4#00000000000000BC
(1675217241.033061) can0 025#00170FC37878787E
(1675217241.033064) can0 024#020301FA620A8018
(1675217241.038866) can0 0B0#000000001102
(1675217241.038871) can0 0B2#000000001102
(1675217241.038872) can0 224#0000000000000008
(1675217241.039427) can0 235#00000000003D
(1675217241.040303) can0 623#1900000000000000
(1675217241.040307) can0 2D0#06B20900100000AB
(1675217241.044723) can0 020#000007
(1675217241.044728) can0 0B4#00000000000000BC
(1675217241.044731) can0 025#00170FC37878787E
(1675217241.045114) can0 024#020301F9620B8018
(1675217241.048190) can0 2C4#0387001A0880211B
(1675217241.049477) can0 624#1A00414949400000
(1675217241.050749) can0 0B0#000000001103
(1675217241.050756) can0 0B2#000000001103
(1675217241.050764) can0 223#000000000000002D
(1675217241.050980) can0 2C1#0801590053CA004A
(1675217241.051474) can0 260#0E00000000000078
(1675217241.052226) can0 351#00000000
(1675217241.057123) can0 020#000007
(1675217241.057128) can0 0B4#00000000000000BC
(1675217241.057129) can0 025#00170FC37878787E
(1675217241.057441) can0 024#020301F9620B8018
(1675217241.059280) can0 440#4202000001000000
(1675217241.063286) can0 0B0#000000001104
(1675217241.064353) can0 0B2#000000001104
(1675217241.064358) can0 224#0000000000000008
(1675217241.064359) can0 235#00000000003D
(1675217241.066189) can0 630#1700000000000000
(1675217241.066194) can0 382#1C1C
(1675217241.068746) can0 020#000007
(1675217241.068750) can0 0B4#00000000000000BC
(1675217241.069895) can0 025#00170FC37878787E
(1675217241.069899) can0 024#020301FA620B8019
(1675217241.071801) can0 2C4#0387001A0880211B
(1675217241.071806) can0 260#0E00000000000078
(1675217241.072323) can0 2D0#06AC0900100000A5
(1675217241.072961) can0 4DD#1E00000100000000
(1675217241.074886) can0 0B0#000000001105
(1675217241.074891) can0 0B2#000000001105
(1675217241.074894) can0 223#000000000000002D
(1675217241.075233) can0 3B7#0000800000000000
(1675217241.080874) can0 020#000007
(1675217241.080881) can0 0B4#00000000000000BC
(1675217241.080884) can0 024#020301FB620A8019
(1675217241.081537) can0 025#00170FC38282829C
(1675217241.082583) can0 2C1#0801430057CA0038
(1675217241.087152) can0 0B0#000000001106
(1675217241.087157) can0 0B2#000000001106
(1675217241.087158) can0 224#0000000000000008
(1675217241.088436) can0 235#00000000003D
(1675217241.091746) can0 260#0E00000000000078
(1675217241.092692) can0 020#000007
(1675217241.092695) can0 0B4#00000000000000BC
(1675217241.093239) can0 024#020301FA620A8018
(1675217241.093244) can0 025#00170FC37878787E
(1675217241.094923) can0 2C4#0387001A0880211B
(1675217241.095971) can0 3A0#005900000000001F
(1675217241.098909) can0 0B0#000000001107
(1675217241.098913) can0 0B2#000000001107
(1675217241.099242) can0 223#000000000000002D
(1675217241.104466) can0 2D0#06A609001000009F
(1675217241.104470) can0 020#000007
(1675217241.104898) can0 0B4#00000000000000BC
(1675217241.105500) can0 025#00170FC37878787E
(1675217241.105503) can0 024#020301F9620B8018
(1675217241.111314) can0 0B0#000000001108
(1675217241.111320) can0 0B2#000000001108
(1675217241.111324) can0 224#0000000000000008
(1675217241.111700) can0 235#00000000003D
(1675217241.112161) can0 260#0E00000000000078
(1675217241.112165) can0 351#00000000
(1675217241.114415) can0 2C1#0801570058CA004D
(1675217241.116894) can0 020#000007
(1675217241.116899) can0 0B4#00000000000000BC
(1675217241.117593) can0 025#00170FC37878787E
(1675217241.117597) can0 024#020301FA620B8019
(1675217241.118317) can0 2C4#038A001A0880211E
(1675217241.122986) can0 0B0#000000001109
(1675217241.122991) can0 0B2#000000001109
(1675217241.122994) can0 223#000000000000002D
(1675217241.127672) can0 4C1#0100090000000000
(1675217241.129339) can0 020#000007
(1675217241.129344) can0 0B4#00000000000000BC
(1675217241.129346) can0 024#020301FA620B8019
(1675217241.129348) can0 025#00170FC37878787E
(1675217241.130601) can0 394#00
(1675217241.131694) can0 260#0E00000000000078
(1675217241.135431) can0 0B0#00000000110A
(1675217241.135438) can0 0B2#00000000110A
(1675217241.135440) can0 224#0000000000000008
(1675217241.135737) can0 235#00000000003D
(1675217241.136415) can0 2D0#06A409001000009D
(1675217241.141299) can0 020#000007
(1675217241.141307) can0 0B4#00000000000000BC
(1675217241.141309) can0 024#020301FB620A8019
(1675217241.141311) can0 025#00170FC37878787E
(1675217241.141874) can0 2C4#0389001A0880211D
(1675217241.147521) can0 2C1#080157005ACA004F
(1675217241.147526) can0 0B0#00000000110B
(1675217241.147527) can0 0B2#00000000110B
(1675217241.147529) can0 223#000000000000002D
(1675217241.149711) can0 442#4002000000000000
(1675217241.151669) can0 260#0E00000000000078
(1675217241.152827) can0 020#000007
(1675217241.152831) can0 0B4#00000000000000BC
(1675217241.153480) can0 025#00170FC37878787E
(1675217241.153484) can0 024#020301FA620A8018
(1675217241.159224) can0 0B0#00000000110C
(1675217241.159228) can0 0B2#00000000110C
(1675217241.159231) can0 224#0000000000000008
(1675217241.159575) can0 235#00000000003D
(1675217241.165471) can0 020#000007
(1675217241.165478) can0 0B4#00000000000000BC
(1675217241.165480) can0 025#00170FC37878787E
(1675217241.165876) can0 2C4#038D001A08802121
(1675217241.165880) can0 024#020301FA620B8019
(1675217241.167626) can0 2D0#06A309001000009C
(1675217241.171408) can0 0B0#00000000110D
(1675217241.171413) can0 0B2#00000000110D
(1675217241.171754) can0 223#000000000000002D
(1675217241.172272) can0 260#0E00000000000078
(1675217241.172275) can0 351#00000000
(1675217241.177338) can0 020#000007
(1675217241.177345) can0 0B4#00000000000000BC
(1675217241.177347) can0 025#00170FC37878787E
(1675217241.177764) can0 2C1#080156005FCA0053
(1675217241.178123) can0 024#020301FA620B8019
(1675217241.182369) can0 4C6#0700010000000000
(1675217241.183352) can0 0B0#00000000110E
(1675217241.183357) can0 0B2#00000000110E
(1675217241.183360) can0 224#0000000000000008
(1675217241.183613) can0 235#00000000003D
(1675217241.189072) can0 2C4#0391001A08802125
(1675217241.189076) can0 020#000007
(1675217241.189710) can0 0B4#00000000000000BC
(1675217241.189715) can0 025#00170FC37878787E
(1675217241.189717) can0 3B3#039228
(1675217241.190335) can0 024#020301FA620A8018
(1675217241.191755) can0 260#0E00000000000078
(1675217241.195576) can0 0B0#00000000110F
(1675217241.195581) can0 0B2#00000000110F
(1675217241.195983) can0 223#000000000000002D
(1675217241.197092) can0 3A0#005900000000001F
(1675217241.199449) can0 2D0#06A309001000009C
(1675217241.201263) can0 020#000007
(1675217241.201269) can0 0B4#00000000000000BC
(1675217241.201481) can0 025#00170FC37878787E
(1675217241.201812) can0 024#020301FA620A8018
(1675217241.207480) can0 0B0#000000001100
(1675217241.207485) can0 0B2#000000001100
(1675217241.207487) can0 224#0000000000000008
(1675217241.207811) can0 235#00000000003D
(1675217241.209504) can0 2C1#08014A005BCA0043
(1675217241.211920) can0 260#0E00000000000078
(1675217241.212514) can0 2C4#0390001A08802124
(1675217241.213188) can0 020#000007
(1675217241.213193) can0 0B4#00000000000000BC
(1675217241.213590) can0 025#00170FC37878787E
(1675217241.213932) can0 024#020201F9620B8017
(1675217241.216452) can0 382#1B1B
(1675217241.219760) can0 0B0#000000001101
(1675217241.221210) can0 0B2#000000001101
(1675217241.221214) can0 223#000000000000002D
(1675217241.225523) can0 020#000007
(1675217241.225530) can0 0B4#00000000000000BC
(1675217241.225534) can0 025#00170FC37878787E
(1675217241.226321) can0 024#020301F9620B8018
(1675217241.231339) can0 2D0#06A70900100000A0
(1675217241.231346) can0 0B0#000000001102
(1675217241.231349) can0 0B2#000000001102
(1675217241.231897) can0 224#0000000000000008
(1675217241.231906) can0 235#00000000003D
(1675217241.231909) can0 260#0E00000000000078
(1675217241.232215) can0 351#00000000
(1675217241.236407) can0 2C4#0391001A08802125
(1675217241.237521) can0 020#000007
(1675217241.237525) can0 0B4#00000000000000BC
(1675217241.237527) can0 025#00170FC37878787E
(1675217241.238858) can0 024#020301FA620B8019
(1675217241.241616) can0 2C1#08014E0056CA0042
(1675217241.243653) can0 0B0#000000001103
(1675217241.243658) can0 0B2#000000001103
(1675217241.243660) can0 223#000000000000002D
(1675217241.249418) can0 440#4202000001000000
(1675217241.249422) can0 020#000007
(1675217241.249424) can0 0B4#00000000000000BC
(1675217241.249746) can0 025#00170FC37878787E
(1675217241.250049) can0 024#020301FB620A8019
(1675217241.251910) can0 260#0E00000000000078
(1675217241.255889) can0 0B0#000000001104
(1675217241.255893) can0 0B2#000000001104
(1675217241.255895) can0 224#0000000000000008
(1675217241.255896) can0 235#00000000003D
(1675217241.260233) can0 2C4#038F001A08802123
(1675217241.261950) can0 020#000007
(1675217241.262005) can0 0B4#00000000000000BC
(1675217241.262011) can0 025#00170FC37878787E
(1675217241.262013) can0 024#020201FA620A8118
(1675217241.262761) can0 2D0#06AE0900100000A7
(1675217241.268171) can0 0B0#000000001105
(1675217241.269308) can0 0B2#000000001105
(1675217241.269314) can0 223#000000000000002D
(1675217241.271903) can0 260#0E00000000000078
(1675217241.272525) can0 3B1#0000002500000000
(1675217241.272964) can0 2C1#08014E0054CA0040
(1675217241.273366) can0 020#000007
(1675217241.273675) can0 0B4#00000000000000BC
(1675217241.273919) can0 025#00170FC37878787E
(1675217241.274215) can0 620#1080022DF0402000
(1675217241.274492) can0 024#020301F9620B8018
(1675217241.279999) can0 0B0#000000001106
(1675217241.280006) can0 0B2#000000001106
(1675217241.280009) can0 224#0000000000000008
(1675217241.280012) can0 235#00000000003D
(1675217241.283688) can0 2C4#0392001A08802126
(1675217241.285596) can0 020#000007
(1675217241.285600) can0 0B4#00000000000000BC
(1675217241.285934) can0 025#00170FC37878787E
(1675217241.286727) can0 024#020201FA620B8119
(1675217241.292337) can0 0B0#000000001107
(1675217241.292347) can0 0B2#000000001107
(1675217241.292351) can0 223#000000000000002D
(1675217241.292355) can0 260#0E00000000000078
(1675217241.293615) can0 351#00000000
(1675217241.294690) can0 2D0#06B20900100000AB
(1675217241.295520) can0 382#1C1C
(1675217241.295523) can0 3A0#005900000000001F
(1675217241.297665) can0 020#000007
(1675217241.297669) can0 0B4#00000000000000BC
(1675217241.298007) can0 024#020301FA620A8018
(1675217241.298502) can0 025#00170FC38282829C
(1675217241.304142) can0 0B0#000000001108
(1675217241.304146) can0 0B2#000000001108
(1675217241.304750) can0 224#0000000000000008
(1675217241.305139) can0 235#00000000003D
(1675217241.305144) can0 2C1#080156005CCA0050
(1675217241.306791) can0 2C4#038D001A08802121
(1675217241.309843) can0 020#000007
(1675217241.310415) can0 0B4#00000000000000BC
(1675217241.310421) can0 024#020301FA62098017
(1675217241.310424) can0 025#00170FC37878787E
(1675217241.310699) can0 398#00F2
(1675217241.311943) can0 260#0E00000000000078
(1675217241.316064) can0 0B0#000000001109
(1675217241.316068) can0 0B2#000000001109
(1675217241.316781) can0 223#000000000000002D
(1675217241.319674) can0 622#1200E83000000000
(1675217241.320275) can0 423#00
(1675217241.321822) can0 020#000007
(1675217241.321826) can0 0B4#00000000000000BC
(1675217241.322528) can0 025#00170FC37878787E
(1675217241.322531) can0 024#020301F9620A8017
(1675217241.326384) can0 2D0#06B50900100000AE
(1675217241.328087) can0 0B0#00000000110A
(1675217241.328092) can0 0B2#00000000110A
(1675217241.328177) can0 224#0000000000000008
(1675217241.328226) can0 235#00000000003D
(1675217241.330848) can0 2C4#0384001A08802118
(1675217241.331581) can0 260#0E00000000000078
(1675217241.333827) can0 020#000007
(1675217241.333831) can0 0B4#00000000000000BC
(1675217241.334395) can0 025#00170FC37878787E
(1675217241.334678) can0 024#020301F9620B8018
(1675217241.336916) can0 2C1#0801570058CA004D
(1675217241.339887) can0 0B0#00000000110B
(1675217241.339893) can0 0B2#00000000110B
(1675217241.340303) can0 223#000000000000002D
(1675217241.345876) can0 020#000007
(1675217241.345881) can0 0B4#00000000000000BC
(1675217241.346503) can0 024#020301FA620A8018
(1675217241.346508) can0 025#00170FC37878787E
(1675217241.349268) can0 442#4002000000000000
(1675217241.351943) can0 260#0E00000000000078
(1675217241.351948) can0 0B0#00000000110C
(1675217241.352458) can0 0B2#00000000110C
(1675217241.352464) can0 224#0000000000000008
(1675217241.352467) can0 235#00000000003D
(1675217241.353151) can0 351#00000000
