(1675216667.071557) can0 2D0#06DF0900100000D8
(1675216667.071561) can0 0B0#000000001104
(1675216667.072150) can0 0B2#000000001104
(1675216667.072153) can0 224#0000000000000008
(1675216667.072155) can0 235#00000000003D
(1675216667.077586) can0 020#000007
(1675216667.077822) can0 0B4#00000000000000BC
(1675216667.078364) can0 025#00160FC37878787D
(1675216667.078644) can0 024#020301FA620A8018
(1675216667.081532) can0 2C1#0802680107D30018
(1675216667.083959) can0 0B0#000000001105
(1675216667.083966) can0 0B2#000000001105
(1675216667.084342) can0 223#000000000000002D
(1675216667.085212) can0 3A0#004D00000000001E
(1675216667.085916) can0 260#0E00000000000078
(1675216667.088133) can0 2C4#03A2001808802134
(1675216667.089816) can0 020#000007
(1675216667.089820) can0 0B4#00000000000000BC
(1675216667.090291) can0 024#020301FA620B8019
(1675216667.090320) can0 025#00160FC37878787D
(1675216667.095876) can0 0B0#000000001106
(1675216667.095878) can0 0B2#000000001106
(1675216667.096190) can0 224#0000000000000008
(1675216667.096537) can0 235#00000000003D
(1675216667.101782) can0 020#000007
(1675216667.101785) can0 0B4#00000000000000BC
(1675216667.102305) can0 024#020301F9620B8018
(1675216667.102307) can0 025#00160FC37878787D
(1675216667.102986) can0 2D0#06DD0900100000D6
(1675216667.106024) can0 260#0E00000000000078
(1675216667.106556) can0 351#00000000
(1675216667.108012) can0 0B0#000000001107
(1675216667.108251) can0 0B2#000000001107
(1675216667.108253) can0 223#000000000000002D
(1675216667.111076) can0 442#4002000000000000
(1675216667.111079) can0 2C4#039E001808802130
(1675216667.113202) can0 2C1#0802670104D30014
(1675216667.113900) can0 020#000007
(1675216667.113902) can0 0B4#00000000000000BC
(1675216667.114464) can0 025#00160FC37878787D
(1675216667.114467) can0 024#020301FA620A8018
(1675216667.120280) can0 0B0#000000001108
(1675216667.120284) can0 0B2#000000001108
(1675216667.120285) can0 224#0000000000000008
(1675216667.120556) can0 235#00000000003D
(1675216667.126178) can0 260#0E00000000000078
(1675216667.126188) can0 020#000007
(1675216667.126718) can0 0B4#00000000000000BC
(1675216667.126723) can0 025#00160FC37878787D
(1675216667.126725) can0 024#020301FA620A8018
(1675216667.132255) can0 0B0#000000001109
(1675216667.132259) can0 0B2#000000001109
(1675216667.132753) can0 223#000000000000002D
(1675216667.135135) can0 2D0#06DB0900100000D4
(1675216667.135139) can0 2C4#03A0001808802132
(1675216667.138166) can0 020#000007
(1675216667.138175) can0 0B4#00000000000000BC
(1675216667.138177) can0 025#00160FC37878787D
(1675216667.139382) can0 024#020301FB620A8019
(1675216667.144097) can0 0B0#00000000110A
(1675216667.144102) can0 0B2#00000000110A
(1675216667.144522) can0 224#0000000000000008
(1675216667.144525) can0 235#00000000003D
(1675216667.145249) can0 2C1#0802730103D3001F
(1675216667.145944) can0 260#0E00000000000078
(1675216667.150342) can0 020#000007
(1675216667.150348) can0 0B4#00000000000000BC
(1675216667.150350) can0 025#00160FC37878787D
(1675216667.150482) can0 024#020301F9620A8017
(1675216667.156149) can0 0B0#00000000110B
(1675216667.156156) can0 0B2#00000000110B
(1675216667.156460) can0 223#000000000000002D
(1675216667.158706) can0 2C4#039F001808802131
(1675216667.162580) can0 020#000007
(1675216667.162583) can0 0B4#00000000000000BC
(1675216667.162584) can0 025#00160FC37878787D
(1675216667.162850) can0 024#020301F9620A8017
(1675216667.165965) can0 260#0E00000000000078
(1675216667.166608) can0 2D0#06D70900100000D0
(1675216667.166610) can0 351#00000000
(1675216667.168597) can0 0B0#00000000110C
(1675216667.168603) can0 0B2#00000000110C
(1675216667.168993) can0 224#0000000000000008
(1675216667.168997) can0 235#00000000003D
(1675216667.169580) can0 3B7#0000800000000000
(1675216667.174529) can0 020#000007
(1675216667.174535) can0 0B4#00000000000000BC
(1675216667.174537) can0 025#00160FC37878787D
(1675216667.174960) can0 024#020301FA620B8019
(1675216667.176977) can0 2C1#0802730104D30020
(1675216667.180371) can0 0B0#00000000110D
(1675216667.180375) can0 0B2#00000000110D
(1675216667.180626) can0 223#000000000000002D
(1675216667.181962) can0 2C4#03A2001808802134
(1675216667.185052) can0 3A0#004E00000000001E
(1675216667.185889) can0 260#0E00000000000078
(1675216667.186275) can0 020#000007
(1675216667.186278) can0 0B4#00000000000000BC
(1675216667.186844) can0 025#00160FC37878787D
(1675216667.187190) can0 024#020301FA620A8018
(1675216667.192418) can0 0B0#00000000110E
(1675216667.192422) can0 0B2#00000000110E
(1675216667.192643) can0 224#0000000000000008
(1675216667.192903) can0 235#00000000003D
(1675216667.198501) can0 2D0#06D10900100000CA
(1675216667.198505) can0 020#000007
(1675216667.198506) can0 0B4#00000000000000BC
(1675216667.198889) can0 025#00160FC37878787D
(1675216667.199720) can0 024#020301FA620A8018
(1675216667.204728) can0 0B0#00000000110F
(1675216667.204731) can0 0B2#00000000110F
(1675216667.205478) can0 223#000000000000002D
(1675216667.205483) can0 2C4#03A2001808802134
(1675216667.205959) can0 260#0E00000000000078
(1675216667.208721) can0 2C1#0802680105D30016
(1675216667.209986) can0 440#4202000001000000
(1675216667.210296) can0 020#000007
(1675216667.210639) can0 0B4#00000000000000BC
(1675216667.210642) can0 025#00160FC37878787D
(1675216667.210843) can0 024#020301FA620B8019
(1675216667.215148) can0 4DC#1D00030200000000
(1675216667.216853) can0 0B0#000000001100
(1675216667.216858) can0 0B2#000000001100
(1675216667.216860) can0 224#0000000000000008
(1675216667.217212) can0 235#00000000003D
(1675216667.222951) can0 020#000007
(1675216667.222955) can0 0B4#00000000000000BC
(1675216667.222957) can0 025#00160FC37878787D
(1675216667.222958) can0 024#020301FA620B8019
(1675216667.225095) can0 38C#0000000000000037
(1675216667.226070) can0 260#0E00000000000078
(1675216667.226784) can0 351#00000000
(1675216667.228814) can0 0B0#000000001101
(1675216667.228818) can0 0B2#000000001101
(1675216667.229134) can0 223#000000000000002D
(1675216667.229138) can0 2C4#03A6001808802138
(1675216667.230132) can0 2D0#06CE0900100000C7
(1675216667.234998) can0 020#000007
(1675216667.235004) can0 0B4#00000000000000BC
(1675216667.235007) can0 025#00160FC37878787D
(1675216667.235009) can0 381#0000032000000000
(1675216667.235359) can0 024#020301FA620B8019
(1675216667.240464) can0 2C1#080272010DD30028
(1675216667.240468) can0 0B0#000000001102
(1675216667.240824) can0 0B2#000000001102
(1675216667.240829) can0 224#0000000000000008
(1675216667.241093) can0 235#00000000003D
(1675216667.246387) can0 260#0E00000000000078
(1675216667.246391) can0 020#000007
(1675216667.246678) can0 0B4#00000000000000BC
(1675216667.247499) can0 025#00160FC38282829B
(1675216667.247502) can0 024#020301FA620A8018
(1675216667.252847) can0 2C4#03A6001808802138
(1675216667.252851) can0 0B0#000000001103
(1675216667.253134) can0 0B2#000000001103
(1675216667.253984) can0 223#000000000000002D
(1675216667.255109) can0 3B0#0000002A0000
(1675216667.258611) can0 020#000007
(1675216667.258617) can0 0B4#00000000000000BC
(1675216667.258820) can0 024#020301FA620B8019
(1675216667.259259) can0 025#00160FC37878787D
(1675216667.259888) can0 622#1200E83000000000
(1675216667.262176) can0 2D0#06CE0900100000C7
(1675216667.262673) can0 3B3#03A628
(1675216667.264889) can0 0B0#000000001104
(1675216667.264892) can0 0B2#000000001104
(1675216667.264894) can0 224#0000000000000008
(1675216667.265238) can0 235#00000000003D
(1675216667.265977) can0 260#0E00000000000078
(1675216667.271138) can0 020#000007
(1675216667.271142) can0 0B4#00000000000000BC
(1675216667.271143) can0 024#020301F9620B8018
(1675216667.271472) can0 025#00160FC37878787D
(1675216667.271911) can0 2C1#080270010BD30024
(1675216667.275483) can0 620#1000022CF0402040
(1675216667.276114) can0 2C4#03A4001808802136
(1675216667.276633) can0 0B0#000000001105
(1675216667.276636) can0 0B2#000000001105
(1675216667.277014) can0 223#000000000000002D
(1675216667.283290) can0 020#000007
(1675216667.283294) can0 0B4#00000000000000BC
(1675216667.283591) can0 025#00160FC37878787D
(1675216667.284594) can0 024#020301FA620B8019
(1675216667.285219) can0 3A0#004E00000000001E
(1675216667.286012) can0 260#0E00000000000078
(1675216667.286830) can0 351#00000000
(1675216667.289390) can0 0B0#000000001106
(1675216667.289397) can0 0B2#000000001106
(1675216667.289400) can0 224#0000000000000008
(1675216667.290321) can0 235#00000000003D
(1675216667.293877) can0 2D0#06D00900100000C9
(1675216667.294717) can0 020#000007
(1675216667.294720) can0 0B4#00000000000000BC
(1675216667.295372) can0 025#00160FC37878787D
(1675216667.295777) can0 024#020301FB620A8019
(1675216667.300069) can0 2C4#03A4001808802136
(1675216667.300780) can0 0B0#000000001107
(1675216667.300783) can0 0B2#000000001107
(1675216667.301195) can0 223#000000000000002D
(1675216667.301197) can0 442#4002000000000000
(1675216667.304143) can0 2C1#08026C0105D3001A
(1675216667.306217) can0 260#0E00000000000078
(1675216667.306585) can0 020#000007
(1675216667.306931) can0 0B4#00000000000000BC
(1675216667.306933) can0 024#020301FB620A8019
(1675216667.307334) can0 025#00160FC37878787D
(1675216667.313412) can0 0B0#000000001108
(1675216667.313420) can0 0B2#000000001108
(1675216667.313422) can0 224#0000000000000008
(1675216667.313423) can0 235#00000000003D
(1675216667.314902) can0 380#200808200000FC00
(1675216667.319138) can0 020#000007
(1675216667.319144) can0 0B4#00000000000000BC
(1675216667.319469) can0 024#020301F9620A8017
(1675216667.319471) can0 025#00160FC37878787D
(1675216667.323216) can0 2C4#039E001808802130
(1675216667.324336) can0 3B4#000096B080000000
(1675216667.324735) can0 0B0#000000001109
(1675216667.325068) can0 0B2#000000001109
(1675216667.325075) can0 223#000000000000002D
(1675216667.325258) can0 2D0#06D30900100000CC
(1675216667.326218) can0 260#0E00000000000078
(1675216667.331196) can0 020#000007
(1675216667.331201) can0 0B4#00000000000000BC
(1675216667.331536) can0 025#00160FC37878787D
(1675216667.331539) can0 024#020301FA620B8019
(1675216667.335578) can0 2C1#0802760107D30026
(1675216667.336881) can0 0B0#00000000110A
(1675216667.336955) can0 0B2#00000000110A
(1675216667.337418) can0 224#0000000000000008
(1675216667.337422) can0 235#00000000003D
(1675216667.343203) can0 020#000007
(1675216667.343207) can0 0B4#00000000000000BC
(1675216667.343208) can0 025#00160FC37878787D
(1675216667.344013) can0 024#020301FA620B8019
(1675216667.344821) can0 3A1#0000000000FF0000
(1675216667.345942) can0 260#0E00000000000078
(1675216667.346746) can0 2C4#039D00180880212F
(1675216667.346749) can0 351#00000000
(1675216667.348911) can0 0B0#00000000110B
(1675216667.348916) can0 0B2#00000000110B
(1675216667.349305) can0 223#000000000000002D
(1675216667.355041) can0 020#000007
(1675216667.355045) can0 0B4#00000000000000BC
(1675216667.355295) can0 024#020301FA620A8018
(1675216667.355516) can0 025#00160FC37878787D
(1675216667.357215) can0 2D0#06D30900100000CC
(1675216667.361322) can0 0B0#00000000110C
(1675216667.361327) can0 0B2#00000000110C
(1675216667.361330) can0 224#0000000000000008
(1675216667.361646) can0 235#00000000003D
(1675216667.364824) can0 394#00
(1675216667.364828) can0 382#1E1E
(1675216667.366178) can0 260#0E00000000000078
(1675216667.366874) can0 020#000007
(1675216667.366877) can0 0B4#00000000000000BC
(1675216667.367236) can0 2C1#0802740101D3001E
(1675216667.367472) can0 024#020301FA620A8018
(1675216667.367716) can0 025#00160FC37878787D
(1675216667.370900) can0 2C4#039C00180880212E
(1675216667.373460) can0 0B0#00000000110D
(1675216667.375692) can0 0B2#00000000110D
(1675216667.375695) can0 223#000000000000002D
(1675216667.379029) can0 020#000007
(1675216667.379034) can0 0B4#00000000000000BC
(1675216667.379316) can0 025#00160FC37878787D
(1675216667.379718) can0 024#020301FA620B8019
(1675216667.384817) can0 3A0#004E00000000001E
(1675216667.384821) can0 0B0#00000000110E
(1675216667.385279) can0 0B2#00000000110E
(1675216667.385281) can0 224#0000000000000008
(1675216667.385603) can0 235#00000000003D
(1675216667.385988) can0 260#0E00000000000078
(1675216667.388700) can0 2D0#06D10900100000CA
(1675216667.390907) can0 020#000007
(1675216667.390911) can0 0B4#00000000000000BC
(1675216667.391325) can0 025#00160FC37878787D
(1675216667.392105) can0 024#020301FA620B8019
(1675216667.394064) can0 2C4#039A00180880212C
(1675216667.397160) can0 0B0#00000000110F
(1675216667.397165) can0 0B2#00000000110F
(1675216667.397431) can0 223#000000000000002D
(1675216667.398872) can0 2C1#080276010BD3002A
(1675216667.399740) can0 440#4202000001000000
(1675216667.401388) can0 610#20000064C0FFFEE0
(1675216667.403353) can0 020#000007
(1675216667.403359) can0 0B4#00000000000000BC
(1675216667.403361) can0 024#020301FA620A8018
(1675216667.403647) can0 025#00160FC37878787D
(1675216667.406116) can0 260#0E00000000000078
(1675216667.406827) can0 351#00000000
(1675216667.409783) can0 0B0#000000001100
(1675216667.409787) can0 0B2#000000001100
(1675216667.409788) can0 224#0000000000000008
(1675216667.411679) can0 235#00000000003D
(1675216667.415247) can0 020#000007
(1675216667.415252) can0 0B4#00000000000000BC
(1675216667.415620) can0 025#00160FC37878787D
(1675216667.415623) can0 024#020301FA620A8018
(1675216667.417587) can0 2C4#039900180880212B
(1675216667.420603) can0 2D0#06CD0900100000C6
(1675216667.421363) can0 0B0#000000001101
(1675216667.421367) can0 0B2#000000001101
(1675216667.421668) can0 223#000000000000002D
(1675216667.426295) can0 260#0E00000000000078
(1675216667.427314) can0 020#000007
(1675216667.427318) can0 0B4#00000000000000BC
(1675216667.427655) can0 025#00160FC37878787D
(1675216667.427877) can0 024#020301FA620B8019
(1675216667.431372) can0 2C1#08027B010BD3002F
(1675216667.433629) can0 0B0#000000001102
(1675216667.433633) can0 0B2#000000001102
(1675216667.433635) can0 224#0000000000000008
(1675216667.433989) can0 235#00000000003D
(1675216667.439448) can0 020#000007
(1675216667.439451) can0 0B4#00000000000000BC
(1675216667.440160) can0 025#00160FC37878787D
(1675216667.440831) can0 024#020301FA620B8019
(1675216667.440834) can0 2C4#039800180880212A
(1675216667.445858) can0 0B0#000000001103
(1675216667.445906) can0 0B2#000000001103
(1675216667.446079) can0 223#000000000000002D
(1675216667.447147) can0 260#0E00000000000078
(1675216667.447151) can0 4C8#0900010200000000
(1675216667.451802) can0 020#000007
(1675216667.452308) can0 0B4#00000000000000BC
(1675216667.452312) can0 025#00160FC37878787D
(1675216667.453537) can0 2D0#06C60900100000BF
(1675216667.453541) can0 024#020301FA620B8019
(1675216667.458268) can0 0B0#000000001104
(1675216667.458272) can0 0B2#000000001104
(1675216667.459567) can0 224#0000000000000008
(1675216667.459571) can0 235#00000000003D
(1675216667.460961) can0 4C3#0300120100000000
(1675216667.462796) can0 2C1#080284010BD40039
(1675216667.463628) can0 020#000007
(1675216667.463638) can0 0B4#00000000000000BC
(1675216667.463640) can0 024#020301FB620A8019
(1675216667.464200) can0 025#00160FC37878787D
(1675216667.464506) can0 2C4#039800180880212A
(1675216667.466040) can0 260#0E00000000000078
(1675216667.466788) can0 351#00000000
(1675216667.470043) can0 0B0#000000001105
(1675216667.470055) can0 0B2#000000001105
(1675216667.470062) can0 223#000000000000002D
(1675216667.470066) can0 3B7#0000800000000000
(1675216667.475866) can0 020#000007
(1675216667.475874) can0 0B4#00000000000000BC
(1675216667.475877) can0 025#00160FC37878787D
(1675216667.477502) can0 024#020301FB620A8019
(1675216667.482042) can0 0B0#000000001106
(1675216667.482048) can0 0B2#000000001106
(1675216667.482050) can0 224#0000000000000008
(1675216667.482052) can0 235#00000000003D
(1675216667.484108) can0 2D0#06C20900100000BB
(1675216667.484791) can0 3A0#004E00000000001D
(1675216667.486477) can0 260#0E00000000000078
(1675216667.488055) can0 020#000007
(1675216667.488061) can0 0B4#00000000000000BC
(1675216667.488064) can0 025#00160FC37878787D
(1675216667.488412) can0 2C4#0395001808802127
(1675216667.489399) can0 024#020301F9620A8017
(1675216667.491216) can0 442#4002000000000000
(1675216667.494034) can0 0B0#000000001107
(1675216667.494042) can0 0B2#000000001107
(1675216667.494044) can0 223#000000000000002D
(1675216667.495617) can0 2C1#08028A0111D40045
(1675216667.499753) can0 020#000007
(1675216667.499758) can0 0B4#00000000000000BC
(1675216667.499760) can0 025#00160FC37878787D
(1675216667.500458) can0 024#020301F9620A8017
(1675216667.506007) can0 0B0#000000001108
(1675216667.506014) can0 0B2#000000001108
(1675216667.506022) can0 224#0000000000000008
(1675216667.506376) can0 235#00000000003D
(1675216667.507070) can0 260#0E00000000000078
(1675216667.511836) can0 020#000007
(1675216667.511843) can0 0B4#00000000000000BC
(1675216667.511845) can0 024#020301FA620A8018
(1675216667.512356) can0 025#00160FC37878787D
(1675216667.512360) can0 2C4#0394001808802126
(1675216667.515891) can0 2D0#06BF0900100000B8
(1675216667.517615) can0 0B0#000000001109
(1675216667.517619) can0 0B2#000000001109
(1675216667.517982) can0 223#000000000000002D
(1675216667.523708) can0 020#000007
(1675216667.523712) can0 0B4#00000000000000BC
(1675216667.524256) can0 024#020301FA620A8018
(1675216667.524259) can0 025#00160FC38282829B
(1675216667.526281) can0 2C1#08027B0110D30034
(1675216667.526289) can0 260#0E00000000000078
(1675216667.526837) can0 351#00000000
(1675216667.529936) can0 0B0#00000000110A
(1675216667.529940) can0 0B2#00000000110A
(1675216667.530298) can0 224#0000000000000008
(1675216667.530802) can0 235#00000000003D
(1675216667.535435) can0 2C4#039900180880212B
(1675216667.535439) can0 020#000007
(1675216667.535941) can0 0B4#00000000000000BC
(1675216667.536477) can0 024#020301FA620A8018
(1675216667.536479) can0 025#00160FC37878787D
(1675216667.542128) can0 0B0#00000000110B
(1675216667.542132) can0 0B2#00000000110B
(1675216667.543170) can0 223#000000000000002D
(1675216667.546441) can0 260#0E00000000000078
(1675216667.547701) can0 2D0#06BB0900100000B4
(1675216667.547708) can0 020#000007
(1675216667.548372) can0 0B4#00000000000000BC
(1675216667.548376) can0 025#00160FC37878787D
(1675216667.548664) can0 024#020301FA620B8019
(1675216667.554202) can0 0B0#00000000110C
(1675216667.554207) can0 0B2#00000000110C
(1675216667.554209) can0 224#0000000000000008
(1675216667.555752) can0 235#00000000003D
(1675216667.557803) can0 2C1#08028A010CD40040
(1675216667.558946) can0 2C4#039900180880212B
(1675216667.559711) can0 020#000007
(1675216667.559716) can0 0B4#00000000000000BC
(1675216667.560229) can0 024#020301FA620B8019
(1675216667.560538) can0 025#00160FC37878787D
(1675216667.566211) can0 0B0#00000000110D
(1675216667.566218) can0 0B2#00000000110D
(1675216667.566221) can0 223#000000000000002D
(1675216667.566224) can0 260#0E00000000000078
(1675216667.572360) can0 020#000007
(1675216667.572365) can0 0B4#00000000000000BC
(1675216667.572773) can0 024#020301FA620A8018
(1675216667.572777) can0 025#00160FC37878787D
(1675216667.575002) can0 620#1000022CF0402040
(1675216667.577839) can0 0B0#00000000110E
(1675216667.578314) can0 0B2#00000000110E
(1675216667.578317) can0 224#0000000000000008
(1675216667.579105) can0 235#00000000003D
(1675216667.579109) can0 2D0#06B90900100000B2
(1675216667.582566) can0 2C4#039A00180880212C
(1675216667.583859) can0 020#000007
(1675216667.583865) can0 0B4#00000000000000BC
(1675216667.584602) can0 025#00160FC37878787D
(1675216667.584605) can0 024#020301FA620A8018
(1675216667.584927) can0 3A0#004E00000000001D
(1675216667.586106) can0 260#0E00000000000078
(1675216667.586793) can0 351#00000000
(1675216667.589575) can0 2C1#080270010ED30027
(1675216667.589579) can0 440#4202000001000000
(1675216667.589773) can0 0B0#00000000110F
(1675216667.590420) can0 0B2#00000000110F
(1675216667.590424) can0 223#000000000000002D
(1675216667.595842) can0 020#000007
(1675216667.595881) can0 0B4#00000000000000BC
(1675216667.597000) can0 025#00160FC37878787D
(1675216667.597010) can0 024#020201FA620B8119
(1675216667.601162) can0 611#210010A000028219
(1675216667.601867) can0 0B0#000000001100
(1675216667.601870) can0 0B2#000000001100
(1675216667.602287) can0 224#0000000000000008
(1675216667.602290) can0 235#00000000003D
(1675216667.606228) can0 2C4#039B00180880212D
(1675216667.606234) can0 260#0E00000000000078
(1675216667.606237) can0 4DD#1E00000100000000
(1675216667.608188) can0 020#000007
(1675216667.608192) can0 0B4#00000000000000BC
(1675216667.608369) can0 024#020301FA620B8019
(1675216667.609475) can0 025#00160FC37878787D
(1675216667.611202) can0 2D0#06B90900100000B2
(1675216667.614310) can0 0B0#000000001101
(1675216667.614316) can0 0B2#000000001101
(1675216667.614320) can0 223#000000000000002D
(1675216667.616692) can0 4C7#0800012100000000
(1675216667.620202) can0 020#000007
(1675216667.620206) can0 0B4#00000000000000BC
(1675216667.620840) can0 024#020301FA620A8018
(1675216667.620845) can0 025#00160FC37878787D
(1675216667.621202) can0 2C1#08027B010FD30033
(1675216667.626275) can0 0B0#000000001102
(1675216667.626281) can0 0B2#000000001102
(1675216667.626283) can0 224#0000000000000008
(1675216667.627015) can0 235#00000000003D
(1675216667.627019) can0 260#0E00000000000078
(1675216667.629495) can0 2C4#039A00180880212C
(1675216667.632154) can0 020#000007
(1675216667.632160) can0 0B4#00000000000000BC
(1675216667.632538) can0 025#00160FC37878787D
(1675216667.632548) can0 024#020301FB620A8019
(1675216667.638243) can0 0B0#000000001103
(1675216667.638247) can0 0B2#000000001103
(1675216667.638249) can0 223#000000000000002D
(1675216667.641931) can0 4C1#0100090000000000
(1675216667.642935) can0 2D0#06BA0900100000B3
(1675216667.644237) can0 020#000007
(1675216667.644243) can0 0B4#00000000000000BC
(1675216667.644246) can0 025#00160FC37878787D
(1675216667.644833) can0 024#020301FA620A8018
(1675216667.646249) can0 260#0E00000000000078
(1675216667.646252) can0 351#00000000
(1675216667.650588) can0 0B0#000000001104
(1675216667.650592) can0 0B2#000000001104
(1675216667.650594) can0 224#0000000000000008
(1675216667.650595) can0 235#00000000003D
(1675216667.653211) can0 2C1#08027E0110D30037
(1675216667.653215) can0 2C4#039C00180880212E
(1675216667.656314) can0 020#000007
(1675216667.656318) can0 0B4#00000000000000BC
(1675216667.656320) can0 025#00160FC37878787D
(1675216667.657384) can0 024#020301F9620B8018
(1675216667.662382) can0 0B0#000000001105
(1675216667.662386) can0 0B2#000000001105
(1675216667.662388) can0 223#000000000000002D
(1675216667.665268) can0 394#00
(1675216667.666167) can0 260#0E00000000000078
(1675216667.668037) can0 020#000007
(1675216667.668040) can0 0B4#00000000000000BC
(1675216667.668526) can0 025#00160FC37878787D
(1675216667.668529) can0 024#020301FA620B8019
(1675216667.674606) can0 0B0#000000001106
(1675216667.674612) can0 0B2#000000001106
(1675216667.674615) can0 224#0000000000000008
(1675216667.674618) can0 235#00000000003D
(1675216667.675041) can0 2D0#06BD0900100000B6
(1675216667.676853) can0 2C4#039B00180880212D
(1675216667.680299) can0 020#000007
(1675216667.680389) can0 0B4#00000000000000BC
(1675216667.680394) can0 025#00160FC37878787D
(1675216667.680963) can0 442#4002000000000000
(1675216667.680967) can0 024#020301FA620A8018
(1675216667.685148) can0 3A0#004E00000000001D
(1675216667.686341) can0 2C1#080278010DD3002E
(1675216667.686345) can0 0B0#000000001107
(1675216667.686347) can0 0B2#000000001107
(1675216667.686349) can0 223#000000000000002D
(1675216667.686761) can0 260#0E00000000000078
(1675216667.689682) can0 423#00
(1675216667.692254) can0 020#000007
(1675216667.692260) can0 0B4#00000000000000BC
(1675216667.693078) can0 025#00160FC37878787D
(1675216667.693760) can0 024#020301FA620A8018
(1675216667.698567) can0 0B0#000000001108
(1675216667.698572) can0 0B2#000000001108
(1675216667.698575) can0 224#0000000000000008
(1675216667.698911) can0 235#00000000003D
(1675216667.700179) can0 2C4#039D00180880212F
(1675216667.704552) can0 020#000007
(1675216667.704557) can0 0B4#00000000000000BC
(1675216667.705196) can0 025#00160FC37878787D
(1675216667.705199) can0 024#020301FA620B8019
(1675216667.706239) can0 260#0E00000000000078
(1675216667.706243) can0 2D0#06C10900100000BA
(1675216667.706843) can0 351#00000000
(1675216667.710304) can0 0B0#000000001109
(1675216667.710310) can0 0B2#000000001109
(1675216667.710643) can0 223#000000000000002D
(1675216667.716439) can0 020#000007
(1675216667.716444) can0 0B4#00000000000000BC
(1675216667.716446) can0 025#00160FC37878787D
(1675216667.717080) can0 024#020301FA620B8019
(1675216667.717084) can0 2C1#0802780107D30028
(1675216667.722621) can0 0B0#00000000110A
(1675216667.722625) can0 0B2#00000000110A
(1675216667.722807) can0 224#0000000000000008
(1675216667.723739) can0 235#00000000003D
(1675216667.723742) can0 2C4#039B00180880212D
(1675216667.726176) can0 260#0E00000000000078
(1675216667.728894) can0 020#000007
(1675216667.728900) can0 0B4#00000000000000BC
(1675216667.728903) can0 025#00160FC37878787D
(1675216667.728905) can0 024#020301FA620B8019
(1675216667.734920) can0 0B0#00000000110B
(1675216667.734925) can0 0B2#00000000110B
(1675216667.734927) can0 223#000000000000002D
(1675216667.738311) can0 2D0#06C40900100000BD
(1675216667.740874) can0 020#000007
(1675216667.740881) can0 0B4#00000000000000BC
(1675216667.740883) can0 025#00160FC37878787D
(1675216667.740891) can0 024#020301FA620A8018
(1675216667.747001) can0 260#0E00000000000078
(1675216667.747012) can0 0B0#00000000110C
(1675216667.747015) can0 0B2#00000000110C
(1675216667.747017) can0 224#0000000000000008
(1675216667.747019) can0 235#00000000003D
(1675216667.747282) can0 2C4#039B00180880212D
(1675216667.748222) can0 2C1#0802790103D30025
(1675216667.752801) can0 020#000007
(1675216667.752805) can0 0B4#00000000000000BC
(1675216667.752807) can0 025#00160FC37878787D
(1675216667.753507) can0 024#020301FA620A8018
(1675216667.758907) can0 0B0#00000000110D
(1675216667.758915) can0 0B2#00000000110D
(1675216667.758918) can0 223#000000000000002D
(1675216667.764606) can0 020#000007
(1675216667.764612) can0 0B4#00000000000000BC
(1675216667.764947) can0 025#00160FC37878787D
(1675216667.765860) can0 024#020301FA620B8019
(1675216667.766371) can0 260#0E00000000000078
(1675216667.766374) can0 351#00000000
(1675216667.766376) can0 3B1#0000012500000000
(1675216667.769729) can0 2D0#06C70900100000C0
(1675216667.770776) can0 0B0#00000000110E
(1675216667.770780) can0 0B2#00000000110E
(1675216667.770781) can0 224#0000000000000008
(1675216667.771234) can0 235#00000000003D
(1675216667.771239) can0 2C4#039B00180880212D
(1675216667.771489) can0 3B7#0000800000000000
(1675216667.774811) can0 3B3#039C28
(1675216667.776840) can0 020#000007
(1675216667.776844) can0 0B4#00000000000000BC
(1675216667.776846) can0 025#00160FC37878787D
(1675216667.777249) can0 024#020301FA620B8019
(1675216667.780068) can0 440#4202000001000000
(1675216667.780072) can0 2C1#0802760109D30028
(1675216667.782624) can0 0B0#00000000110F
(1675216667.782630) can0 0B2#00000000110F
(1675216667.783027) can0 223#000000000000002D
(1675216667.784482) can0 3A0#004E00000000001D
(1675216667.786476) can0 260#0E00000000000078
(1675216667.789174) can0 020#000007
(1675216667.789179) can0 0B4#00000000000000BC
(1675216667.789181) can0 025#00160FC37878787D
(1675216667.789183) can0 024#020301FA620B8019
(1675216667.794476) can0 2C4#039B00180880212D
(1675216667.794486) can0 0B0#000000001100
(1675216667.794929) can0 0B2#000000001100
(1675216667.794932) can0 224#0000000000000008
(1675216667.795290) can0 235#00000000003D
(1675216667.800654) can0 020#000007
(1675216667.800660) can0 0B4#00000000000000BC
(1675216667.801493) can0 2D0#06C70900100000C0
(1675216667.801496) can0 024#020301FB620A8019
(1675216667.802116) can0 025#00160FC38282829B
(1675216667.806285) can0 260#0E00000000000078
(1675216667.806958) can0 0B0#000000001101
(1675216667.806962) can0 0B2#000000001101
(1675216667.806964) can0 223#000000000000002D
(1675216667.811722) can0 2C1#0802720106D30021
(1675216667.813079) can0 020#000007
(1675216667.813084) can0 0B4#00000000000000BC
(1675216667.813710) can0 025#00160FC37878787D
(1675216667.813719) can0 024#020301FA620A8018
(1675216667.818034) can0 2C4#039C00180880212E
(1675216667.818931) can0 0B0#000000001102
(1675216667.818935) can0 0B2#000000001102
(1675216667.818937) can0 224#0000000000000008
(1675216667.819347) can0 235#00000000003D
(1675216667.819927) can0 621#1100000000000000
(1675216667.825012) can0 020#000007
(1675216667.825016) can0 0B4#00000000000000BC
(1675216667.825018) can0 024#020301F9620B8018
(1675216667.825509) can0 025#00160FC37878787D
(1675216667.826200) can0 260#0E00000000000078
(1675216667.827037) can0 351#00000000
(1675216667.831268) can0 0B0#000000001103
(1675216667.832381) can0 0B2#000000001103
(1675216667.832386) can0 223#000000000000002D
(1675216667.833413) can0 2D0#06C80900100000C1
(1675216667.837067) can0 020#000007
(1675216667.837073) can0 0B4#00000000000000BC
(1675216667.837487) can0 024#020301FA620B8019
(1675216667.837491) can0 025#00160FC37878787D
(1675216667.841564) can0 2C4#039B00180880212D
(1675216667.843155) can0 0B0#000000001104
(1675216667.843162) can0 0B2#000000001104
(1675216667.843165) can0 224#0000000000000008
(1675216667.843168) can0 235#00000000003D
(1675216667.843540) can0 2C1#08027E0108D3002F
(1675216667.846572) can0 260#0E00000000000078
(1675216667.848842) can0 020#000007
(1675216667.848848) can0 0B4#00000000000000BC
(1675216667.849684) can0 025#00160FC37878787D
(1675216667.849689) can0 024#020301FA620A8018
(1675216667.855031) can0 0B0#000000001105
(1675216667.855037) can0 0B2#000000001105
(1675216667.855388) can0 223#000000000000002D
(1675216667.861033) can0 020#000007
(1675216667.861037) can0 0B4#00000000000000BC
(1675216667.861572) can0 025#00160FC37878787D
(1675216667.861982) can0 024#020301FB62098018
(1675216667.865377) can0 2D0#06C90900100000C2
(1675216667.866492) can0 2C4#039D00180880212F
(1675216667.866497) can0 260#0E00000000000078
(1675216667.866937) can0 0B0#000000001106
(1675216667.866942) can0 0B2#000000001106
(1675216667.867550) can0 224#0000000000000008
(1675216667.867553) can0 235#00000000003D
(1675216667.871011) can0 442#4002000000000000
(1675216667.873018) can0 020#000007
(1675216667.873024) can0 0B4#00000000000000BC
(1675216667.873388) can0 024#020301FA620B8019
(1675216667.873392) can0 025#00160FC37878787D
(1675216667.874979) can0 620#1000022CF0402040
(1675216667.874983) can0 2C1#08026E0100D30017
(1675216667.879224) can0 0B0#000000001107
(1675216667.879235) can0 0B2#000000001107
(1675216667.879237) can0 223#000000000000002D
(1675216667.885031) can0 3A0#004E00000000001D
(1675216667.885035) can0 020#000007
(1675216667.885037) can0 0B4#00000000000000BC
(1675216667.885578) can0 025#00160FC37878787D
(1675216667.885581) can0 024#020301FA620B8019
(1675216667.886270) can0 260#0E00000000000078
(1675216667.887066) can0 351#00000000
(1675216667.888826) can0 2C4#039F001808802131
(1675216667.891505) can0 0B0#000000001108
(1675216667.891510) can0 0B2#000000001108
(1675216667.891512) can0 224#0000000000000008
(1675216667.892569) can0 235#00000000003D
(1675216667.896978) can0 2D0#06C80900100000C1
(1675216667.896982) can0 020#000007
(1675216667.896984) can0 0B4#00000000000000BC
(1675216667.897574) can0 025#00160FC37878787D
(1675216667.897579) can0 024#020301FA620A8018
(1675216667.901741) can0 610#20000064C0FFFEE0
(1675216667.903486) can0 0B0#000000001109
(1675216667.903491) can0 0B2#000000001109
(1675216667.903494) can0 223#000000000000002D
(1675216667.906338) can0 260#0E00000000000078
(1675216667.906923) can0 2C1#08026700FFD3000E
(1675216667.909024) can0 020#000007
(1675216667.909029) can0 0B4#00000000000000BC
(1675216667.909471) can0 025#00160FC37878787D
(1675216667.910234) can0 024#020301FA620A8018
(1675216667.912108) can0 2C4#03A0001808802132
(1675216667.915218) can0 0B0#00000000110A
(1675216667.915223) can0 0B2#00000000110A
(1675216667.915225) can0 224#0000000000000008
(1675216667.915624) can0 235#00000000003D
(1675216667.921331) can0 020#000007
(1675216667.921339) can0 0B4#00000000000000BC
(1675216667.921342) can0 024#020301FA620A8018
(1675216667.921562) can0 025#00160FC37878787D
(1675216667.926691) can0 260#0E00000000000078
(1675216667.927117) can0 0B0#00000000110B
(1675216667.927121) can0 0B2#00000000110B
(1675216667.927487) can0 223#000000000000002D
(1675216667.928520) can0 2D0#06C90900100000C2
(1675216667.933692) can0 020#000007
(1675216667.933696) can0 0B4#00000000000000BC
(1675216667.935139) can0 025#00160FC37878787D
(1675216667.935145) can0 024#020301F9620B8018
(1675216667.935590) can0 2C4#039F001808802131
(1675216667.938976) can0 2C1#08027000FDD30015
(1675216667.938984) can0 0B0#00000000110C
(1675216667.939463) can0 0B2#00000000110C
(1675216667.939468) can0 224#0000000000000008
(1675216667.939698) can0 235#00000000003D
(1675216667.945316) can0 020#000007
(1675216667.945320) can0 0B4#00000000000000BC
(1675216667.945322) can0 025#00160FC37878787D
(1675216667.946219) can0 024#020301FA620B8019
(1675216667.946224) can0 260#0E00000000000078
(1675216667.946949) can0 351#00000000
(1675216667.951408) can0 0B0#00000000110D
(1675216667.951427) can0 0B2#00000000110D
(1675216667.951432) can0 223#000000000000002D
(1675216667.957433) can0 020#000007
(1675216667.957439) can0 0B4#00000000000000BC
(1675216667.957440) can0 025#00160FC37878787D
(1675216667.958281) can0 024#020301FA620A8018
(1675216667.959215) can0 2C4#039E001808802130
(1675216667.960209) can0 2D0#06CB0900100000C4
(1675216667.963737) can0 0B0#00000000110E
(1675216667.963744) can0 0B2#00000000110E
(1675216667.963746) can0 224#0000000000000008
(1675216667.963748) can0 235#00000000003D
(1675216667.965141) can0 394#00
(1675216667.966482) can0 260#0E00000000000078
(1675216667.969950) can0 020#000007
(1675216667.969955) can0 0B4#00000000000000BC
(1675216667.970342) can0 024#020301FB620A8019
(1675216667.971110) can0 025#00160FC37878787D
(1675216667.971113) can0 440#4202000001000000
(1675216667.972893) can0 2C1#0802720101D3001C
(1675216667.975424) can0 0B0#00000000110F
(1675216667.975429) can0 0B2#00000000110F
(1675216667.975430) can0 223#000000000000002D
(1675216667.981337) can0 020#000007
(1675216667.981342) can0 0B4#00000000000000BC
(1675216667.981677) can0 025#00160FC37878787D
(1675216667.981680) can0 024#020301FA620A8018
(1675216667.982732) can0 2C4#039F001808802131
(1675216667.983302) can0 4C6#0700010000000000
(1675216667.984376) can0 3A0#004F00000000001D
(1675216667.985112) can0 623#1900000000000000
(1675216667.986311) can0 260#0E00000000000078
(1675216667.987347) can0 0B0#000000001100
(1675216667.987351) can0 0B2#000000001100
(1675216667.987717) can0 224#0000000000000008
(1675216667.987720) can0 235#00000000003D
(1675216667.991980) can0 2D0#06CD0900100000C6
(1675216667.993309) can0 020#000007
(1675216667.993315) can0 0B4#00000000000000BC
(1675216667.993647) can0 025#00160FC37878787D
(1675216667.994189) can0 024#020301F9620B8018
(1675216667.994972) can0 624#1A00414949400000
(1675216667.999686) can0 0B0#000000001101
(1675216667.999691) can0 0B2#000000001101
(1675216667.999692) can0 223#000000000000002D
(1675216668.002336) can0 2C1#0802730100D3001C
(1675216668.006148) can0 020#000007
(1675216668.006153) can0 0B4#00000000000000BC
(1675216668.006534) can0 025#00160FC37878787D
(1675216668.006538) can0 260#0E00000000000078
(1675216668.006540) can0 024#020301FA620B8019
(1675216668.007053) can0 2C4#03A1001808802133
(1675216668.008049) can0 351#00000000
(1675216668.010112) can0 630#1700000000000000
(1675216668.011743) can0 0B0#000000001102
(1675216668.011748) can0 0B2#000000001102
(1675216668.011751) can0 224#0000000000000008
(1675216668.011905) can0 235#00000000003D
(1675216668.017679) can0 020#000007
(1675216668.017685) can0 0B4#00000000000000BC
(1675216668.018032) can0 024#020301FA620A8018
(1675216668.018703) can0 025#00160FC37878787D
(1675216668.024091) can0 0B0#000000001103
(1675216668.024095) can0 0B2#000000001103
(1675216668.024097) can0 223#000000000000002D
(1675216668.025416) can0 2D0#06CD0900100000C6
(1675216668.026334) can0 260#0E00000000000078
(1675216668.030104) can0 020#000007
(1675216668.030113) can0 0B4#00000000000000BC
(1675216668.030116) can0 024#020301FA620A8018
(1675216668.030118) can0 025#00160FC37878787D
(1675216668.030347) can0 2C4#039A00180880212C
(1675216668.033964) can0 2C1#08026700F5D30004
(1675216668.035880) can0 0B0#000000001104
(1675216668.035885) can0 0B2#000000001104
(1675216668.035886) can0 224#0000000000000008
(1675216668.036358) can0 235#00000000003D
(1675216668.041817) can0 020#000007
(1675216668.041824) can0 0B4#00000000000000BC
(1675216668.041827) can0 025#00160FC37878787D
(1675216668.042275) can0 024#020301FA620B8019
(1675216668.046513) can0 260#0E00000000000078
(1675216668.047917) can0 0B0#000000001105
(1675216668.047921) can0 0B2#000000001105
(1675216668.047923) can0 223#000000000000002D
(1675216668.053736) can0 2C4#039B00180880212D
(1675216668.053740) can0 020#000007
(1675216668.053742) can0 0B4#00000000000000BC
(1675216668.054575) can0 024#020301FA620B8019
(1675216668.054579) can0 025#00160FC38282829B
(1675216668.054876) can0 638#1300000000000000
(1675216668.055360) can0 2D0#06CD0900100000C6
(1675216668.060291) can0 0B0#000000001106
(1675216668.060295) can0 0B2#000000001106
(1675216668.060958) can0 224#0000000000000008
(1675216668.061517) can0 235#00000000003D
(1675216668.061519) can0 442#4002000000000000
(1675216668.065877) can0 2C1#08026E00F8D3000E
(1675216668.065882) can0 020#000007
(1675216668.065883) can0 0B4#00000000000000BC
(1675216668.066687) can0 260#0E00000000000078
(1675216668.066691) can0 025#00160FC37878787D
(1675216668.066724) can0 024#020301FA620A8018
(1675216668.067013) can0 351#00000000
(1675216668.072520) can0 0B0#000000001107
(1675216668.072525) can0 0B2#000000001107
(1675216668.073649) can0 223#000000000000002D
(1675216668.073653) can0 3B7#0000800000000000
(1675216668.076910) can0 2C4#039800180880212A
(1675216668.077805) can0 020#000007
(1675216668.077808) can0 0B4#00000000000000BC
(1675216668.078207) can0 024#020301FA620A8018
(1675216668.078532) can0 025#00160FC37878787D
(1675216668.084238) can0 0B0#000000001108
(1675216668.084242) can0 0B2#000000001108
(1675216668.084244) can0 224#0000000000000008
(1675216668.084245) can0 235#00000000003D
(1675216668.086616) can0 260#0E00000000000078
(1675216668.086622) can0 3A0#004F00000000001D
(1675216668.087105) can0 2D0#06CB0900100000C4
(1675216668.090131) can0 020#000007
(1675216668.090136) can0 0B4#00000000000000BC
(1675216668.090138) can0 024#020301FA620A8018
(1675216668.090533) can0 025#00160FC37878787D
(1675216668.096332) can0 0B0#000000001109
(1675216668.097166) can0 0B2#000000001109
(1675216668.097170) can0 223#000000000000002D
(1675216668.097172) can0 2C1#08027400F4D30010
(1675216668.100724) can0 2C4#039800180880212A
(1675216668.102000) can0 020#000007
(1675216668.102004) can0 0B4#00000000000000BC
(1675216668.102647) can0 025#00160FC37878787D
(1675216668.102651) can0 024#020301F9620B8018
(1675216668.106733) can0 260#0E00000000000078
(1675216668.108351) can0 0B0#00000000110A
(1675216668.108355) can0 0B2#00000000110A
(1675216668.108358) can0 224#0000000000000008
(1675216668.108360) can0 235#00000000003D
(1675216668.113941) can0 020#000007
(1675216668.113946) can0 0B4#00000000000000BC
(1675216668.114586) can0 025#00160FC37878787D
(1675216668.114877) can0 024#020301FA620A8018
(1675216668.119709) can0 2D0#06C80900100000C1
(1675216668.119714) can0 0B0#00000000110B
(1675216668.120196) can0 0B2#00000000110B
(1675216668.120206) can0 223#000000000000002D
(1675216668.124391) can0 2C4#0397001808802129
(1675216668.126210) can0 020#000007
(1675216668.126216) can0 0B4#00000000000000BC
(1675216668.126218) can0 260#0E00000000000078
(1675216668.126662) can0 025#00160FC37878787D
(1675216668.127362) can0 351#00000000
(1675216668.127372) can0 024#020301FB620A8019
(1675216668.129264) can0 2C1#08026E00F8D3000E
(1675216668.132236) can0 0B0#00000000110C
(1675216668.132241) can0 0B2#00000000110C
(1675216668.132603) can0 224#0000000000000008
(1675216668.133354) can0 235#00000000003D
(1675216668.137949) can0 020#000007
(1675216668.137954) can0 0B4#00000000000000BC
(1675216668.138325) can0 024#020301FB620A8019
(1675216668.138510) can0 025#00160FC37878787D
(1675216668.144269) can0 0B0#00000000110D
(1675216668.144274) can0 0B2#00000000110D
(1675216668.144275) can0 223#000000000000002D
(1675216668.146822) can0 260#0E00000000000078
(1675216668.147596) can0 2C4#039800180880212A
(1675216668.150105) can0 020#000007
(1675216668.150109) can0 0B4#00000000000000BC
(1675216668.150780) can0 025#00160FC37878787D
(1675216668.150785) can0 024#020301F9620B8018
(1675216668.150787) can0 2D0#06C60900100000BF
(1675216668.156123) can0 0B0#00000000110E
(1675216668.156129) can0 0B2#00000000110E
(1675216668.156562) can0 224#0000000000000008
(1675216668.156565) can0 235#00000000003D
(1675216668.160157) can0 440#4202000001000000
(1675216668.160762) can0 2C1#08026C00F2D30006
(1675216668.161966) can0 020#000007
(1675216668.161970) can0 0B4#00000000000000BC
(1675216668.162476) can0 025#00160FC37878787D
(1675216668.163199) can0 024#020301FA620B8019
(1675216668.166593) can0 260#0E00000000000078
(1675216668.168320) can0 0B0#00000000110F
(1675216668.168324) can0 0B2#00000000110F
(1675216668.168325) can0 223#000000000000002D
(1675216668.171836) can0 2C4#039800180880212A
(1675216668.174665) can0 020#000007
(1675216668.174676) can0 0B4#00000000000000BC
(1675216668.174679) can0 025#00160FC37878787D
(1675216668.175145) can0 620#1000022CF0402040
(1675216668.175149) can0 024#020301FA620B8019
(1675216668.180163) can0 0B0#000000001100
(1675216668.180174) can0 0B2#000000001100
(1675216668.180712) can0 224#0000000000000008
(1675216668.180716) can0 235#00000000003D
(1675216668.182583) can0 2D0#06C20900100000BB
(1675216668.184204) can0 3A0#004E00000000001D
(1675216668.186075) can0 020#000007
(1675216668.186442) can0 0B4#00000000000000BC
(1675216668.186447) can0 260#0E00000000000078
(1675216668.187129) can0 024#020301FB620A811A
(1675216668.187137) can0 025#00160FC37878787D
(1675216668.187140) can0 351#00000000
(1675216668.188416) can0 38A#0800040000
(1675216668.191578) can0 398#00FA
(1675216668.192354) can0 0B0#000000001101
(1675216668.192358) can0 0B2#000000001101
(1675216668.192361) can0 223#000000000000002D
(1675216668.192772) can0 2C1#08026F00F6D3000D
(1675216668.194798) can0 2C4#039B00180880212D
(1675216668.198442) can0 020#000007
(1675216668.198448) can0 0B4#00000000000000BC
(1675216668.198791) can0 025#00160FC37878787D
(1675216668.199513) can0 024#020301FA620A8018
(1675216668.204703) can0 0B0#000000001102
(1675216668.204708) can0 0B2#000000001102
(1675216668.204710) can0 224#0000000000000008
(1675216668.206118) can0 235#00000000003D
(1675216668.206125) can0 260#0E00000000000078
(1675216668.210577) can0 020#000007
(1675216668.210582) can0 0B4#00000000000000BC
(1675216668.210583) can0 025#00160FC37878787D
(1675216668.211090) can0 024#020301FA620B8019
(1675216668.214177) can0 2D0#06BE0900100000B7
(1675216668.214181) can0 4DC#1D00030200000000
(1675216668.216458) can0 0B0#000000001103
(1675216668.216465) can0 0B2#000000001103
(1675216668.216468) can0 223#000000000000002D
(1675216668.218265) can0 2C4#039B00180880212D
(1675216668.222734) can0 020#000007
(1675216668.222740) can0 0B4#00000000000000BC
(1675216668.222742) can0 025#00160FC37878787D
(1675216668.223337) can0 024#020301FA620B8019
(1675216668.224188) can0 38C#0000000000000037
(1675216668.224192) can0 2C1#08027700F6D30015
(1675216668.226454) can0 260#0E00000000000078
(1675216668.228737) can0 0B0#000000001104
(1675216668.228741) can0 0B2#000000001104
(1675216668.228743) can0 224#0000000000000008
(1675216668.228744) can0 235#00000000003D
(1675216668.234298) can0 020#000007
(1675216668.234303) can0 0B4#00000000000000BC
(1675216668.234747) can0 025#00160FC37878787D
(1675216668.234752) can0 024#020301FA620A8018
(1675216668.240588) can0 0B0#000000001105
(1675216668.240595) can0 0B2#000000001105
(1675216668.241945) can0 223#000000000000002D
(1675216668.241948) can0 2C4#039B00180880212D
(1675216668.246219) can0 2D0#06BC0900100000B5
(1675216668.246226) can0 260#0E00000000000078
(1675216668.246711) can0 020#000007
(1675216668.246717) can0 0B4#00000000000000BC
(1675216668.246981) can0 025#00160FC37878787D
(1675216668.246984) can0 024#020301FB620A8019
(1675216668.247324) can0 351#00000000
(1675216668.251285) can0 442#4002000000000000
(1675216668.252908) can0 0B0#000000001106
(1675216668.252915) can0 0B2#000000001106
(1675216668.252918) can0 224#0000000000000008
(1675216668.252920) can0 235#00000000003D
(1675216668.254301) can0 3B0#0000002A0000
(1675216668.256179) can0 2C1#08027400F0D3000C
(1675216668.258958) can0 020#000007
(1675216668.258964) can0 0B4#00000000000000BC
(1675216668.258966) can0 025#00160FC37878787D
(1675216668.258968) can0 024#020301FA620B8019
(1675216668.260217) can0 622#1200E83000000000
(1675216668.264689) can0 0B0#000000001107
(1675216668.264696) can0 0B2#000000001107
(1675216668.264700) can0 223#000000000000002D
(1675216668.264702) can0 394#00
(1675216668.265338) can0 2C4#039B00180880212D
(1675216668.266274) can0 260#0E00000000000078
(1675216668.270609) can0 020#000007
(1675216668.270614) can0 0B4#00000000000000BC
(1675216668.271627) can0 025#00160FC37878787D
(1675216668.271631) can0 024#020301FA620B8019
(1675216668.277259) can0 0B0#000000001108
(1675216668.277793) can0 0B2#000000001108
(1675216668.278277) can0 224#0000000000000008
(1675216668.278281) can0 235#00000000003D
(1675216668.280481) can0 2D0#06BE0900100000B7
(1675216668.282250) can0 020#000007
(1675216668.283050) can0 0B4#00000000000000BC
(1675216668.283054) can0 024#020301FA620B8019
(1675216668.283056) can0 025#00160FC37878787D
(1675216668.284495) can0 3A0#004E00000000001D
(1675216668.286521) can0 260#0E00000000000078
(1675216668.286525) can0 3B3#039E28
(1675216668.287820) can0 2C1#08026C00EED30002
(1675216668.288389) can0 0B0#000000001109
(1675216668.288392) can0 0B2#000000001109
(1675216668.288951) can0 223#000000000000002D
(1675216668.288954) can0 2C4#039B00180880212D
(1675216668.294814) can0 020#000007
(1675216668.294820) can0 0B4#00000000000000BC
(1675216668.295154) can0 025#00160FC37878787D
(1675216668.296268) can0 024#020301FB620A8019
(1675216668.300909) can0 0B0#00000000110A
(1675216668.300915) can0 0B2#00000000110A
(1675216668.300918) can0 224#0000000000000008
(1675216668.301267) can0 235#00000000003D
(1675216668.306468) can0 260#0E00000000000078
(1675216668.306479) can0 020#000007
(1675216668.306959) can0 0B4#00000000000000BC
(1675216668.306963) can0 025#00160FC37878787D
(1675216668.307523) can0 024#020301FB620A8019
(1675216668.307526) can0 351#00000000
(1675216668.309810) can0 2D0#06C10900100000BA
(1675216668.312854) can0 2C4#039B00180880212D
(1675216668.312858) can0 0B0#00000000110B
(1675216668.313253) can0 0B2#00000000110B
(1675216668.313259) can0 223#000000000000002D
(1675216668.314374) can0 380#200808200000FC00
(1675216668.319064) can0 020#000007
(1675216668.319068) can0 0B4#00000000000000BC
(1675216668.319648) can0 2C1#08025F00E8D200EE
(1675216668.319655) can0 024#020301F9620B8018
(1675216668.319803) can0 025#00160FC38282829B
(1675216668.325116) can0 0B0#00000000110C
(1675216668.325120) can0 0B2#00000000110C
(1675216668.325122) can0 224#0000000000000008
(1675216668.325422) can0 235#00000000003D
(1675216668.326502) can0 260#0E00000000000078
(1675216668.331014) can0 020#000007
(1675216668.331018) can0 0B4#00000000000000BC
(1675216668.331670) can0 025#00160FC37878787D
(1675216668.331676) can0 024#020301F9620B8018
(1675216668.336304) can0 2C4#0391001808802123
(1675216668.336993) can0 0B0#00000000110D
(1675216668.336998) can0 0B2#00000000110D
(1675216668.337000) can0 223#000000000000002D
(1675216668.341157) can0 2D0#06C10900100000BA
(1675216668.342791) can0 020#000007
(1675216668.342797) can0 0B4#00000000000000BC
(1675216668.343233) can0 024#020301FA620B8019
(1675216668.343543) can0 025#00160FC37878787D
(1675216668.343967) can0 3A1#0000000000FF0000
(1675216668.346958) can0 260#0E00000000000078
(1675216668.348951) can0 3B4#000097B080000000
(1675216668.348958) can0 0B0#00000000110E
(1675216668.348960) can0 0B2#00000000110E
(1675216668.349199) can0 224#0000000000000008
(1675216668.349521) can0 235#00000000003D
(1675216668.349937) can0 440#4202000001000000
(1675216668.351293) can0 2C1#08026C00EFD30003
(1675216668.355263) can0 020#000007
(1675216668.355269) can0 0B4#00000000000000BC
(1675216668.355272) can0 024#020301FA620A8018
(1675216668.355531) can0 025#00160FC37878787D
(1675216668.359703) can0 2C4#0391001808802123
(1675216668.361223) can0 0B0#00000000110F
(1675216668.361229) can0 0B2#00000000110F
(1675216668.361231) can0 223#000000000000002D
(1675216668.364803) can0 383#0000000000000000
(1675216668.366409) can0 260#0E00000000000078
(1675216668.366927) can0 020#000007
(1675216668.366932) can0 0B4#00000000000000BC
(1675216668.367224) can0 351#00000000
(1675216668.367613) can0 025#00160FC37878787D
(1675216668.367616) can0 024#020301FA620A8018
(1675216668.373077) can0 2D0#06C10900100000BA
(1675216668.373082) can0 0B0#000000001100
(1675216668.373084) can0 0B2#000000001100
(1675216668.373512) can0 224#0000000000000008
(1675216668.373516) can0 235#00000000003D
(1675216668.373936) can0 3B7#0000800000000000
(1675216668.379043) can0 020#000007
(1675216668.379048) can0 0B4#00000000000000BC
(1675216668.379561) can0 025#00160FC37878787D
(1675216668.379889) can0 024#020301FA620B8019
(1675216668.383375) can0 2C1#08027600F3D30011
(1675216668.384037) can0 2C4#0393001808802125
(1675216668.384041) can0 3A0#004E00000000001D
(1675216668.384951) can0 0B0#000000001101
(1675216668.384955) can0 0B2#000000001101
(1675216668.385287) can0 223#000000000000002D
(1675216668.386530) can0 260#0E00000000000078
(1675216668.391189) can0 020#000007
(1675216668.391195) can0 0B4#00000000000000BC
(1675216668.391198) can0 024#020301FA620A8018
(1675216668.391403) can0 025#00160FC37878787D
(1675216668.391839) can0 4C3#0300120100000000
(1675216668.397252) can0 0B0#000000001102
(1675216668.397258) can0 0B2#000000001102
(1675216668.397260) can0 224#0000000000000008
(1675216668.397672) can0 235#00000000003D
(1675216668.401562) can0 610#20000064C0FFFEE0
(1675216668.403077) can0 020#000007
(1675216668.403081) can0 0B4#00000000000000BC
(1675216668.403727) can0 024#020201FA620A8017
(1675216668.403731) can0 025#00160FC37878787D
(1675216668.404495) can0 2D0#06BE0900100000B7
(1675216668.406531) can0 260#0E00000000000078
(1675216668.406536) can0 2C4#0392001808802124
(1675216668.409495) can0 0B0#000000001103
(1675216668.409503) can0 0B2#000000001103
(1675216668.409809) can0 223#000000000000002D
(1675216668.415185) can0 2C1#08027900F9D3001A
(1675216668.415190) can0 020#000007
(1675216668.415778) can0 0B4#00000000000000BC
(1675216668.415783) can0 025#00160FC37878787D
(1675216668.416305) can0 024#020201FA620A7F16
(1675216668.421621) can0 0B0#000000001104
(1675216668.421625) can0 0B2#000000001104
(1675216668.421627) can0 224#0000000000000008
(1675216668.422654) can0 235#00000000003D
(1675216668.426721) can0 260#0E00000000000078
(1675216668.426730) can0 4C8#0900010200000000
(1675216668.427348) can0 020#000007
(1675216668.427354) can0 0B4#00000000000000BC
(1675216668.427356) can0 351#00000000
(1675216668.427528) can0 025#00160FC37878787D
(1675216668.428065) can0 024#020301F9620B8018
(1675216668.430141) can0 2C4#0394001808802126
(1675216668.433619) can0 0B0#000000001105
(1675216668.434809) can0 0B2#000000001105
(1675216668.434813) can0 223#000000000000002D
(1675216668.436781) can0 2D0#06B80900100000B1
(1675216668.439492) can0 020#000007
(1675216668.439497) can0 0B4#00000000000000BC
(1675216668.440598) can0 025#00160FC37878787D
(1675216668.440601) can0 024#020301FA620B8019
(1675216668.440603) can0 442#4002000000000000
(1675216668.445559) can0 0B0#000000001106
(1675216668.445564) can0 0B2#000000001106
(1675216668.445565) can0 224#0000000000000008
(1675216668.445709) can0 235#00000000003D
(1675216668.446572) can0 260#0E00000000000078
(1675216668.446576) can0 2C1#08027800FCD3001C
(1675216668.451287) can0 020#000007
(1675216668.451338) can0 0B4#00000000000000BC
(1675216668.451792) can0 025#00160FC37878787D
(1675216668.451796) can0 024#020301FA620A8018
(1675216668.453785) can0 2C4#0397001808802129
(1675216668.457617) can0 0B0#000000001107
(1675216668.457624) can0 0B2#000000001107
(1675216668.458929) can0 223#000000000000002D
(1675216668.463589) can0 020#000007
(1675216668.463596) can0 0B4#00000000000000BC
(1675216668.463599) can0 025#00160FC37878787D
(1675216668.464070) can0 024#020301FB620A8019
(1675216668.466585) can0 260#0E00000000000078
(1675216668.468741) can0 2D0#06B40900100000AD
(1675216668.469569) can0 0B0#000000001108
(1675216668.469575) can0 0B2#000000001108
(1675216668.469577) can0 224#0000000000000008
(1675216668.469812) can0 235#00000000003D
(1675216668.475670) can0 620#1000022CF0402040
(1675216668.475678) can0 020#000007
(1675216668.475680) can0 0B4#00000000000000BC
(1675216668.475682) can0 025#00160FC37878787D
(1675216668.476254) can0 024#020301FA620A8018
(1675216668.477757) can0 2C4#0394001808802126
(1675216668.478392) can0 2C1#08027300F7D30012
(1675216668.481597) can0 0B0#000000001109
(1675216668.481601) can0 0B2#000000001109
(1675216668.482593) can0 223#000000000000002D
(1675216668.484369) can0 3A0#004F00000000001D
(1675216668.486520) can0 260#0E00000000000078
(1675216668.487282) can0 351#00000000
(1675216668.487291) can0 020#000007
(1675216668.487294) can0 0B4#00000000000000BC
(1675216668.487551) can0 025#00160FC37878787D
(1675216668.488715) can0 024#020301F9620B8018
(1675216668.494056) can0 0B0#00000000110A
(1675216668.496149) can0 0B2#00000000110A
(1675216668.496153) can0 224#0000000000000008
(1675216668.498024) can0 235#00000000003D
(1675216668.499663) can0 020#000007
(1675216668.499676) can0 0B4#00000000000000BC
(1675216668.499679) can0 025#00160FC37878787D
(1675216668.499830) can0 024#020301FA620B8019
(1675216668.500267) can0 2D0#06B10900100000AA
(1675216668.500871) can0 2C4#0395001808802127
(1675216668.505843) can0 0B0#00000000110B
(1675216668.505847) can0 0B2#00000000110B
(1675216668.506440) can0 223#000000000000002D
(1675216668.506928) can0 260#0E00000000000078
(1675216668.510064) can0 2C1#08027200FCD30016
(1675216668.511450) can0 020#000007
(1675216668.511456) can0 0B4#00000000000000BC
(1675216668.512066) can0 025#00160FC37878787D
(1675216668.512072) can0 024#020301FA620A8018
(1675216668.517711) can0 0B0#00000000110C
(1675216668.517715) can0 0B2#00000000110C
(1675216668.518199) can0 224#0000000000000008
(1675216668.518203) can0 235#00000000003D
(1675216668.524306) can0 020#000007
(1675216668.524312) can0 0B4#00000000000000BC
(1675216668.524623) can0 025#00160FC37878787D
(1675216668.525331) can0 024#020301FA62098017
(1675216668.525334) can0 2C4#038F001808802121
(1675216668.526618) can0 260#0E00000000000078
(1675216668.529669) can0 0B0#00000000110D
(1675216668.529675) can0 0B2#00000000110D
(1675216668.530021) can0 223#000000000000002D
(1675216668.531552) can0 2D0#06B10900100000AA
(1675216668.535896) can0 020#000007
(1675216668.535901) can0 0B4#00000000000000BC
(1675216668.535903) can0 025#00160FC37878787D
(1675216668.536637) can0 024#020301FA620A8018
(1675216668.539959) can0 440#4202000001000000
(1675216668.541786) can0 0B0#00000000110E
(1675216668.541796) can0 0B2#00000000110E
(1675216668.541799) can0 224#0000000000000008
(1675216668.541928) can0 235#00000000003D
(1675216668.542338) can0 2C1#08027500FAD30017
(1675216668.546566) can0 260#0E00000000000078
(1675216668.547181) can0 351#00000000
(1675216668.547184) can0 020#000007
(1675216668.547766) can0 0B4#00000000000000BC
(1675216668.547769) can0 025#00160FC37878787D
(1675216668.548201) can0 024#020301FA620B7F18
(1675216668.548204) can0 2C4#038E001808802120
(1675216668.552196) can0 4C1#0100090000000000
(1675216668.553489) can0 0B0#00000000110F
(1675216668.553493) can0 0B2#00000000110F
(1675216668.553934) can0 223#000000000000002D
(1675216668.560135) can0 020#000007
(1675216668.560139) can0 0B4#00000000000000BC
(1675216668.561614) can0 025#00160FC37878787D
(1675216668.561618) can0 024#020301FA620A8018
(1675216668.563843) can0 2D0#06B10900100000AA
(1675216668.565262) can0 394#00
(1675216668.565839) can0 0B0#000000001100
(1675216668.565843) can0 0B2#000000001100
(1675216668.566522) can0 224#0000000000000008
(1675216668.566531) can0 235#00000000003D
(1675216668.566534) can0 260#0E00000000000078
(1675216668.571957) can0 2C4#0390001808802122
(1675216668.571962) can0 020#000007
(1675216668.571963) can0 0B4#00000000000000BC
(1675216668.572544) can0 025#00160FC37878787D
(1675216668.573467) can0 024#020301FA620A8018
(1675216668.573470) can0 2C1#08027700FED3001D
(1675216668.577988) can0 0B0#000000001101
(1675216668.577993) can0 0B2#000000001101
(1675216668.577995) can0 223#000000000000002D
(1675216668.583822) can0 020#000007
(1675216668.583826) can0 0B4#00000000000000BC
(1675216668.584909) can0 025#00160FC38282829B
(1675216668.584914) can0 024#020301FA620A8018
(1675216668.584916) can0 3A0#004F00000000001D
(1675216668.586715) can0 260#0E00000000000078
(1675216668.586720) can0 4C7#0800012100000000
(1675216668.589878) can0 0B0#000000001102
(1675216668.589883) can0 0B2#000000001102
(1675216668.590667) can0 224#0000000000000008
(1675216668.590672) can0 235#00000000003D
(1675216668.595592) can0 2D0#06AF0900100000A8
(1675216668.595600) can0 2C4#038E001808802120
(1675216668.595602) can0 020#000007
(1675216668.595804) can0 0B4#00000000000000BC
(1675216668.596881) can0 025#00160FC37878787D
(1675216668.596885) can0 024#020301F9620B8018
(1675216668.601241) can0 611#210010A000028219
(1675216668.601895) can0 0B0#000000001103
(1675216668.601898) can0 0B2#000000001103
(1675216668.602272) can0 223#000000000000002D
(1675216668.605742) can0 2C1#08026B00F7D3000A
(1675216668.606761) can0 260#0E00000000000078
(1675216668.607099) can0 351#00000000
(1675216668.608160) can0 020#000007
(1675216668.608164) can0 0B4#00000000000000BC
(1675216668.608166) can0 024#020301FA620B8019
(1675216668.608562) can0 025#00160FC37878787D
(1675216668.614471) can0 0B0#000000001104
(1675216668.614475) can0 0B2#000000001104
(1675216668.614477) can0 224#0000000000000008
(1675216668.615383) can0 235#00000000003D
(1675216668.616044) can0 4DD#1E00000100000000
(1675216668.619047) can0 2C4#0395001808802127
(1675216668.620046) can0 020#000007
(1675216668.620049) can0 0B4#00000000000000BC
(1675216668.620645) can0 024#020301FA620B8019
(1675216668.620648) can0 025#00160FC37878787D
(1675216668.626358) can0 0B0#000000001105
(1675216668.626363) can0 0B2#000000001105
(1675216668.626366) can0 223#000000000000002D
(1675216668.626764) can0 260#0E00000000000078
(1675216668.626767) can0 2D0#06AE0900100000A7
(1675216668.631162) can0 442#4002000000000000
(1675216668.632083) can0 020#000007
(1675216668.632087) can0 0B4#00000000000000BC
(1675216668.632684) can0 025#00160FC37878787D
(1675216668.632687) can0 024#020301FB620A8019
(1675216668.637504) can0 2C1#08026C00FED30012
(1675216668.637973) can0 0B0#000000001106
(1675216668.637979) can0 0B2#000000001106
(1675216668.638341) can0 224#0000000000000008
(1675216668.638661) can0 235#00000000003D
(1675216668.642269) can0 2C4#0392001808802124
(1675216668.644169) can0 020#000007
(1675216668.644173) can0 0B4#00000000000000BC
(1675216668.644626) can0 025#00160FC37878787D
(1675216668.645183) can0 024#020301FA620A8018
(1675216668.646558) can0 260#0E00000000000078
(1675216668.650489) can0 0B0#000000001107
(1675216668.650494) can0 0B2#000000001107
(1675216668.651601) can0 223#000000000000002D
(1675216668.656223) can0 020#000007
(1675216668.656227) can0 0B4#00000000000000BC
(1675216668.656643) can0 024#020301F9620B8018
(1675216668.656647) can0 025#00160FC37878787D
(1675216668.658748) can0 2D0#06AE0900100000A7
(1675216668.662384) can0 0B0#000000001108
(1675216668.662391) can0 0B2#000000001108
(1675216668.662394) can0 224#0000000000000008
(1675216668.662804) can0 235#00000000003D
(1675216668.665721) can0 2C4#0390001808802122
(1675216668.666646) can0 260#0E00000000000078
(1675216668.667181) can0 351#00000000
(1675216668.668255) can0 020#000007
(1675216668.668259) can0 0B4#00000000000000BC
(1675216668.668776) can0 025#00160FC37878787D
(1675216668.668780) can0 024#020301FA620B8019
(1675216668.669080) can0 2C1#08026A0100D30013
(1675216668.671495) can0 619#2300FFFEE0012880
(1675216668.674437) can0 0B0#000000001109
(1675216668.674449) can0 0B2#000000001109
(1675216668.674452) can0 223#000000000000002D
(1675216668.674758) can0 3B7#0000800000000000
(1675216668.680631) can0 020#000007
(1675216668.680637) can0 0B4#00000000000000BC
(1675216668.680639) can0 025#00160FC37878787D
(1675216668.680997) can0 024#020301FA620A8018
(1675216668.684053) can0 3A0#004F00000000001E
(1675216668.686658) can0 0B0#00000000110A
(1675216668.686663) can0 0B2#00000000110A
(1675216668.686665) can0 224#0000000000000008
(1675216668.686967) can0 235#00000000003D
(1675216668.688407) can0 260#0E00000000000078
(1675216668.689252) can0 2C4#0392001808802124
(1675216668.690309) can0 2D0#06AE0900100000A7
(1675216668.692584) can0 020#000007
(1675216668.692588) can0 0B4#00000000000000BC
(1675216668.692591) can0 025#00160FC37878787D
(1675216668.693382) can0 024#020301FA62098017
(1675216668.697490) can0 423#00
(1675216668.698437) can0 0B0#00000000110B
(1675216668.698441) can0 0B2#00000000110B
(1675216668.698443) can0 223#000000000000002D
(1675216668.700627) can0 2C1#0802770103D30023
(1675216668.704758) can0 020#000007
(1675216668.704766) can0 0B4#00000000000000BC
(1675216668.704769) can0 024#020301FA620A8018
(1675216668.705089) can0 025#00160FC37878787D
(1675216668.706566) can0 260#0E00000000000078
(1675216668.710753) can0 0B0#00000000110C
(1675216668.710759) can0 0B2#00000000110C
(1675216668.710762) can0 224#0000000000000008
(1675216668.710763) can0 235#00000000003D
(1675216668.712956) can0 2C4#0394001808802126
(1675216668.716565) can0 020#000007
(1675216668.716570) can0 0B4#00000000000000BC
(1675216668.716657) can0 025#00160FC37878787D
(1675216668.717086) can0 024#020301FA620B8019
(1675216668.722661) can0 2D0#06AE0900100000A7
(1675216668.722666) can0 0B0#00000000110D
(1675216668.722668) can0 0B2#00000000110D
(1675216668.723358) can0 223#000000000000002D
(1675216668.726614) can0 260#0E00000000000078
(1675216668.727289) can0 351#00000000
(1675216668.728571) can0 020#000007
(1675216668.728574) can0 0B4#00000000000000BC
(1675216668.728576) can0 025#00160FC37878787D
(1675216668.729033) can0 024#020301FA620B8019
(1675216668.729867) can0 440#4202000001000000
(1675216668.732212) can0 2C1#0802760104D30023
(1675216668.734823) can0 0B0#00000000110E
(1675216668.734830) can0 0B2#00000000110E
(1675216668.734833) can0 224#0000000000000008
(1675216668.734834) can0 235#00000000003D
(1675216668.736468) can0 2C4#0395001808802127
(1675216668.741215) can0 020#000007
(1675216668.741227) can0 0B4#00000000000000BC
(1675216668.742472) can0 025#00160FC37878787D
(1675216668.742475) can0 024#020301FA620A8018
(1675216668.746747) can0 260#0E00000000000078
(1675216668.746752) can0 0B0#00000000110F
(1675216668.746753) can0 0B2#00000000110F
(1675216668.747235) can0 223#000000000000002D
(1675216668.752879) can0 020#000007
(1675216668.753527) can0 0B4#00000000000000BC
(1675216668.753532) can0 025#00160FC37878787D
(1675216668.753533) can0 024#020301FA620A8018
(1675216668.753710) can0 2D0#06AF0900100000A8
(1675216668.758624) can0 0B0#000000001100
(1675216668.758630) can0 0B2#000000001100
(1675216668.759020) can0 224#0000000000000008
(1675216668.759023) can0 235#00000000003D
(1675216668.759820) can0 2C4#0394001808802126
(1675216668.764165) can0 2C1#08026E0105D3001C
(1675216668.765027) can0 020#000007
(1675216668.765034) can0 0B4#00000000000000BC
(1675216668.765036) can0 025#00160FC37878787D
(1675216668.765038) can0 024#020301F9620B8018
(1675216668.766197) can0 3B1#0000012500000000
(1675216668.766477) can0 260#0E00000000000078
(1675216668.770947) can0 0B0#000000001101
(1675216668.770951) can0 0B2#000000001101
(1675216668.770952) can0 223#000000000000002D
(1675216668.775308) can0 620#1000022CF0402040
(1675216668.776858) can0 020#000007
(1675216668.776862) can0 0B4#00000000000000BC
(1675216668.776864) can0 025#00160FC37878787D
(1675216668.777155) can0 024#020301FA620B8019
(1675216668.782656) can0 0B0#000000001102
(1675216668.782668) can0 0B2#000000001102
(1675216668.783045) can0 224#0000000000000008
(1675216668.783048) can0 235#00000000003D
(1675216668.783453) can0 2C4#0396001808802128
(1675216668.783457) can0 3A0#004F00000000001E
(1675216668.785706) can0 2D0#06B00900100000A9
(1675216668.786522) can0 260#0E00000000000078
(1675216668.787581) can0 351#00000000
(1675216668.788911) can0 020#000007
(1675216668.788917) can0 0B4#00000000000000BC
(1675216668.788919) can0 025#00160FC37878787D
(1675216668.789521) can0 024#020301FA620A8018
(1675216668.794854) can0 0B0#000000001103
(1675216668.794858) can0 0B2#000000001103
(1675216668.795439) can0 223#000000000000002D
(1675216668.795745) can0 2C1#0802680107D30018
(1675216668.798744) can0 3B3#039628
(1675216668.801394) can0 020#000007
(1675216668.801400) can0 0B4#00000000000000BC
(1675216668.801877) can0 025#00160FC38282829B
(1675216668.801882) can0 024#020301FB620A8019
(1675216668.806768) can0 260#0E00000000000078
(1675216668.806772) can0 0B0#000000001104
(1675216668.807136) can0 0B2#000000001104
(1675216668.807140) can0 224#0000000000000008
(1675216668.807337) can0 235#00000000003D
(1675216668.807880) can0 2C4#0397001808802129
(1675216668.812930) can0 020#000007
(1675216668.812935) can0 0B4#00000000000000BC
(1675216668.813694) can0 025#00160FC37878787D
(1675216668.814149) can0 024#020301FA620A8018
(1675216668.817664) can0 2D0#06B30900100000AC
(1675216668.819173) can0 0B0#000000001105
(1675216668.819185) can0 0B2#000000001105
(1675216668.819187) can0 223#000000000000002D
(1675216668.819930) can0 621#1100000000000000
(1675216668.821160) can0 442#4002000000000000
(1675216668.825174) can0 020#000007
(1675216668.825182) can0 0B4#00000000000000BC
(1675216668.825184) can0 024#020301F9620A8017
(1675216668.825481) can0 025#00160FC37878787D
(1675216668.826396) can0 260#0E00000000000078
(1675216668.827599) can0 2C1#0802660100D3000F
(1675216668.830757) can0 2C4#0395001808802127
(1675216668.830761) can0 0B0#000000001106
(1675216668.831103) can0 0B2#000000001106
(1675216668.831544) can0 224#0000000000000008
(1675216668.831547) can0 235#00000000003D
(1675216668.837287) can0 020#000007
(1675216668.837791) can0 0B4#00000000000000BC
(1675216668.837802) can0 024#020301FA620B8019
(1675216668.837805) can0 025#00160FC37878787D
(1675216668.843071) can0 0B0#000000001107
(1675216668.843076) can0 0B2#000000001107
(1675216668.843507) can0 223#000000000000002D
(1675216668.846786) can0 260#0E00000000000078
(1675216668.847198) can0 351#00000000
(1675216668.849313) can0 2D0#06B70900100000B0
(1675216668.849319) can0 020#000007
(1675216668.849322) can0 0B4#00000000000000BC
(1675216668.849778) can0 025#00160FC37878787D
(1675216668.849781) can0 024#020301FA620A8018
(1675216668.854110) can0 2C4#0395001808802127
(1675216668.855118) can0 0B0#000000001108
(1675216668.855121) can0 0B2#000000001108
(1675216668.855456) can0 224#0000000000000008
(1675216668.855460) can0 235#00000000003D
(1675216668.859603) can0 2C1#0802670103D30013
(1675216668.861244) can0 020#000007
(1675216668.861250) can0 0B4#00000000000000BC
(1675216668.861850) can0 025#00160FC37878787D
(1675216668.862194) can0 024#020301FB62098018
(1675216668.865846) can0 394#00
(1675216668.866561) can0 260#0E00000000000078
(1675216668.867144) can0 0B0#000000001109
(1675216668.867147) can0 0B2#000000001109
(1675216668.867434) can0 223#000000000000002D
(1675216668.873125) can0 020#000007
(1675216668.873131) can0 0B4#00000000000000BC
(1675216668.873472) can0 024#020301FA620A8018
(1675216668.873733) can0 025#00160FC37878787D
(1675216668.877676) can0 2C4#0395001808802127
(1675216668.879282) can0 0B0#00000000110A
(1675216668.879289) can0 0B2#00000000110A
(1675216668.879801) can0 224#0000000000000008
(1675216668.879810) can0 235#00000000003D
(1675216668.880773) can0 2D0#06B80900100000B1
(1675216668.883656) can0 3A0#004F00000000001E
(1675216668.885231) can0 020#000007
(1675216668.885319) can0 0B4#00000000000000BC
(1675216668.885955) can0 025#00160FC37878787D
(1675216668.885959) can0 024#020301FA620B8019
(1675216668.886441) can0 260#0E00000000000078
(1675216668.891114) can0 2C1#0802720100D3001B
(1675216668.891434) can0 0B0#00000000110B
(1675216668.891437) can0 0B2#00000000110B
(1675216668.892306) can0 223#000000000000002D
(1675216668.897547) can0 020#000007
(1675216668.897551) can0 0B4#00000000000000BC
(1675216668.898083) can0 025#00160FC37878787D
(1675216668.898760) can0 024#020301FA620A8018
(1675216668.901349) can0 2C4#039800180880212A
(1675216668.901354) can0 610#20000064C0FFFEE0
(1675216668.903640) can0 0B0#00000000110C
(1675216668.903644) can0 0B2#00000000110C
(1675216668.903646) can0 224#0000000000000008
(1675216668.904039) can0 235#00000000003D
(1675216668.906623) can0 260#0E00000000000078
(1675216668.907241) can0 351#00000000
(1675216668.909514) can0 020#000007
(1675216668.909520) can0 0B4#00000000000000BC
(1675216668.909521) can0 025#00160FC37878787D
(1675216668.910453) can0 024#020301FA620A8018
(1675216668.912872) can0 2D0#06BA0900100000B3
(1675216668.915539) can0 0B0#00000000110D
(1675216668.915543) can0 0B2#00000000110D
(1675216668.917038) can0 223#000000000000002D
(1675216668.920065) can0 440#4202000001000000
(1675216668.921572) can0 020#000007
(1675216668.921577) can0 0B4#00000000000000BC
(1675216668.921578) can0 024#020301FA620A8018
(1675216668.921962) can0 025#00160FC37878787D
(1675216668.922670) can0 2C1#08026000FCD30004
(1675216668.924888) can0 2C4#039800180880212A
(1675216668.926689) can0 260#0E00000000000078
(1675216668.927328) can0 0B0#00000000110E
(1675216668.927332) can0 0B2#00000000110E
(1675216668.927764) can0 224#0000000000000008
(1675216668.927769) can0 235#00000000003D
(1675216668.933518) can0 020#000007
(1675216668.933523) can0 0B4#00000000000000BC
(1675216668.934006) can0 025#00160FC37878787D
(1675216668.935072) can0 024#020301FA620B8019
(1675216668.939522) can0 0B0#00000000110F
(1675216668.939528) can0 0B2#00000000110F
(1675216668.940010) can0 223#000000000000002D
(1675216668.944056) can0 4C6#0700010000000000
(1675216668.944062) can0 2D0#06BD0900100000B6
(1675216668.945623) can0 020#000007
(1675216668.945627) can0 0B4#00000000000000BC
(1675216668.946311) can0 025#00160FC37878787D
(1675216668.946314) can0 024#020301FA620B8019
(1675216668.946750) can0 260#0E00000000000078
(1675216668.948376) can0 2C4#039A00180880212C
(1675216668.952197) can0 0B0#000000001100
(1675216668.953812) can0 0B2#000000001100
(1675216668.953818) can0 224#0000000000000008
(1675216668.954353) can0 235#00000000003D
(1675216668.955386) can0 2C1#08026600FFD3000D
(1675216668.957654) can0 020#000007
(1675216668.957659) can0 0B4#00000000000000BC
(1675216668.957661) can0 025#00160FC37878787D
(1675216668.958431) can0 024#020301FA620A8018
(1675216668.963726) can0 0B0#000000001101
(1675216668.963733) can0 0B2#000000001101
(1675216668.963735) can0 223#000000000000002D
(1675216668.968353) can0 260#0E00000000000078
(1675216668.968873) can0 351#00000000
(1675216668.969450) can0 020#000007
(1675216668.969454) can0 0B4#00000000000000BC
(1675216668.970042) can0 024#020301FB620A8019
(1675216668.970047) can0 025#00160FC37878787D
(1675216668.971863) can0 2C4#039B00180880212D
(1675216668.975802) can0 0B0#000000001102
(1675216668.975806) can0 0B2#000000001102
(1675216668.975809) can0 224#0000000000000008
(1675216668.976229) can0 235#00000000003D
(1675216668.976234) can0 2D0#06BF0900100000B8
(1675216668.976592) can0 3B7#0000800000000000
(1675216668.981550) can0 020#000007
(1675216668.981555) can0 0B4#00000000000000BC
(1675216668.981941) can0 025#00160FC37878787D
(1675216668.981945) can0 024#020301FA620A8018
(1675216668.983487) can0 3A0#004F00000000001D
(1675216668.985274) can0 623#1900000000000000
(1675216668.986164) can0 2C1#08026200F9D30003
(1675216668.986458) can0 260#0E00000000000078
(1675216668.987766) can0 0B0#000000001103
(1675216668.987771) can0 0B2#000000001103
(1675216668.987772) can0 223#000000000000002D
(1675216668.993622) can0 020#000007
(1675216668.993628) can0 0B4#00000000000000BC
(1675216668.994101) can0 025#00160FC37878787D
(1675216668.994105) can0 024#020201F9620B7F16
(1675216668.994920) can0 624#1A00414949400000
(1675216668.995295) can0 2C4#039B00180880212D
(1675216668.999821) can0 0B0#000000001104
(1675216668.999827) can0 0B2#000000001104
(1675216669.000063) can0 224#0000000000000008
(1675216669.001040) can0 235#00000000003D
(1675216669.005759) can0 020#000007
(1675216669.005764) can0 0B4#00000000000000BC
(1675216669.006049) can0 025#00160FC37878787D
(1675216669.006742) can0 260#0E00000000000078
(1675216669.006745) can0 024#020301FA620B8019
(1675216669.007907) can0 2D0#06C10900100000BA
(1675216669.010084) can0 630#1700000000000000
(1675216669.010858) can0 442#4002000000000000
(1675216669.011579) can0 0B0#000000001105
(1675216669.011582) can0 0B2#000000001105
(1675216669.011987) can0 223#000000000000002D
(1675216669.017718) can0 020#000007
(1675216669.017723) can0 0B4#00000000000000BC
(1675216669.018202) can0 025#00160FC37878787D
(1675216669.018205) can0 2C1#08026600F7D30005
(1675216669.018813) can0 024#020301FA620A8018
(1675216669.018816) can0 2C4#039B00180880212D
(1675216669.023919) can0 0B0#000000001106
(1675216669.023925) can0 0B2#000000001106
(1675216669.023928) can0 224#0000000000000008
(1675216669.024349) can0 235#00000000003D
(1675216669.026698) can0 260#0E00000000000078
(1675216669.027460) can0 351#00000000
(1675216669.029780) can0 020#000007
(1675216669.029785) can0 0B4#00000000000000BC
(1675216669.030175) can0 025#00160FC37878787D
(1675216669.030178) can0 024#020301FB620A8019
(1675216669.035999) can0 0B0#000000001107
(1675216669.036006) can0 0B2#000000001107
(1675216669.036009) can0 223#000000000000002D
(1675216669.039472) can0 2D0#06C30900100000BC
(1675216669.042285) can0 020#000007
(1675216669.042290) can0 0B4#00000000000000BC
(1675216669.042669) can0 024#020301FA620B8019
(1675216669.042672) can0 2C4#0396001808802128
(1675216669.043320) can0 025#00160FC38282829B
(1675216669.046830) can0 260#0E00000000000078
(1675216669.048031) can0 0B0#000000001108
(1675216669.048036) can0 0B2#000000001108
(1675216669.048402) can0 224#0000000000000008
(1675216669.048406) can0 235#00000000003D
(1675216669.049654) can0 2C1#08026A00F6D30008
(1675216669.054041) can0 020#000007
(1675216669.054097) can0 0B4#00000000000000BC
(1675216669.054827) can0 024#020301FA620B8019
(1675216669.054831) can0 025#00160FC37878787D
(1675216669.055137) can0 638#1300000000000000
(1675216669.060217) can0 0B0#000000001109
(1675216669.060222) can0 0B2#000000001109
(1675216669.060224) can0 223#000000000000002D
(1675216669.066261) can0 020#000007
(1675216669.066265) can0 0B4#00000000000000BC
(1675216669.066267) can0 2C4#039800180880212A
(1675216669.066658) can0 260#0E00000000000078
(1675216669.066662) can0 025#00160FC37878787D
(1675216669.067123) can0 024#020301FA620A8018
(1675216669.071359) can0 2D0#06C40900100000BD
(1675216669.072020) can0 0B0#00000000110A
(1675216669.072025) can0 0B2#00000000110A
(1675216669.072553) can0 224#0000000000000008
(1675216669.072556) can0 235#00000000003D
(1675216669.075207) can0 620#1000022CF0402040
(1675216669.078187) can0 020#000007
(1675216669.078195) can0 0B4#00000000000000BC
(1675216669.078197) can0 024#020301FA620A8018
(1675216669.078663) can0 025#00160FC37878787D
(1675216669.082243) can0 2C1#08026800FAD3000A
(1675216669.084119) can0 3A0#004F00000000001D
(1675216669.084123) can0 0B0#00000000110B
(1675216669.084124) can0 0B2#00000000110B
(1675216669.084533) can0 223#000000000000002D
(1675216669.086991) can0 260#0E00000000000078
(1675216669.087329) can0 351#00000000
(1675216669.089978) can0 2C4#0396001808802128
(1675216669.090341) can0 020#000007
(1675216669.090345) can0 0B4#00000000000000BC
(1675216669.090611) can0 024#020301FA620A8018
(1675216669.091264) can0 025#00160FC37878787D
(1675216669.096592) can0 0B0#00000000110C
(1675216669.096597) can0 0B2#00000000110C
(1675216669.096599) can0 224#0000000000000008
(1675216669.096600) can0 235#00000000003D
(1675216669.102062) can0 020#000007
(1675216669.102590) can0 0B4#00000000000000BC
(1675216669.102595) can0 025#00160FC37878787D
(1675216669.102787) can0 024#020301F9620B8018
(1675216669.103351) can0 2D0#06C30900100000BC
(1675216669.106765) can0 260#0E00000000000078
(1675216669.108308) can0 0B0#00000000110D
(1675216669.108312) can0 0B2#00000000110D
(1675216669.108313) can0 223#000000000000002D
(1675216669.109900) can0 440#4202000001000000
(1675216669.114078) can0 2C1#08026300F7D30002
(1675216669.114083) can0 2C4#039B00180880212D
(1675216669.114892) can0 020#000007
(1675216669.114897) can0 0B4#00000000000000BC
(1675216669.114899) can0 025#00160FC37878787D
(1675216669.115062) can0 024#020301F9620B8018
(1675216669.120583) can0 0B0#00000000110E
(1675216669.120587) can0 0B2#00000000110E
(1675216669.121787) can0 224#0000000000000008
(1675216669.121791) can0 235#00000000003D
(1675216669.126412) can0 020#000007
(1675216669.126417) can0 0B4#00000000000000BC
(1675216669.126419) can0 024#020301FA620A8018
(1675216669.126848) can0 025#00160FC37878787D
(1675216669.126858) can0 260#0E00000000000078
(1675216669.132567) can0 0B0#00000000110F
(1675216669.133742) can0 0B2#00000000110F
(1675216669.133746) can0 223#000000000000002D
(1675216669.134690) can0 2D0#06C10900100000BA
(1675216669.136868) can0 2C4#039F001808802131
(1675216669.138485) can0 020#000007
(1675216669.138490) can0 0B4#00000000000000BC
(1675216669.138492) can0 024#020301FB620A8019
(1675216669.138685) can0 025#00160FC37878787D
(1675216669.144507) can0 0B0#000000001100
(1675216669.144514) can0 0B2#000000001100
(1675216669.144517) can0 224#0000000000000008
(1675216669.144971) can0 235#00000000003D
(1675216669.144975) can0 2C1#08025E00F1D200F6
(1675216669.147363) can0 260#0E00000000000078
(1675216669.147367) can0 351#00000000
(1675216669.150474) can0 020#000007
(1675216669.150478) can0 0B4#00000000000000BC
(1675216669.150993) can0 025#00160FC37878787D
(1675216669.152420) can0 024#020301FA620A8018
(1675216669.156537) can0 0B0#000000001101
(1675216669.156541) can0 0B2#000000001101
(1675216669.156544) can0 223#000000000000002D
(1675216669.160456) can0 2C4#039E001808802130
(1675216669.162293) can0 020#000007
(1675216669.162297) can0 0B4#00000000000000BC
(1675216669.162850) can0 025#00160FC37878787D
(1675216669.163228) can0 024#020301F9620B8018
(1675216669.165365) can0 394#00
(1675216669.166535) can0 2D0#06C20900100000BB
(1675216669.166538) can0 260#0E00000000000078
(1675216669.168389) can0 0B0#000000001102
(1675216669.168396) can0 0B2#000000001102
(1675216669.168881) can0 224#0000000000000008
(1675216669.168885) can0 235#00000000003D
(1675216669.174529) can0 020#000007
(1675216669.174534) can0 0B4#00000000000000BC
(1675216669.175598) can0 025#00160FC37878787D
(1675216669.175602) can0 024#020301FA620B8019
(1675216669.176735) can0 2C1#08025700F0D200EE
(1675216669.180374) can0 0B0#000000001103
(1675216669.180379) can0 0B2#000000001103
(1675216669.180784) can0 223#000000000000002D
(1675216669.183773) can0 3A0#004F00000000001D
(1675216669.185773) can0 2C4#03A0001808802132
(1675216669.186393) can0 020#000007
(1675216669.186397) can0 0B4#00000000000000BC
(1675216669.186953) can0 025#00160FC37878787D
(1675216669.186957) can0 024#020301FA620A8018
(1675216669.187302) can0 260#0E00000000000078
(1675216669.192426) can0 0B0#000000001104
(1675216669.192431) can0 0B2#000000001104
(1675216669.192965) can0 224#0000000000000008
(1675216669.192969) can0 235#00000000003D
(1675216669.198325) can0 2D0#06C50900100000BE
(1675216669.198332) can0 020#000007
(1675216669.198796) can0 0B4#00000000000000BC
(1675216669.198800) can0 025#00160FC37878787D
(1675216669.199652) can0 024#020301FB620A8019
(1675216669.200787) can0 442#4002000000000000
(1675216669.204596) can0 0B0#000000001105
(1675216669.204603) can0 0B2#000000001105
(1675216669.204607) can0 223#000000000000002D
(1675216669.206721) can0 260#0E00000000000078
(1675216669.207465) can0 2C4#03A0001808802132
(1675216669.207471) can0 351#00000000
(1675216669.208445) can0 2C1#08025F00F2D200F8
(1675216669.210680) can0 020#000007
(1675216669.210685) can0 0B4#00000000000000BC
(1675216669.210686) can0 025#00160FC37878787D
(1675216669.211347) can0 024#020301FA620B8019
(1675216669.213544) can0 4DC#1D00030200000000
(1675216669.216654) can0 0B0#000000001106
(1675216669.216661) can0 0B2#000000001106
(1675216669.216665) can0 224#0000000000000008
(1675216669.217023) can0 235#00000000003D
(1675216669.222947) can0 020#000007
(1675216669.222951) can0 0B4#00000000000000BC
(1675216669.222952) can0 025#00160FC37878787D
(1675216669.223386) can0 38C#0000000000000037
(1675216669.223390) can0 024#020301FA620B8019
(1675216669.226677) can0 260#0E00000000000078
(1675216669.228790) can0 0B0#000000001107
(1675216669.228795) can0 0B2#000000001107
(1675216669.228797) can0 223#000000000000002D
(1675216669.230047) can0 2D0#06C70900100000C0
(1675216669.230990) can0 2C4#039E001808802130
(1675216669.234923) can0 020#000007
(1675216669.234929) can0 0B4#00000000000000BC
(1675216669.234932) can0 025#00160FC37878787D
(1675216669.235260) can0 024#020301FA620A8018
(1675216669.240125) can0 2C1#08026300F3D300FE
(1675216669.240587) can0 0B0#000000001108
(1675216669.240591) can0 0B2#000000001108
(1675216669.241052) can0 224#0000000000000008
(1675216669.241055) can0 235#00000000003D
(1675216669.247081) can0 020#000007
(1675216669.247087) can0 0B4#00000000000000BC
(1675216669.247090) can0 025#00160FC37878787D
(1675216669.247092) can0 024#020301FB620A8019
(1675216669.247386) can0 260#0E00000000000078
(1675216669.253062) can0 0B0#000000001109
(1675216669.253066) can0 0B2#000000001109
(1675216669.253067) can0 223#000000000000002D
(1675216669.253069) can0 3B0#0000002A0000
(1675216669.254568) can0 2C4#039B00180880212D
(1675216669.258832) can0 020#000007
(1675216669.258836) can0 0B4#00000000000000BC
(1675216669.258838) can0 025#00160FC37878787D
(1675216669.259341) can0 024#020301FA620A8018
(1675216669.260256) can0 622#1200E83000000000
(1675216669.262057) can0 2D0#06CA0900100000C3
(1675216669.264856) can0 0B0#00000000110A
(1675216669.264862) can0 0B2#00000000110A
(1675216669.264864) can0 224#0000000000000008
(1675216669.265172) can0 235#00000000003D
(1675216669.266811) can0 260#0E00000000000078
(1675216669.267585) can0 351#00000000
(1675216669.270845) can0 020#000007
(1675216669.270852) can0 0B4#00000000000000BC
(1675216669.270855) can0 025#00160FC37878787D
(1675216669.271922) can0 024#020301FA620B8019
(1675216669.271932) can0 2C1#08026200EDD300F7
(1675216669.276887) can0 0B0#00000000110B
(1675216669.276891) can0 0B2#00000000110B
(1675216669.277329) can0 223#000000000000002D
(1675216669.278005) can0 3B7#0000800000000000
(1675216669.278008) can0 2C4#039800180880212A
(1675216669.283382) can0 020#000007
(1675216669.283386) can0 0B4#00000000000000BC
(1675216669.283388) can0 024#020301FA620B8019
(1675216669.283390) can0 025#00160FC37878787D
(1675216669.284918) can0 3A0#004F00000000001D
(1675216669.287171) can0 260#0E00000000000078
(1675216669.289168) can0 0B0#00000000110C
(1675216669.289173) can0 0B2#00000000110C
(1675216669.289175) can0 224#0000000000000008
(1675216669.289176) can0 235#00000000003D
(1675216669.293693) can0 2D0#06CC0900100000C5
(1675216669.294791) can0 020#000007
(1675216669.294795) can0 0B4#00000000000000BC
(1675216669.295236) can0 025#00160FC37878787D
(1675216669.295239) can0 024#020301FB620A8019
(1675216669.300031) can0 440#4202000001000000
(1675216669.300972) can0 0B0#00000000110D
(1675216669.300975) can0 0B2#00000000110D
(1675216669.301391) can0 223#000000000000002D
(1675216669.301394) can0 2C4#039900180880212B
(1675216669.303598) can0 2C1#08026600EBD300F9
(1675216669.306772) can0 260#0E00000000000078
(1675216669.306776) can0 020#000007
(1675216669.307147) can0 0B4#00000000000000BC
(1675216669.307149) can0 025#00160FC37878787D
(1675216669.307429) can0 024#020301FB620A8019
(1675216669.311172) can0 3B3#039B28
(1675216669.313314) can0 0B0#00000000110E
(1675216669.313321) can0 0B2#00000000110E
(1675216669.313323) can0 224#0000000000000008
(1675216669.313324) can0 235#00000000003D
(1675216669.313624) can0 380#200808200000FC00
(1675216669.319069) can0 020#000007
(1675216669.319074) can0 0B4#00000000000000BC
(1675216669.319075) can0 025#00160FC37878787D
(1675216669.319914) can0 024#020301F9620A8017
(1675216669.325523) can0 0B0#00000000110F
(1675216669.325528) can0 0B2#00000000110F
(1675216669.325530) can0 223#000000000000002D
(1675216669.325532) can0 2C4#0394001808802126
(1675216669.325762) can0 2D0#06C90900100000C2
(1675216669.326104) can0 4C3#0300120100000000
(1675216669.326738) can0 260#0E00000000000078
(1675216669.327301) can0 351#00000000
(1675216669.331581) can0 020#000007
(1675216669.331592) can0 0B4#00000000000000BC
(1675216669.331595) can0 025#00160FC38282829B
(1675216669.332088) can0 024#020301F9620B8018
(1675216669.335690) can0 2C1#08026200EAD300F4
(1675216669.337455) can0 0B0#000000001100
(1675216669.337459) can0 0B2#000000001100
(1675216669.337461) can0 224#0000000000000008
(1675216669.338860) can0 235#00000000003D
(1675216669.341058) can0 38A#0800040000
(1675216669.343738) can0 020#000007
(1675216669.343743) can0 0B4#00000000000000BC
(1675216669.343745) can0 024#020301FA620B8019
(1675216669.343746) can0 3A1#0000000000FF0000
(1675216669.344759) can0 025#00160FC37878787D
(1675216669.346910) can0 260#0E00000000000078
(1675216669.348937) can0 2C4#038D00180880211F
(1675216669.348943) can0 0B0#000000001101
(1675216669.349357) can0 0B2#000000001101
(1675216669.349363) can0 223#000000000000002D
(1675216669.355314) can0 020#000007
(1675216669.355320) can0 0B4#00000000000000BC
(1675216669.355799) can0 024#020301FA620A8018
(1675216669.355803) can0 025#00160FC37878787D
(1675216669.356758) can0 2D0#06C60900100000BF
(1675216669.361631) can0 0B0#000000001102
(1675216669.361637) can0 0B2#000000001102
(1675216669.361639) can0 224#0000000000000008
(1675216669.361642) can0 235#00000000003D
(1675216669.367023) can0 260#0E00000000000078
(1675216669.367030) can0 2C1#08027C00EFD30013
(1675216669.367032) can0 020#000007
(1675216669.367256) can0 0B4#00000000000000BC
(1675216669.367789) can0 025#00160FC37878787D
(1675216669.367792) can0 024#020301FB620A8019
(1675216669.372995) can0 3B4#000097B080000000
(1675216669.373000) can0 2C4#038D00180880211F
(1675216669.373173) can0 0B0#000000001103
(1675216669.373673) can0 0B2#000000001103
(1675216669.373677) can0 223#000000000000002D
(1675216669.375973) can0 620#1000022CF0402040
(1675216669.379622) can0 020#000007
(1675216669.379627) can0 0B4#00000000000000BC
(1675216669.379628) can0 025#00160FC37878787D
(1675216669.380226) can0 024#020301FA620A8018
(1675216669.383154) can0 3A0#004F00000000001D
(1675216669.385212) can0 0B0#000000001104
(1675216669.385216) can0 0B2#000000001104
(1675216669.385728) can0 224#0000000000000008
(1675216669.385731) can0 235#00000000003D
(1675216669.386621) can0 260#0E00000000000078
(1675216669.387392) can0 351#00000000
(1675216669.388628) can0 2D0#06C00900100000B9
(1675216669.390626) can0 442#4002000000000000
(1675216669.391284) can0 020#000007
(1675216669.391289) can0 0B4#00000000000000BC
(1675216669.391710) can0 024#020301FA620A8018
(1675216669.391713) can0 025#00160FC37878787D
(1675216669.396203) can0 2C4#038B00180880211D
(1675216669.397510) can0 0B0#000000001105
(1675216669.397514) can0 0B2#000000001105
(1675216669.397516) can0 223#000000000000002D
(1675216669.399190) can0 2C1#08028000F4D4001D
(1675216669.401792) can0 610#20000064C0FFFEE0
(1675216669.403316) can0 020#000007
(1675216669.403320) can0 0B4#00000000000000BC
(1675216669.403867) can0 024#020301FA620A8018
(1675216669.403870) can0 025#00160FC37878787D
(1675216669.406902) can0 260#0E00000000000078
(1675216669.406906) can0 4C8#0900010200000000
(1675216669.409798) can0 0B0#000000001106
(1675216669.409802) can0 0B2#000000001106
(1675216669.410741) can0 224#0000000000000008
(1675216669.410745) can0 235#00000000003D
(1675216669.415733) can0 020#000007
(1675216669.415737) can0 0B4#00000000000000BC
(1675216669.415739) can0 025#00160FC37878787D
(1675216669.415900) can0 024#020301FA620A8018
(1675216669.419891) can0 2C4#038F001808802121
(1675216669.420327) can0 2D0#06B50900100000AE
(1675216669.421607) can0 0B0#000000001107
(1675216669.421610) can0 0B2#000000001107
(1675216669.421612) can0 223#000000000000002D
(1675216669.426754) can0 260#0E00000000000078
(1675216669.427427) can0 020#000007
(1675216669.427432) can0 0B4#00000000000000BC
(1675216669.427769) can0 025#00160FC37878787D
(1675216669.428282) can0 024#020301FA620A8018
(1675216669.430755) can0 2C1#08026D00F8D3000D
(1675216669.433499) can0 0B0#000000001108
(1675216669.433504) can0 0B2#000000001108
(1675216669.433949) can0 224#0000000000000008
(1675216669.434974) can0 235#00000000003D
(1675216669.439376) can0 020#000007
(1675216669.439381) can0 0B4#00000000000000BC
(1675216669.439924) can0 024#020301FA620B8019
(1675216669.439930) can0 025#00160FC37878787D
(1675216669.442996) can0 2C4#038F001808802121
(1675216669.445788) can0 0B0#000000001109
(1675216669.445794) can0 0B2#000000001109
(1675216669.445797) can0 223#000000000000002D
(1675216669.446666) can0 260#0E00000000000078
(1675216669.447359) can0 351#00000000
(1675216669.451644) can0 020#000007
(1675216669.451656) can0 0B4#00000000000000BC
(1675216669.451974) can0 025#00160FC37878787D
(1675216669.452305) can0 024#020301FA620A8018
(1675216669.452945) can0 2D0#06AD0900100000A6
(1675216669.458082) can0 0B0#00000000110A
(1675216669.458087) can0 0B2#00000000110A
(1675216669.459670) can0 224#0000000000000008
(1675216669.459674) can0 235#00000000003D
(1675216669.462619) can0 4C1#0100090000000000
(1675216669.462624) can0 2C1#08026E00FAD30010
(1675216669.463643) can0 020#000007
(1675216669.463646) can0 0B4#00000000000000BC
(1675216669.463648) can0 025#00160FC37878787D
(1675216669.464114) can0 024#020301FA620A8018
(1675216669.465586) can0 394#00
(1675216669.466758) can0 2C4#0392001808802124
(1675216669.466763) can0 260#0E00000000000078
(1675216669.469633) can0 0B0#00000000110B
(1675216669.469639) can0 0B2#00000000110B
(1675216669.470013) can0 223#000000000000002D
(1675216669.475765) can0 020#000007
(1675216669.475771) can0 0B4#00000000000000BC
(1675216669.476444) can0 025#00160FC37878787D
(1675216669.477125) can0 024#020301FB620A8019
(1675216669.481753) can0 0B0#00000000110C
(1675216669.481760) can0 0B2#00000000110C
(1675216669.481762) can0 224#0000000000000008
(1675216669.481994) can0 235#00000000003D
(1675216669.483126) can0 3A0#004F00000000001D
(1675216669.483783) can0 2D0#06A70900100000A0
(1675216669.487046) can0 260#0E00000000000078
(1675216669.487718) can0 020#000007
(1675216669.487724) can0 0B4#00000000000000BC
(1675216669.488026) can0 025#00160FC37878787D
(1675216669.488656) can0 024#020301F9620A8017
(1675216669.489977) can0 440#4202000001000000
(1675216669.489981) can0 2C4#0392001808802124
(1675216669.493976) can0 0B0#00000000110D
(1675216669.493983) can0 0B2#00000000110D
(1675216669.494573) can0 223#000000000000002D
(1675216669.494577) can0 2C1#08026D00F6D3000B
(1675216669.499879) can0 020#000007
(1675216669.499884) can0 0B4#00000000000000BC
(1675216669.499885) can0 024#020301F9620A8017
(1675216669.500344) can0 025#00160FC37878787D
(1675216669.506199) can0 0B0#00000000110E
(1675216669.506206) can0 0B2#00000000110E
(1675216669.506209) can0 224#0000000000000008
(1675216669.506211) can0 235#00000000003D
(1675216669.506467) can0 260#0E00000000000078
(1675216669.507442) can0 351#00000000
(1675216669.511942) can0 020#000007
(1675216669.511949) can0 0B4#00000000000000BC
(1675216669.511952) can0 025#00160FC37878787D
(1675216669.512164) can0 024#020301FA620A8018
(1675216669.513803) can0 2C4#0391001808802123
(1675216669.515909) can0 2D0#06A609001000009F
(1675216669.517999) can0 0B0#00000000110F
(1675216669.518007) can0 0B2#00000000110F
(1675216669.518010) can0 223#000000000000002D
(1675216669.524223) can0 020#000007
(1675216669.524228) can0 0B4#00000000000000BC
(1675216669.524230) can0 025#00160FC37878787D
(1675216669.524380) can0 024#020301FB62098018
(1675216669.525898) can0 2C1#08027500FBD30018
(1675216669.526875) can0 260#0E00000000000078
(1675216669.530233) can0 0B0#000000001100
(1675216669.530239) can0 0B2#000000001100
(1675216669.530242) can0 224#0000000000000008
(1675216669.531770) can0 235#00000000003D
(1675216669.536040) can0 020#000007
(1675216669.536045) can0 0B4#00000000000000BC
(1675216669.536046) can0 025#00160FC37878787D
(1675216669.536913) can0 024#020301FA620A8018
(1675216669.536917) can0 2C4#0391001808802123
(1675216669.542199) can0 0B0#000000001101
(1675216669.542204) can0 0B2#000000001101
(1675216669.543500) can0 223#000000000000002D
(1675216669.547246) can0 260#0E00000000000078
(1675216669.547251) can0 2D0#06A80900100000A1
(1675216669.548096) can0 020#000007
(1675216669.548101) can0 0B4#00000000000000BC
(1675216669.548103) can0 024#020301FA620B8019
(1675216669.548422) can0 025#00160FC37878787D
(1675216669.554170) can0 0B0#000000001102
(1675216669.554176) can0 0B2#000000001102
(1675216669.554178) can0 224#0000000000000008
(1675216669.554482) can0 235#00000000003D
(1675216669.556399) can0 4C7#0800012100000000
(1675216669.557712) can0 2C1#08027100FAD30013
(1675216669.559984) can0 020#000007
(1675216669.559991) can0 0B4#00000000000000BC
(1675216669.560752) can0 025#00160FC37878787D
(1675216669.560757) can0 024#020301FA620B8019
(1675216669.560760) can0 2C4#0393001808802125
(1675216669.566281) can0 0B0#000000001103
(1675216669.566286) can0 0B2#000000001103
(1675216669.566564) can0 223#000000000000002D
(1675216669.566567) can0 260#0E00000000000078
(1675216669.567560) can0 351#00000000
(1675216669.572170) can0 020#000007
(1675216669.572175) can0 0B4#00000000000000BC
(1675216669.572989) can0 024#020301FA620A8018
(1675216669.572993) can0 025#00160FC38282829B
(1675216669.578169) can0 0B0#000000001104
(1675216669.578175) can0 0B2#000000001104
(1675216669.578922) can0 224#0000000000000008
(1675216669.578929) can0 235#00000000003D
(1675216669.578931) can0 3B7#0000800000000000
(1675216669.579107) can0 2D0#06AA0900100000A3
(1675216669.581388) can0 442#4002000000000000
(1675216669.583023) can0 3A0#004F00000000001D
(1675216669.584262) can0 020#000007
(1675216669.584266) can0 0B4#00000000000000BC
(1675216669.584645) can0 2C4#0391001808802123
(1675216669.584808) can0 025#00160FC37878787D
(1675216669.585664) can0 024#020301FA620A8018
(1675216669.586769) can0 260#0E00000000000078
(1675216669.589403) can0 2C1#08027300FAD30015
(1675216669.590313) can0 0B0#000000001105
(1675216669.590318) can0 0B2#000000001105
(1675216669.590321) can0 223#000000000000002D
(1675216669.596230) can0 020#000007
(1675216669.596234) can0 0B4#00000000000000BC
(1675216669.596902) can0 025#00160FC37878787D
(1675216669.597179) can0 024#020301FA620B8019
(1675216669.601171) can0 611#210010A000028219
(1675216669.602860) can0 0B0#000000001106
(1675216669.602865) can0 0B2#000000001106
(1675216669.602866) can0 224#0000000000000008
(1675216669.603195) can0 235#00000000003D
(1675216669.606900) can0 260#0E00000000000078
(1675216669.607733) can0 2C4#0393001808802125
(1675216669.608226) can0 020#000007
(1675216669.608232) can0 0B4#00000000000000BC
(1675216669.608600) can0 024#020301FA620B8019
(1675216669.608603) can0 025#00160FC37878787D
(1675216669.610971) can0 2D0#06AD0900100000A6
(1675216669.614576) can0 0B0#000000001107
(1675216669.614581) can0 0B2#000000001107
(1675216669.614583) can0 223#000000000000002D
(1675216669.620391) can0 020#000007
(1675216669.621097) can0 0B4#00000000000000BC
(1675216669.621101) can0 025#00160FC37878787D
(1675216669.621102) can0 024#020301FA620A8018
(1675216669.621104) can0 2C1#0802750100D3001E
(1675216669.625688) can0 4DD#1E00000100000000
(1675216669.626376) can0 0B0#000000001108
(1675216669.626380) can0 0B2#000000001108
(1675216669.626753) can0 224#0000000000000008
(1675216669.626760) can0 235#00000000003D
(1675216669.627103) can0 260#0E00000000000078
(1675216669.627581) can0 351#00000000
(1675216669.631809) can0 2C4#0393001808802125
(1675216669.632342) can0 020#000007
(1675216669.632346) can0 0B4#00000000000000BC
(1675216669.632774) can0 025#00160FC37878787D
(1675216669.632998) can0 024#020301FB620A8019
(1675216669.638570) can0 0B0#000000001109
(1675216669.638575) can0 0B2#000000001109
(1675216669.638576) can0 223#000000000000002D
(1675216669.642949) can0 2D0#06B00900100000A9
(1675216669.644439) can0 020#000007
(1675216669.644445) can0 0B4#00000000000000BC
(1675216669.644792) can0 025#00160FC37878787D
(1675216669.645327) can0 024#020301FB620A8019
(1675216669.647183) can0 260#0E00000000000078
(1675216669.650820) can0 0B0#00000000110A
(1675216669.650825) can0 0B2#00000000110A
(1675216669.650826) can0 224#0000000000000008
(1675216669.652330) can0 235#00000000003D
(1675216669.652760) can0 2C1#08027200FED30018
(1675216669.655114) can0 2C4#0393001808802125
(1675216669.656519) can0 020#000007
(1675216669.656525) can0 0B4#00000000000000BC
(1675216669.656527) can0 024#020301F9620B8018
(1675216669.656822) can0 025#00160FC37878787D
(1675216669.662808) can0 0B0#00000000110B
(1675216669.662812) can0 0B2#00000000110B
(1675216669.662814) can0 223#000000000000002D
(1675216669.667099) can0 260#0E00000000000078
(1675216669.668875) can0 020#000007
(1675216669.668879) can0 0B4#00000000000000BC
(1675216669.668881) can0 025#00160FC37878787D
(1675216669.670239) can0 024#020301F9620B8018
(1675216669.674572) can0 2D0#06B00900100000A9
(1675216669.674578) can0 0B0#00000000110C
(1675216669.674581) can0 0B2#00000000110C
(1675216669.675024) can0 224#0000000000000008
(1675216669.675027) can0 235#00000000003D
(1675216669.675443) can0 620#1000022CF0402040
(1675216669.678602) can0 2C4#0392001808802124
(1675216669.680800) can0 440#4202000001000000
(1675216669.680806) can0 020#000007
(1675216669.681214) can0 0B4#00000000000000BC
(1675216669.681825) can0 025#00160FC37878787D
(1675216669.681829) can0 024#020301FA620B8019
(1675216669.683077) can0 3A0#005100000000001D
(1675216669.684861) can0 2C1#08027700FED3001D
(1675216669.686490) can0 0B0#00000000110D
(1675216669.686494) can0 0B2#00000000110D
(1675216669.686951) can0 223#000000000000002D
(1675216669.686960) can0 260#0E00000000000078
(1675216669.687643) can0 351#00000000
(1675216669.692691) can0 020#000007
(1675216669.692695) can0 0B4#00000000000000BC
(1675216669.692698) can0 025#00160FC37878787D
(1675216669.693678) can0 024#020301FB620A8019
(1675216669.698726) can0 0B0#00000000110E
(1675216669.698730) can0 0B2#00000000110E
(1675216669.699134) can0 224#0000000000000008
(1675216669.700201) can0 235#00000000003D
(1675216669.702507) can0 2C4#0392001808802124
(1675216669.704752) can0 020#000007
(1675216669.704756) can0 0B4#00000000000000BC
(1675216669.704758) can0 025#00160FC37878787D
(1675216669.705793) can0 423#00
(1675216669.705797) can0 024#020301FA620A8018
(1675216669.705799) can0 2D0#06B30900100000AC
(1675216669.706886) can0 260#0E00000000000078
(1675216669.710956) can0 0B0#00000000110F
(1675216669.710960) can0 0B2#00000000110F
(1675216669.712474) can0 223#000000000000002D
(1675216669.716693) can0 2C1#08027B00F8D3001B
(1675216669.716698) can0 020#000007
(1675216669.717304) can0 0B4#00000000000000BC
(1675216669.717309) can0 025#00160FC37878787D
(1675216669.717312) can0 024#020301FA620B8019
(1675216669.722998) can0 0B0#000000001100
(1675216669.723005) can0 0B2#000000001100
(1675216669.723007) can0 224#0000000000000008
(1675216669.723306) can0 235#00000000003D
(1675216669.725834) can0 2C4#0391001808802123
(1675216669.727001) can0 260#0E00000000000078
(1675216669.729537) can0 020#000007
(1675216669.729542) can0 0B4#00000000000000BC
(1675216669.731373) can0 025#00160FC37878787D
(1675216669.731377) can0 024#020301FA620B8019
(1675216669.734926) can0 0B0#000000001101
(1675216669.734930) can0 0B2#000000001101
(1675216669.734932) can0 223#000000000000002D
(1675216669.738092) can0 2D0#06B50900100000AE
(1675216669.740962) can0 020#000007
(1675216669.740967) can0 0B4#00000000000000BC
(1675216669.741598) can0 025#00160FC37878787D
(1675216669.742198) can0 024#020301FA620A8018
(1675216669.747866) can0 0B0#000000001102
(1675216669.747870) can0 0B2#000000001102
(1675216669.747873) can0 224#0000000000000008
(1675216669.747874) can0 235#00000000003D
(1675216669.748424) can0 260#0E00000000000078
(1675216669.748428) can0 351#00000000
