(1675219667.006777) can0 2D0#07A209001000009C
(1675219667.008768) can0 0B0#00000000110A
(1675219667.008772) can0 0B2#00000000110A
(1675219667.008774) can0 224#0000000000000008
(1675219667.010066) can0 235#00000000003D
(1675219667.013394) can0 260#0E00000000000078
(1675219667.014052) can0 020#000007
(1675219667.014575) can0 0B4#0000000058000014
(1675219667.014578) can0 025#0FC30FC378787839
(1675219667.014758) can0 024#0202020361FF7F14
(1675219667.016171) can0 2C4#03F6001908802189
(1675219667.016935) can0 2C1#0800AB0048C5008B
(1675219667.020705) can0 0B0#00000000110B
(1675219667.020709) can0 0B2#00000000110B
(1675219667.022265) can0 223#000000000000002D
(1675219667.026648) can0 020#000007
(1675219667.026651) can0 0B4#0000000058000014
(1675219667.026653) can0 025#0FC30FC378787839
(1675219667.027238) can0 024#0203020362008018
(1675219667.032524) can0 0B0#00000000110C
(1675219667.032527) can0 0B2#00000000110C
(1675219667.032824) can0 224#0000000000000008
(1675219667.032828) can0 235#00000000003D
(1675219667.033383) can0 260#0E00000000000078
(1675219667.034160) can0 351#00000000
(1675219667.038378) can0 020#000007
(1675219667.038380) can0 0B4#0000000058000014
(1675219667.038657) can0 025#0FC30FC378787839
(1675219667.038846) can0 2D0#07A209001000009C
(1675219667.039069) can0 440#4202000001000000
(1675219667.039359) can0 024#0203020362008018
(1675219667.039658) can0 2C4#03F0001908802183
(1675219667.039660) can0 3B3#03F528
(1675219667.044471) can0 0B0#00000000110D
(1675219667.044474) can0 0B2#00000000110D
(1675219667.044703) can0 223#000000000000002D
(1675219667.048916) can0 2C1#0800B40027C50073
(1675219667.050677) can0 020#000007
(1675219667.050683) can0 0B4#0000000058000014
(1675219667.050685) can0 025#0FC30FC378787839
(1675219667.051043) can0 024#0202020462007F17
(1675219667.052643) can0 3A0#014E000000000025
(1675219667.053365) can0 260#0E00000000000078
(1675219667.056523) can0 0B0#00000000110E
(1675219667.056528) can0 0B2#00000000110E
(1675219667.056917) can0 224#0000000000000008
(1675219667.056921) can0 235#00000000003D
(1675219667.062561) can0 020#000007
(1675219667.062566) can0 0B4#0000000058000014
(1675219667.062956) can0 025#0FC30FC378787839
(1675219667.062961) can0 024#0203020362008018
(1675219667.063213) can0 2C4#03EE001908802181
(1675219667.068729) can0 0B0#00000000110F
(1675219667.068732) can0 0B2#00000000110F
(1675219667.068734) can0 223#000000000000002D
(1675219667.070658) can0 2D0#07A009001000009A
(1675219667.073437) can0 260#0E00000000000078
(1675219667.074777) can0 020#000007
(1675219667.074782) can0 0B4#0000000058000014
(1675219667.074784) can0 025#0FC30FC378787839
(1675219667.075319) can0 024#0203020361FF8016
(1675219667.080672) can0 2C1#0800CA0013C60076
(1675219667.080677) can0 0B0#000000001100
(1675219667.081124) can0 0B2#000000001100
(1675219667.081157) can0 224#0000000000000008
(1675219667.081384) can0 235#00000000003D
(1675219667.086521) can0 020#000007
(1675219667.086528) can0 0B4#0000000058000014
(1675219667.086717) can0 025#0FC30FC378787839
(1675219667.087163) can0 2C4#03EB00190880217E
(1675219667.087592) can0 024#0203020361FF8016
(1675219667.092600) can0 0B0#000000001101
(1675219667.092604) can0 0B2#000000001101
(1675219667.092772) can0 223#000000000000002D
(1675219667.093259) can0 260#0E00000000000078
(1675219667.093907) can0 351#00000000
(1675219667.098887) can0 020#000007
(1675219667.098892) can0 0B4#0000000058000014
(1675219667.098895) can0 024#0203020461FF8017
(1675219667.099090) can0 025#0FC30FC378787839
(1675219667.102107) can0 2D0#0799090010000093
(1675219667.105002) can0 0B0#000000001102
(1675219667.105008) can0 0B2#000000001102
(1675219667.105242) can0 224#0000000000000008
(1675219667.105490) can0 235#00000000003D
(1675219667.106030) can0 3B7#0000800000000000
(1675219667.110386) can0 2C4#03EB00190880217E
(1675219667.110391) can0 020#000007
(1675219667.110750) can0 0B4#0000000058000014
(1675219667.111006) can0 025#0FC30FC378787839
(1675219667.111010) can0 024#0203020361FF8016
(1675219667.112058) can0 394#00
(1675219667.112062) can0 2C1#0800CE0011C60078
(1675219667.113498) can0 260#0E00000000000078
(1675219667.117199) can0 0B0#000000001103
(1675219667.117876) can0 0B2#000000001103
(1675219667.117879) can0 223#000000000000002D
(1675219667.122688) can0 020#000007
(1675219667.122693) can0 0B4#0000000058000014
(1675219667.123100) can0 025#0FC30FC378787839
(1675219667.123425) can0 024#0203020362008018
(1675219667.126195) can0 4DD#1E00000100000000
(1675219667.129172) can0 0B0#000000001104
(1675219667.129176) can0 0B2#000000001104
(1675219667.129178) can0 224#0000000000000008
(1675219667.129179) can0 235#00000000003D
(1675219667.130605) can0 442#4002000000000000
(1675219667.133604) can0 260#0E00000000000078
(1675219667.133608) can0 2D0#079009001000008A
(1675219667.133892) can0 2C4#03EA00190880217D
(1675219667.134522) can0 020#000007
(1675219667.134805) can0 0B4#0000000058000014
(1675219667.135058) can0 025#0FC30FC378787839
(1675219667.135790) can0 024#0202020362008017
(1675219667.140821) can0 0B0#000000001105
(1675219667.140828) can0 0B2#000000001105
(1675219667.141052) can0 223#000000000000002D
(1675219667.144031) can0 2C1#0800C50007C60065
(1675219667.146720) can0 020#000007
(1675219667.146723) can0 0B4#0000000058000014
(1675219667.147190) can0 024#0203020461FF8017
(1675219667.147438) can0 025#0FC30FC378787839
(1675219667.149868) can0 3A0#004E000000000025
(1675219667.152919) can0 0B0#000000001106
(1675219667.152923) can0 0B2#000000001106
(1675219667.153205) can0 224#0000000000000008
(1675219667.153209) can0 235#00000000003D
(1675219667.153551) can0 260#0E00000000000078
(1675219667.153848) can0 4C3#0300120100000000
(1675219667.154094) can0 351#00000000
(1675219667.157830) can0 2C4#03EA00190880217D
(1675219667.159133) can0 020#000007
(1675219667.159137) can0 0B4#0000000058000014
(1675219667.159139) can0 024#0203020461FF8017
(1675219667.159625) can0 025#0FC30FC382828257
(1675219667.165234) can0 0B0#000000001107
(1675219667.165241) can0 0B2#000000001107
(1675219667.165243) can0 223#000000000000002D
(1675219667.165520) can0 2D0#0788090010000082
(1675219667.167651) can0 4C1#0100090000000000
(1675219667.171130) can0 020#000007
(1675219667.171649) can0 0B4#0000000058000014
(1675219667.171655) can0 024#0202020461FF8117
(1675219667.172703) can0 025#0FC30FC378787839
(1675219667.173286) can0 260#0E00000000000078
(1675219667.175779) can0 2C1#0800B8FFFBC5004A
(1675219667.177193) can0 0B0#000000001108
(1675219667.177197) can0 0B2#000000001108
(1675219667.177199) can0 224#0000000000000008
(1675219667.177453) can0 235#00000000003D
(1675219667.181220) can0 2C4#03E700190880217A
(1675219667.183116) can0 020#000007
(1675219667.183119) can0 0B4#0000000058000014
(1675219667.183738) can0 025#0FC30FC378787839
(1675219667.183743) can0 024#0203020361FF8016
(1675219667.189277) can0 0B0#000000001109
(1675219667.189281) can0 0B2#000000001109
(1675219667.190636) can0 223#000000000000002D
(1675219667.193286) can0 260#0E00000000000078
(1675219667.193554) can0 4C8#0900010200000000
(1675219667.194945) can0 020#000007
(1675219667.194949) can0 0B4#0000000058000014
(1675219667.195516) can0 025#0FC30FC378787839
(1675219667.196071) can0 024#0203020361FF8016
(1675219667.197540) can0 2D0#077F090010000079
(1675219667.201213) can0 0B0#00000000110A
(1675219667.201218) can0 0B2#00000000110A
(1675219667.201220) can0 224#0000000000000008
(1675219667.201586) can0 235#00000000003D
(1675219667.204731) can0 2C4#03E700190880217A
(1675219667.207217) can0 020#000007
(1675219667.207228) can0 0B4#0000000058000014
(1675219667.207231) can0 024#0202020461FF8117
(1675219667.207728) can0 025#0FC30FC378787839
(1675219667.207732) can0 2C1#0800BBFFF9C5004B
(1675219667.212981) can0 0B0#00000000110B
(1675219667.213339) can0 0B2#00000000110B
(1675219667.213344) can0 223#000000000000002D
(1675219667.213649) can0 260#0E00000000000078
(1675219667.215331) can0 351#00000000
(1675219667.219138) can0 020#000007
(1675219667.219142) can0 0B4#0000000058000014
(1675219667.219629) can0 025#0FC30FC378787839
(1675219667.219633) can0 024#0202020361FF7F14
(1675219667.225189) can0 0B0#00000000110C
(1675219667.225193) can0 0B2#00000000110C
(1675219667.225580) can0 224#0000000000000008
(1675219667.225583) can0 235#00000000003D
(1675219667.228291) can0 2C4#03E3001908802176
(1675219667.228967) can0 440#4202000001000000
(1675219667.228970) can0 2D0#077A090010000074
(1675219667.231401) can0 020#000007
(1675219667.231405) can0 0B4#0000000058000014
(1675219667.231407) can0 025#0FC30FC378787839
(1675219667.231934) can0 024#0203020361FF8016
(1675219667.233837) can0 260#0E00000000000078
(1675219667.237391) can0 0B0#00000000110D
(1675219667.237704) can0 0B2#00000000110D
(1675219667.239052) can0 223#000000000000002D
(1675219667.239055) can0 2C1#0800C1FFF2C6004B
(1675219667.243594) can0 020#000007
(1675219667.243598) can0 0B4#0000000058000014
(1675219667.243600) can0 025#0FC30FC378787839
(1675219667.244310) can0 024#0203020461FF8017
(1675219667.249532) can0 620#1000024DF0402000
(1675219667.249538) can0 0B0#00000000110E
(1675219667.249964) can0 0B2#00000000110E
(1675219667.249968) can0 224#0000000000000008
(1675219667.250427) can0 235#00000000003D
(1675219667.250430) can0 3A0#004E000000000025
(1675219667.251658) can0 2C4#03DF001908802172
(1675219667.253529) can0 260#0E00000000000078
(1675219667.255924) can0 020#000007
(1675219667.255931) can0 0B4#0000000058000014
(1675219667.255932) can0 025#0FC30FC378787839
(1675219667.256543) can0 024#0203020461FF8017
(1675219667.259777) can0 621#1100000000000000
(1675219667.261326) can0 2D0#077509001000006F
(1675219667.261330) can0 0B0#00000000110F
(1675219667.261666) can0 0B2#00000000110F
(1675219667.261670) can0 223#000000000000002D
(1675219667.267736) can0 020#000007
(1675219667.267741) can0 0B4#0000000058000014
(1675219667.267743) can0 025#0FC30FC378787839
(1675219667.267872) can0 024#0203020361FF8016
(1675219667.271384) can0 2C1#0800CDFFEBC60050
(1675219667.273675) can0 260#0E00000000000078
(1675219667.273684) can0 0B0#000000001100
(1675219667.273685) can0 0B2#000000001100
(1675219667.273978) can0 224#0000000000000008
(1675219667.274467) can0 235#00000000003D
(1675219667.274473) can0 351#00000000
(1675219667.275050) can0 2C4#03DC00190880216F
(1675219667.279980) can0 020#000007
(1675219667.279985) can0 0B4#0000000058000014
(1675219667.281365) can0 025#0FC30FC378787839
(1675219667.281370) can0 024#0203020361FF8016
(1675219667.285822) can0 0B0#000000001101
(1675219667.285826) can0 0B2#000000001101
(1675219667.285828) can0 223#000000000000002D
(1675219667.291799) can0 020#000007
(1675219667.291803) can0 0B4#0000000058000014
(1675219667.291805) can0 025#0FC30FC378787839
(1675219667.292423) can0 024#0203020361FF8016
(1675219667.292427) can0 2D0#077109001000006B
(1675219667.293653) can0 260#0E00000000000078
(1675219667.298109) can0 0B0#000000001102
(1675219667.298113) can0 0B2#000000001102
(1675219667.298116) can0 224#0000000000000008
(1675219667.298669) can0 235#00000000003D
(1675219667.299259) can0 2C4#03DB00190880216E
(1675219667.303728) can0 2C1#0800C1FFE4C6003D
(1675219667.303737) can0 020#000007
(1675219667.303741) can0 0B4#0000000058000014
(1675219667.303933) can0 025#0FC30FC378787839
(1675219667.304689) can0 024#0203020361FF8016
(1675219667.309947) can0 0B0#000000001103
(1675219667.310394) can0 0B2#000000001103
(1675219667.311351) can0 223#000000000000002D
(1675219667.313604) can0 260#0E00000000000078
(1675219667.315939) can0 020#000007
(1675219667.315946) can0 0B4#0000000058000014
(1675219667.316555) can0 024#0203020361FF8016
(1675219667.317831) can0 025#0FC30FC378787839
(1675219667.321626) can0 442#4002000000000000
(1675219667.321632) can0 0B0#000000001104
(1675219667.322083) can0 0B2#000000001104
(1675219667.322086) can0 224#0000000000000008
(1675219667.322594) can0 235#00000000003D
(1675219667.322599) can0 2C4#03DB00190880216E
(1675219667.324637) can0 2D0#076C090010000066
(1675219667.328119) can0 020#000007
(1675219667.328125) can0 0B4#0000000058000014
(1675219667.328361) can0 025#0FC30FC378787839
(1675219667.329179) can0 024#0203020362008018
(1675219667.333961) can0 260#0E00000000000078
(1675219667.333968) can0 0B0#000000001105
(1675219667.334446) can0 0B2#000000001105
(1675219667.334450) can0 223#000000000000002D
(1675219667.335318) can0 351#00000000
(1675219667.335323) can0 2C1#0800C4FFE7C60043
(1675219667.340213) can0 020#000007
(1675219667.340224) can0 0B4#0000000058000014
(1675219667.340228) can0 025#0FC30FC378787839
(1675219667.340657) can0 024#0202020361FF8015
(1675219667.346257) can0 0B0#000000001106
(1675219667.346264) can0 0B2#000000001106
(1675219667.346267) can0 224#0000000000000008
(1675219667.346277) can0 235#00000000003D
(1675219667.346705) can0 2C4#03DA00190880216D
(1675219667.349822) can0 3A0#004E000000000025
(1675219667.351780) can0 611#210010A00002821C
(1675219667.351787) can0 020#000007
(1675219667.352287) can0 0B4#0000000058000014
(1675219667.353120) can0 025#0FC30FC382828257
(1675219667.353132) can0 024#0202020461FF8117
(1675219667.353643) can0 260#0E00000000000078
(1675219667.356297) can0 2D0#0766090010000060
(1675219667.358365) can0 0B0#000000001107
(1675219667.358374) can0 0B2#000000001107
(1675219667.358377) can0 223#000000000000002D
(1675219667.364374) can0 020#000007
(1675219667.364385) can0 0B4#0000000058000014
(1675219667.364389) can0 024#0202020461FF7F15
(1675219667.364392) can0 025#0FC30FC36E6E6E1B
(1675219667.366489) can0 2C1#0800CDFFE2C60047
(1675219667.369538) can0 622#1200E83000000000
(1675219667.369543) can0 2C4#03D2001908802165
(1675219667.370174) can0 0B0#000000001108
(1675219667.370182) can0 0B2#000000001108
(1675219667.370185) can0 224#0000000000000008
(1675219667.370522) can0 235#00000000003D
(1675219667.373807) can0 260#0E00000000000078
(1675219667.376506) can0 020#000007
(1675219667.376569) can0 0B4#0000000058000014
(1675219667.376573) can0 024#0202020361FF8116
(1675219667.376988) can0 025#0FC30FC382828257
(1675219667.381946) can0 610#20000064C0FFFEE0
(1675219667.381953) can0 0B0#000000001109
(1675219667.381956) can0 0B2#000000001109
(1675219667.382164) can0 223#000000000000002D
(1675219667.384482) can0 638#13001F0000000000
(1675219667.388076) can0 2D0#075F090010000059
(1675219667.388082) can0 020#000007
(1675219667.388743) can0 0B4#0000000058000014
(1675219667.388748) can0 025#0FC30FC378787839
(1675219667.389271) can0 024#0202020261FF7F13
(1675219667.391584) can0 4C6#0700010000000000
(1675219667.393012) can0 2C4#03C900190880215C
(1675219667.393506) can0 260#0E00000000000078
(1675219667.394245) can0 0B0#00000000110A
(1675219667.394250) can0 0B2#00000000110A
(1675219667.394676) can0 224#0000000000000008
(1675219667.394680) can0 235#00000000003D
(1675219667.395875) can0 351#00000000
(1675219667.398171) can0 2C1#0800DFFFE1C60058
(1675219667.400612) can0 020#000007
(1675219667.400618) can0 0B4#0000000058000014
(1675219667.400620) can0 025#0FC30FC378787839
(1675219667.401198) can0 024#0202020361FF8116
(1675219667.406581) can0 0B0#00000000110B
(1675219667.406587) can0 0B2#00000000110B
(1675219667.407007) can0 223#000000000000002D
(1675219667.408368) can0 3B7#0000800000000000
(1675219667.412730) can0 020#000007
(1675219667.412736) can0 0B4#0000000058000014
(1675219667.412738) can0 024#0202020461FF7F15
(1675219667.412740) can0 394#00
(1675219667.412743) can0 025#0FC30FC378787839
(1675219667.413614) can0 398#010B
(1675219667.413618) can0 260#0E00000000000078
(1675219667.417385) can0 2C4#03C3001908802156
(1675219667.418193) can0 0B0#00000000110C
(1675219667.418197) can0 0B2#00000000110C
(1675219667.418200) can0 224#0000000000000008
(1675219667.418407) can0 235#00000000003D
(1675219667.419551) can0 440#4202000001000000
(1675219667.419555) can0 2D0#0758090010000052
(1675219667.424571) can0 020#000007
(1675219667.424577) can0 0B4#0000000058000014
(1675219667.424579) can0 024#0203020361FF8016
(1675219667.424973) can0 025#0FC30FC378787839
(1675219667.430401) can0 2C1#080122FFD9C90097
(1675219667.430407) can0 0B0#00000000110D
(1675219667.431815) can0 0B2#00000000110D
(1675219667.431821) can0 223#000000000000002D
(1675219667.434133) can0 260#0E00000000000078
(1675219667.436100) can0 020#000007
(1675219667.436106) can0 0B4#0000000058000014
(1675219667.436751) can0 025#0FC30FC378787839
(1675219667.436755) can0 024#0202020361FF8116
(1675219667.440199) can0 2C4#03C5001908802158
(1675219667.442312) can0 0B0#00000000110E
(1675219667.442321) can0 0B2#00000000110E
(1675219667.442743) can0 224#0000000000010008
(1675219667.443536) can0 235#00000000003D
(1675219667.448659) can0 020#000007
(1675219667.448665) can0 0B4#0000000058000014
(1675219667.448667) can0 025#0FC30FC378787839
(1675219667.449092) can0 024#0203020361FF8016
(1675219667.449786) can0 3A0#004E000000000025
(1675219667.451609) can0 2D0#074B090010000045
(1675219667.453402) can0 260#0E00000000000078
(1675219667.454444) can0 0B0#00000000110F
(1675219667.455233) can0 0B2#00000000110F
(1675219667.455237) can0 223#000000000000002D
(1675219667.457548) can0 351#00000000
(1675219667.460636) can0 020#000007
(1675219667.460642) can0 0B4#0000000058000014
(1675219667.461726) can0 024#0202020361FF7F14
(1675219667.461730) can0 025#0FC30FC378787839
(1675219667.461732) can0 2C1#0800DAFFDFC60051
(1675219667.463820) can0 2C4#03C2001908802155
(1675219667.466935) can0 0B0#000000001100
(1675219667.466942) can0 0B2#000000001100
(1675219667.467779) can0 224#0000000000030008
(1675219667.467783) can0 235#00000000003D
(1675219667.472639) can0 020#000007
(1675219667.472648) can0 0B4#0000000058000014
(1675219667.472651) can0 024#0203020361FF8016
(1675219667.473674) can0 025#0FC30FC378787839
(1675219667.473678) can0 260#0E00000000000078
(1675219667.478802) can0 0B0#000000001101
(1675219667.478811) can0 0B2#000000001101
(1675219667.478815) can0 223#000000000000002D
(1675219667.483066) can0 2D0#073E090010000038
(1675219667.484472) can0 020#000007
(1675219667.484478) can0 0B4#0000000058000014
(1675219667.484482) can0 025#0FC30FC378787839
(1675219667.484826) can0 024#0203020362008018
(1675219667.487098) can0 2C4#03C0001908802153
(1675219667.491034) can0 0B0#000000001102
(1675219667.491039) can0 0B2#000000001102
(1675219667.491042) can0 224#0000000000050008
(1675219667.491990) can0 235#00000000003D
(1675219667.493519) can0 2C1#0800DCFFE2C60056
(1675219667.493524) can0 260#0E00000000000078
(1675219667.497124) can0 020#000007
(1675219667.497132) can0 0B4#0000000058000014
(1675219667.497413) can0 025#0FC30FC378787839
(1675219667.498245) can0 024#0203020362008018
(1675219667.502821) can0 0B0#000000001103
(1675219667.502827) can0 0B2#000000001103
(1675219667.503643) can0 223#000000000000002D
(1675219667.508967) can0 020#000007
(1675219667.508977) can0 0B4#0000000058000014
(1675219667.508982) can0 025#0FC30FC378787839
(1675219667.509411) can0 024#0203020462008019
(1675219667.510642) can0 442#4002000000000000
(1675219667.510646) can0 2C4#03BE001908802151
(1675219667.513681) can0 260#0E00000000000078
(1675219667.514674) can0 351#00000000
(1675219667.514679) can0 0B0#000000001104
(1675219667.514682) can0 0B2#000000001104
(1675219667.515182) can0 224#0000000000060008
(1675219667.515477) can0 235#00000000003D
(1675219667.516733) can0 2D0#073409001000002E
(1675219667.520846) can0 020#000007
(1675219667.520851) can0 0B4#0000000058000014
(1675219667.520853) can0 025#0FC30FC378787839
(1675219667.521956) can0 024#0203020462008019
(1675219667.525376) can0 2C1#0800E3FFE4C70060
(1675219667.527152) can0 0B0#000000001105
(1675219667.527158) can0 0B2#000000001105
(1675219667.528987) can0 223#000000000000002D
(1675219667.532986) can0 020#000007
(1675219667.532991) can0 0B4#0000000058000014
(1675219667.532994) can0 025#0FC30FC378787839
(1675219667.533721) can0 024#0203020361FF8016
(1675219667.534461) can0 260#0E00000000000078
(1675219667.534473) can0 2C4#03BB00190880214E
(1675219667.538932) can0 0B0#000000001106
(1675219667.538939) can0 0B2#000000001106
(1675219667.538943) can0 224#0000000000080008
(1675219667.539504) can0 235#00000000003D
(1675219667.544800) can0 020#000007
(1675219667.544806) can0 0B4#0000000058000014
(1675219667.545263) can0 025#0FC30FC378787839
(1675219667.545268) can0 024#0203020361FF8016
(1675219667.546596) can0 2D0#072A090010000024
(1675219667.549504) can0 620#1000024DF0402000
(1675219667.551214) can0 0B0#000000001107
(1675219667.551224) can0 0B2#000000001107
(1675219667.551227) can0 223#000000000000002D
(1675219667.552264) can0 3A0#004D000000000025
(1675219667.552271) can0 3B3#03B428
(1675219667.553540) can0 260#0E00000000000078
(1675219667.557367) can0 020#000007
(1675219667.557454) can0 0B4#0000000058000014
(1675219667.557457) can0 025#0FC30FC378787839
(1675219667.557461) can0 2C1#0800E7FFEBC7006B
(1675219667.557819) can0 024#0203020362008018
(1675219667.558877) can0 2C4#03AE001908802141
(1675219667.563115) can0 0B0#000000001108
(1675219667.563127) can0 0B2#000000001108
(1675219667.563130) can0 224#00000000000A0008
(1675219667.564202) can0 235#00000000003D
(1675219667.564206) can0 3B4#0000AAB080000000
(1675219667.569168) can0 020#000007
(1675219667.569173) can0 0B4#0000000058000014
(1675219667.569984) can0 025#0FC30FC378787839
(1675219667.569989) can0 024#0203020361FF8016
(1675219667.574140) can0 260#0E00000000000078
(1675219667.574155) can0 351#00000000
(1675219667.575181) can0 0B0#000000001109
(1675219667.575188) can0 0B2#000000001109
(1675219667.575190) can0 223#000000000000002D
(1675219667.578531) can0 2D0#072109001000001B
(1675219667.581040) can0 020#000007
(1675219667.581048) can0 0B4#0000000058000014
(1675219667.581052) can0 025#0FC30FC378787839
(1675219667.582048) can0 024#0203020361FF8016
(1675219667.582054) can0 2C4#03AC00190880213F
(1675219667.587395) can0 0B0#00000000110A
(1675219667.587400) can0 0B2#00000000110A
(1675219667.587403) can0 224#00000000000E0008
(1675219667.588890) can0 235#00000000003D
(1675219667.588895) can0 2C1#0800FDFFE3C70079
(1675219667.593584) can0 020#000007
(1675219667.593592) can0 0B4#0000000058000014
(1675219667.593594) can0 024#0203020361FF8016
(1675219667.593597) can0 260#0E00000000000078
(1675219667.593783) can0 025#0FC30FC382828257
(1675219667.599471) can0 0B0#00000000110B
(1675219667.599477) can0 0B2#00000000110B
(1675219667.600622) can0 223#000000000000002D
(1675219667.605672) can0 2C4#03AC00190880213F
(1675219667.605686) can0 020#000007
(1675219667.605690) can0 0B4#0000000058000014
(1675219667.605693) can0 3B4#0000AAB081000000
(1675219667.605911) can0 024#0203020461FF8017
(1675219667.606659) can0 025#0FC30FC378787839
(1675219667.609722) can0 440#4202000001000000
(1675219667.610228) can0 2D0#071509001000000F
(1675219667.611525) can0 0B0#00000000110C
(1675219667.611538) can0 0B2#00000000110C
(1675219667.611542) can0 224#20000000000F0008
(1675219667.612832) can0 235#00000000003D
(1675219667.613924) can0 260#0E00000000000078
(1675219667.617217) can0 020#000007
(1675219667.618019) can0 0B4#0000000058000014
(1675219667.618024) can0 025#0FC30FC378787839
(1675219667.618026) can0 024#0203020461FF8017
(1675219667.620438) can0 2C1#080105FFEFC8008F
(1675219667.623624) can0 0B0#00000000110D
(1675219667.623631) can0 0B2#00000000110D
(1675219667.623633) can0 223#000000000000002D
(1675219667.628866) can0 2C4#03A5001908802138
(1675219667.628872) can0 020#000007
(1675219667.629360) can0 0B4#0000000058000014
(1675219667.629364) can0 024#0202020361FF8116
(1675219667.629831) can0 025#0FC30FC378787839
(1675219667.633934) can0 260#0E00000000000078
(1675219667.634839) can0 351#00000000
(1675219667.635417) can0 0B0#00000000110E
(1675219667.635424) can0 0B2#00000000110E
(1675219667.636152) can0 224#2000000000110008
(1675219667.636156) can0 235#00000000003D
(1675219667.641673) can0 020#000007
(1675219667.641686) can0 0B4#0000000058000014
(1675219667.641689) can0 024#0202020362007F16
(1675219667.641693) can0 025#0FC30FC378787839
(1675219667.641928) can0 2D0#070B090010000005
(1675219667.642705) can0 38A#0800040000
(1675219667.647482) can0 0B0#00000000110F
(1675219667.647490) can0 0B2#00000000110F
(1675219667.648815) can0 223#000000000000002D
(1675219667.649608) can0 3A0#004D000000000025
(1675219667.652399) can0 2C1#0800EFFFECC70074
(1675219667.652404) can0 2C4#03A800190880213B
(1675219667.653062) can0 020#000007
(1675219667.653066) can0 0B4#0000000058000014
(1675219667.654000) can0 260#0E00000000000078
(1675219667.654010) can0 025#0FC30FC378787839
(1675219667.654356) can0 024#0203020362008018
(1675219667.659761) can0 0B0#000000001100
(1675219667.659767) can0 0B2#000000001100
(1675219667.659769) can0 224#2000000000120008
(1675219667.661944) can0 235#00000000003D
(1675219667.665684) can0 020#000007
(1675219667.665694) can0 0B4#0000000058000014
(1675219667.665697) can0 025#0FC30FC378787839
(1675219667.666088) can0 024#0203020461FF8017
(1675219667.671528) can0 0B0#000000001101
(1675219667.671533) can0 0B2#000000001101
(1675219667.672603) can0 223#000000000000002D
(1675219667.673609) can0 2D0#07000900100000FA
(1675219667.673613) can0 260#0E00000000000078
(1675219667.675621) can0 2C4#039E001908802131
(1675219667.677631) can0 020#000007
(1675219667.677644) can0 0B4#0000000058000014
(1675219667.677648) can0 025#0FC30FC378787839
(1675219667.678481) can0 024#0203020561FF8018
(1675219667.679458) can0 4DC#1D00030200000000
(1675219667.683951) can0 0B0#000000001102
(1675219667.683959) can0 0B2#000000001102
(1675219667.683962) can0 224#2000000000120008
(1675219667.684369) can0 235#00000000003D
(1675219667.684932) can0 2C1#08010AFFD8C8007D
(1675219667.689785) can0 020#000007
(1675219667.689793) can0 38C#0000000000000037
(1675219667.689796) can0 0B4#0000000058000014
(1675219667.690201) can0 024#0203020461FF8017
(1675219667.691051) can0 025#0FC30FC378787839
(1675219667.693973) can0 260#0E00000000000078
(1675219667.694492) can0 623#1900000000000000
(1675219667.694497) can0 351#00000000
(1675219667.695753) can0 0B0#000000001103
(1675219667.695758) can0 0B2#000000001103
(1675219667.695762) can0 223#000000000000002D
(1675219667.699750) can0 2C4#039800190880212B
(1675219667.701466) can0 020#000007
(1675219667.701473) can0 0B4#0000000058000014
(1675219667.702719) can0 025#0FC30FC378787839
(1675219667.702725) can0 024#0203020262008017
(1675219667.702727) can0 442#4002000000000000
(1675219667.704704) can0 624#1A00414949400000
(1675219667.705248) can0 2D0#06F40900100000ED
(1675219667.708241) can0 0B0#000000001104
(1675219667.708249) can0 0B2#000000001104
(1675219667.708252) can0 224#2000000000140008
(1675219667.708255) can0 235#00000000003D
(1675219667.708259) can0 3B7#0000800000000000
(1675219667.712460) can0 394#00
(1675219667.713818) can0 020#000007
(1675219667.713824) can0 0B4#0000000058000014
(1675219667.713828) can0 025#0FC30FC378787839
(1675219667.714244) can0 260#0E00000000000078
(1675219667.714249) can0 024#0203020362008018
(1675219667.715592) can0 2C1#080106FFE7C80088
(1675219667.719845) can0 3B0#0000002A0000
(1675219667.719852) can0 0B0#000000001105
(1675219667.719854) can0 0B2#000000001105
(1675219667.720598) can0 223#000000000000002D
(1675219667.722850) can0 2C4#0394001908802127
(1675219667.725666) can0 020#000007
(1675219667.725673) can0 0B4#0000000058000014
(1675219667.726224) can0 025#0FC30FC378787839
(1675219667.726594) can0 024#0203020362008018
(1675219667.732152) can0 0B0#000000001106
(1675219667.732157) can0 0B2#000000001106
(1675219667.732159) can0 224#2000000000190008
(1675219667.732162) can0 235#00000000003D
(1675219667.733874) can0 260#0E00000000000078
(1675219667.734464) can0 630#1700000000000000
(1675219667.737584) can0 2D0#06EA0900100000E3
(1675219667.737590) can0 020#000007
(1675219667.737593) can0 0B4#0000000058000014
(1675219667.738106) can0 025#0FC30FC378787839
(1675219667.738806) can0 024#0203020361FF8016
(1675219667.744022) can0 0B0#000000001107
(1675219667.744031) can0 0B2#000000001107
(1675219667.745074) can0 223#000000000000002D
(1675219667.746339) can0 2C4#0392001908802125
(1675219667.747520) can0 2C1#0800FBFFEDC70081
(1675219667.749749) can0 3A0#004D000000000024
(1675219667.749754) can0 020#000007
(1675219667.749757) can0 0B4#0000000058000014
(1675219667.750264) can0 025#0FC30FC378787839
(1675219667.750269) can0 024#0203020361FF8016
(1675219667.753782) can0 260#0E00000000000078
(1675219667.754636) can0 351#00000000
(1675219667.756544) can0 0B0#000000001108
(1675219667.756550) can0 0B2#000000001108
(1675219667.756552) can0 224#20000000001D0008
(1675219667.756554) can0 235#00000000003D
(1675219667.761705) can0 020#000007
(1675219667.761710) can0 0B4#0000000058000014
(1675219667.762178) can0 025#0FC30FC378787839
(1675219667.762181) can0 024#0203020361FF8016
(1675219667.767939) can0 0B0#000000001109
(1675219667.767945) can0 0B2#000000001109
(1675219667.767948) can0 223#000000000000002D
(1675219667.768776) can0 2D0#06DD0900100000D6
(1675219667.769601) can0 2C4#0392001908802125
(1675219667.773759) can0 260#0E00000000000078
(1675219667.773764) can0 020#000007
(1675219667.773767) can0 0B4#0000000058000014
(1675219667.774020) can0 025#0FC30FC378787839
(1675219667.774580) can0 024#0203020362008018
(1675219667.779835) can0 2C1#080101FFF6C80092
(1675219667.779840) can0 380#200808000000FE00
(1675219667.780295) can0 0B0#00000000110A
(1675219667.780300) can0 0B2#00000000110A
(1675219667.781103) can0 224#2000000000250008
(1675219667.781106) can0 235#00000000003D
(1675219667.786086) can0 020#000007
(1675219667.787014) can0 0B4#0000000058000014
(1675219667.787017) can0 025#0FC30FC378787839
(1675219667.787019) can0 024#0203020361FF8016
(1675219667.792199) can0 0B0#00000000110B
(1675219667.793694) can0 0B2#00000000110B
(1675219667.793698) can0 223#0400000000000031
(1675219667.793699) can0 2C4#0391001908802124
(1675219667.795037) can0 260#0E00000000000078
(1675219667.797833) can0 020#000007
(1675219667.797837) can0 0B4#0000000058000014
(1675219667.798129) can0 024#0203020361FF8016
(1675219667.798639) can0 025#0FC30FC382828257
(1675219667.799213) can0 440#4202000001000000
(1675219667.800286) can0 2D0#06D70900100000D0
(1675219667.804342) can0 0B0#00000000110C
(1675219667.804346) can0 0B2#00000000110C
(1675219667.805986) can0 224#20000000002D0008
(1675219667.805991) can0 235#00000000003D
(1675219667.809870) can0 3A1#0000000000FF0000
(1675219667.809874) can0 020#000007
(1675219667.809875) can0 0B4#0000000058000014
(1675219667.810470) can0 024#0203020361FF8016
(1675219667.810476) can0 025#0FC30FC378787839
(1675219667.810824) can0 2C1#0801090008C800AD
(1675219667.813621) can0 260#0E00000000000078
(1675219667.814175) can0 351#00000000
(1675219667.815948) can0 0B0#00000000110D
(1675219667.815953) can0 0B2#00000000110D
(1675219667.816278) can0 223#0400000000000031
(1675219667.816833) can0 2C4#0390001908802123
(1675219667.822256) can0 020#000007
(1675219667.822761) can0 0B4#0000000058000014
(1675219667.822767) can0 025#0FC30FC378787839
(1675219667.822769) can0 024#0203020361FF8016
(1675219667.828054) can0 0B0#00000000110E
(1675219667.828059) can0 0B2#00000000110E
(1675219667.828457) can0 224#2000000000310008
(1675219667.828463) can0 235#00000000003D
(1675219667.829256) can0 383#0000000000000000
(1675219667.832210) can0 2D0#06CC0900100000C5
(1675219667.833778) can0 260#0E00000000000078
(1675219667.833782) can0 020#000007
(1675219667.834042) can0 0B4#0000000058000014
(1675219667.834607) can0 025#0FC30FC378787839
(1675219667.834928) can0 024#0203020361FF8016
(1675219667.840265) can0 0B0#00000000110F
(1675219667.840313) can0 0B2#00000000110F
(1675219667.840317) can0 223#0400000000000031
(1675219667.840533) can0 2C4#038C00190880211F
(1675219667.843244) can0 2C1#0801010011C800AE
(1675219667.846033) can0 020#000007
(1675219667.846038) can0 0B4#0000000058000014
(1675219667.846453) can0 024#0202020461FF7F15
(1675219667.846458) can0 025#0FC30FC378787839
(1675219667.849470) can0 3A0#004D000000000024
(1675219667.849474) can0 620#1000024DF0402000
(1675219667.852282) can0 0B0#000000001100
(1675219667.852289) can0 0B2#000000001100
(1675219667.852292) can0 224#2000000000370008
(1675219667.852620) can0 235#00000000003D
(1675219667.853620) can0 260#0E00000000000078
(1675219667.858129) can0 020#000007
(1675219667.858136) can0 0B4#0000000058000014
(1675219667.858339) can0 024#0202020461FF8117
(1675219667.858771) can0 025#0FC30FC378787839
(1675219667.864007) can0 2D0#06C60900100000BF
(1675219667.864012) can0 0B0#000000001101
(1675219667.864404) can0 0B2#000000001101
(1675219667.864409) can0 223#0400000000000031
(1675219667.864802) can0 2C4#038700190880211A
(1675219667.865267) can0 423#00
(1675219667.870334) can0 020#000007
(1675219667.870339) can0 0B4#0000000058000014
(1675219667.870770) can0 025#0FC30FC378787839
(1675219667.870775) can0 024#0203020361FF8016
(1675219667.873579) can0 260#0E00000000000078
(1675219667.874131) can0 2C1#080111000DC800BA
(1675219667.874426) can0 351#00000000
(1675219667.876218) can0 0B0#000000001102
(1675219667.876576) can0 0B2#000000001102
(1675219667.876580) can0 224#2000000000400008
(1675219667.877938) can0 235#00000000003D
(1675219667.881303) can0 610#20000064C0FFFEE0
(1675219667.882265) can0 020#000007
(1675219667.882270) can0 0B4#0000000058000014
(1675219667.882491) can0 025#0FC30FC378787839
(1675219667.883103) can0 024#0203020362008018
(1675219667.888622) can0 2C4#0382001908802115
(1675219667.889948) can0 0B0#000000001103
(1675219667.889952) can0 0B2#000000001103
(1675219667.891028) can0 223#0400000000000031
(1675219667.891031) can0 442#4002000000000000
(1675219667.893954) can0 260#0E00000000000078
(1675219667.893958) can0 020#000007
(1675219667.894290) can0 0B4#0000000058000014
(1675219667.894754) can0 024#0203020362008018
(1675219667.894757) can0 025#0FC30FC378787839
(1675219667.895645) can0 2D0#06BF0900100000B8
(1675219667.900597) can0 0B0#000000001104
(1675219667.900602) can0 0B2#000000001104
(1675219667.900606) can0 224#2000000000460008
(1675219667.901770) can0 235#00000000003D
(1675219667.906210) can0 2C1#0801170016C800C9
(1675219667.906214) can0 020#000007
(1675219667.906216) can0 0B4#0000000058000014
(1675219667.906732) can0 025#0FC30FC378787839
(1675219667.906735) can0 024#0203020361FF8016
(1675219667.911036) can0 2C4#0382001908802115
(1675219667.912447) can0 0B0#000000001105
(1675219667.912452) can0 0B2#000000001105
(1675219667.912865) can0 223#0400000000000031
(1675219667.913621) can0 260#0E00000000000078
(1675219667.918874) can0 020#000007
(1675219667.918882) can0 0B4#0000000058000014
(1675219667.918885) can0 025#0FC30FC378787839
(1675219667.919740) can0 024#0202020361FF7F14
(1675219667.924736) can0 0B0#000000001106
(1675219667.924743) can0 0B2#000000001106
(1675219667.924745) can0 224#20000000004D0008
(1675219667.925043) can0 235#00000000003D
(1675219667.927645) can0 2D0#06BA0900100000B3
(1675219667.930600) can0 020#000007
(1675219667.930605) can0 0B4#0000000058000014
(1675219667.930997) can0 025#0FC30FC378787839
(1675219667.931326) can0 024#0202020361FF8116
(1675219667.933856) can0 260#0E00000000000078
(1675219667.934375) can0 351#00000000
(1675219667.934380) can0 2C4#0383001908802116
(1675219667.936867) can0 0B0#000000001107
(1675219667.936872) can0 0B2#000000001107
(1675219667.937175) can0 223#0500000000000032
(1675219667.937623) can0 2C1#08011B0018C800CF
(1675219667.938302) can0 4C7#0800012100000000
(1675219667.943047) can0 020#000007
(1675219667.943454) can0 0B4#0000000058000014
(1675219667.944355) can0 025#0FC30FC378787839
(1675219667.944358) can0 024#0202020361FF8015
(1675219667.948840) can0 0B0#000000001108
(1675219667.948844) can0 0B2#000000001108
(1675219667.948847) can0 224#2000000000550008
(1675219667.948848) can0 235#00000000003D
(1675219667.949483) can0 3A0#004D000000000023
(1675219667.953689) can0 260#0E00000000000078
(1675219667.954630) can0 020#000007
(1675219667.954633) can0 0B4#0000000058000014
(1675219667.954961) can0 024#0203020361FF8016
(1675219667.955214) can0 025#0FC30FC378787839
(1675219667.958503) can0 2C4#0382001908802115
(1675219667.959119) can0 2D0#06B50900100000AE
(1675219667.960720) can0 0B0#000000001109
(1675219667.960724) can0 0B2#000000001109
(1675219667.961111) can0 223#0500000000000032
(1675219667.966964) can0 020#000007
(1675219667.966970) can0 0B4#0000000058000014
(1675219667.966972) can0 025#0FC30FC378787839
(1675219667.967186) can0 024#0203020361FF8016
(1675219667.969452) can0 2C1#0801100023C800CF
(1675219667.973156) can0 0B0#00000000110A
(1675219667.973163) can0 0B2#00000000110A
(1675219667.973165) can0 224#20000000005C0008
(1675219667.973169) can0 235#00000000003D
(1675219667.973383) can0 260#0E00000000000078
(1675219667.979018) can0 020#000007
(1675219667.979358) can0 0B4#0000000058000014
(1675219667.980364) can0 025#0FC30FC378787839
(1675219667.980368) can0 024#0202020362008118
(1675219667.981801) can0 2C4#0386001908802119
(1675219667.984798) can0 0B0#00000000110B
(1675219667.984801) can0 0B2#00000000110B
(1675219667.985070) can0 223#0500000000000032
(1675219667.989299) can0 440#4202000001000000
(1675219667.990739) can0 020#000007
(1675219667.990743) can0 0B4#0000000058000014
(1675219667.991055) can0 025#0FC30FC378787839
(1675219667.991417) can0 2D0#06AE0900100000A7
(1675219667.991421) can0 024#0202020362008118
(1675219667.993947) can0 260#0E00000000000078
(1675219667.994514) can0 351#00000000
(1675219667.995535) can0 3B1#0000002400000000
(1675219667.997144) can0 0B0#00000000110C
(1675219667.997192) can0 0B2#00000000110C
(1675219667.997196) can0 224#2000000000630008
(1675219667.997197) can0 235#00000000003D
(1675219668.001274) can0 2C1#0801140025C800D5
(1675219668.002755) can0 020#000007
(1675219668.002761) can0 0B4#0000000058000014
(1675219668.003089) can0 025#0FC30FC378787839
(1675219668.003965) can0 024#0202020361FF8116
(1675219668.005132) can0 2C4#038700190880211A
(1675219668.009002) can0 0B0#00000000110D
(1675219668.009009) can0 0B2#00000000110D
(1675219668.009011) can0 223#0500000000000032
(1675219668.009283) can0 3B7#0000800000000000
(1675219668.012630) can0 394#00
(1675219668.013637) can0 260#0E00000000000078
(1675219668.015464) can0 020#000007
(1675219668.015470) can0 0B4#0000000058000014
(1675219668.015471) can0 025#0FC30FC378787839
(1675219668.018042) can0 024#0202020461FF8016
(1675219668.021254) can0 0B0#00000000110E
(1675219668.021259) can0 0B2#00000000110E
(1675219668.021261) can0 224#2000000000690008
(1675219668.021262) can0 235#00000000003D
(1675219668.022772) can0 2D0#06AB0900100000A4
(1675219668.027346) can0 020#000007
(1675219668.027351) can0 0B4#0000000058000014
(1675219668.027354) can0 024#0203020461FF8017
(1675219668.027729) can0 025#0FC30FC382828257
(1675219668.028828) can0 2C4#0380001908802113
(1675219668.033143) can0 0B0#00000000110F
(1675219668.033155) can0 0B2#00000000110F
(1675219668.033595) can0 223#0500000000000032
(1675219668.033601) can0 2C1#0801170029C800DC
(1675219668.034048) can0 260#0E00000000000078
(1675219668.038996) can0 020#000007
(1675219668.039731) can0 0B4#0000000058000014
(1675219668.039735) can0 025#0FC30FC378787839
(1675219668.039737) can0 024#0202020261FF7F13
(1675219668.045141) can0 0B0#000000001100
(1675219668.045146) can0 0B2#000000001100
(1675219668.045149) can0 224#2000000000730008
(1675219668.045517) can0 235#00000000003D
(1675219668.050325) can0 3A0#004E000000000024
(1675219668.050893) can0 020#000007
(1675219668.050897) can0 0B4#0000000058000014
(1675219668.051678) can0 025#0FC30FC378787839
(1675219668.052132) can0 024#0203020362008018
(1675219668.052135) can0 2C4#037A00190880210D
(1675219668.053676) can0 260#0E00000000000078
(1675219668.054355) can0 2D0#06AA0900100000A3
(1675219668.054358) can0 351#00000000
(1675219668.057203) can0 0B0#000000001101
(1675219668.057207) can0 0B2#000000001101
(1675219668.057208) can0 223#0500000000000032
(1675219668.063268) can0 020#000007
(1675219668.063272) can0 0B4#0000000058000014
(1675219668.063274) can0 024#0203020362008018
(1675219668.063710) can0 3B3#037A28
(1675219668.064806) can0 025#0FC30FC378787839
(1675219668.064809) can0 2C1#0801050028C800C9
(1675219668.069291) can0 0B0#000000001102
(1675219668.069296) can0 0B2#000000001102
(1675219668.069299) can0 224#20000000007A0008
(1675219668.069620) can0 235#00000000003D
(1675219668.074462) can0 260#0E00000000000078
(1675219668.074956) can0 020#000007
(1675219668.074959) can0 0B4#0000000058000014
(1675219668.075594) can0 024#0202020461FF8016
(1675219668.075597) can0 025#0FC30FC378787839
(1675219668.075917) can0 2C4#037700190880210A
(1675219668.078302) can0 4C1#0100090000000000
(1675219668.081116) can0 442#4002000000000000
(1675219668.081123) can0 0B0#000000001103
(1675219668.081268) can0 0B2#000000001103
(1675219668.082396) can0 223#0500000000000032
(1675219668.086311) can0 2D0#06A90900100000A2
(1675219668.087001) can0 020#000007
(1675219668.087004) can0 0B4#0000000058000014
(1675219668.087419) can0 4C3#0300120100000000
(1675219668.087421) can0 025#0FC30FC378787839
(1675219668.087677) can0 024#0202020461FF8117
(1675219668.093359) can0 0B0#000000001104
(1675219668.093363) can0 0B2#000000001104
(1675219668.093612) can0 224#2000000000830008
(1675219668.093919) can0 235#00000000003D
(1675219668.094759) can0 260#0E00000000000078
(1675219668.096419) can0 2C1#080120002BC900E8
(1675219668.098938) can0 020#000007
(1675219668.099221) can0 0B4#0000000058000014
(1675219668.099223) can0 2C4#0376001908802109
(1675219668.099628) can0 025#0FC30FC378787839
(1675219668.100296) can0 024#0203020461FF8017
(1675219668.105253) can0 0B0#000000001105
(1675219668.105260) can0 0B2#000000001105
(1675219668.106603) can0 223#0500000000000032
(1675219668.111530) can0 020#000007
(1675219668.111534) can0 0B4#0000000058000014
(1675219668.111536) can0 024#0202020461FF8117
(1675219668.112943) can0 025#0FC30FC378787839
(1675219668.113654) can0 260#0E00000000000078
(1675219668.114296) can0 351#00000000
(1675219668.117614) can0 0B0#000000001106
(1675219668.117624) can0 0B2#000000001106
(1675219668.117627) can0 224#20000000008A0008
(1675219668.117920) can0 235#00000000003D
(1675219668.118874) can0 2D0#06A509001000009E
(1675219668.123762) can0 2C4#037A00190880210D
(1675219668.123768) can0 020#000007
(1675219668.123770) can0 0B4#0000000058000014
(1675219668.123771) can0 025#0FC30FC378787839
(1675219668.123999) can0 024#0203020361FF8016
(1675219668.128301) can0 2C1#0801220030C900EF
(1675219668.129374) can0 0B0#000000001107
(1675219668.129378) can0 0B2#000000001107
(1675219668.129380) can0 223#0500000000000032
(1675219668.134056) can0 260#0E00000000000078
(1675219668.135201) can0 020#000007
(1675219668.135205) can0 0B4#0000000058000014
(1675219668.135672) can0 4DD#1E00000100000000
(1675219668.135675) can0 025#0FC30FC378787839
(1675219668.135943) can0 024#0202020361FF8116
(1675219668.141147) can0 0B0#000000001108
(1675219668.141153) can0 0B2#000000001108
(1675219668.141483) can0 224#2000000000910008
(1675219668.141704) can0 235#00000000003D
(1675219668.146617) can0 2C4#037C00190880210F
(1675219668.147146) can0 020#000007
(1675219668.147150) can0 0B4#0000000058000014
(1675219668.147708) can0 025#0FC30FC378787839
(1675219668.148240) can0 024#0202020361FF8015
(1675219668.149385) can0 3A0#004E000000000024
(1675219668.149391) can0 620#1000024DF0402000
(1675219668.149566) can0 2D0#069F090010000098
(1675219668.153480) can0 0B0#000000001109
(1675219668.153533) can0 0B2#000000001109
(1675219668.153536) can0 223#0500000000000032
(1675219668.153538) can0 260#0E00000000000078
(1675219668.159727) can0 020#000007
(1675219668.159732) can0 0B4#0000000058000014
(1675219668.159733) can0 024#0202020362008017
(1675219668.159734) can0 025#0FC30FC378787839
(1675219668.159900) can0 2C1#080108003FC800E3
(1675219668.165441) can0 0B0#00000000110A
(1675219668.165448) can0 0B2#00000000110A
(1675219668.165450) can0 224#2000000000990008
(1675219668.165834) can0 235#00000000003D
(1675219668.170278) can0 2C4#0383001908802116
(1675219668.171400) can0 020#000007
(1675219668.171405) can0 0B4#0000000058000014
(1675219668.171746) can0 025#0FC30FC378787839
(1675219668.171749) can0 024#0203020362008018
(1675219668.174036) can0 260#0E00000000000078
(1675219668.174042) can0 4C8#0900010200000000
(1675219668.174563) can0 351#00000000
(1675219668.177580) can0 0B0#00000000110B
(1675219668.178895) can0 0B2#00000000110B
(1675219668.178900) can0 223#0500000000000032
(1675219668.179227) can0 440#4202000001000000
(1675219668.181710) can0 2D0#069D090010000096
(1675219668.183551) can0 020#000007
(1675219668.183558) can0 0B4#0000000058000014
(1675219668.183560) can0 025#0FC30FC378787839
(1675219668.184039) can0 024#0203020461FF8017
(1675219668.189652) can0 0B0#00000000110C
(1675219668.189658) can0 0B2#00000000110C
(1675219668.189660) can0 224#20000000009D0008
(1675219668.191508) can0 235#00000000003D
(1675219668.191513) can0 2C1#080118004BC800FF
(1675219668.193690) can0 2C4#0381001908802114
(1675219668.193694) can0 260#0E00000000000078
(1675219668.195433) can0 020#000007
(1675219668.195437) can0 0B4#0000000058000014
(1675219668.195439) can0 025#0FC30FC378787839
(1675219668.196512) can0 024#0202020461FF7F15
(1675219668.201509) can0 0B0#00000000110D
(1675219668.201514) can0 0B2#00000000110D
(1675219668.202936) can0 223#0600000000000033
(1675219668.207523) can0 020#000007
(1675219668.207529) can0 0B4#0000000058000014
(1675219668.207531) can0 025#0FC30FC378787839
(1675219668.207832) can0 024#0202020261FF8115
(1675219668.213976) can0 2D0#069F090010000098
(1675219668.213984) can0 0B0#00000000110E
(1675219668.213987) can0 0B2#00000000110E
(1675219668.214789) can0 224#2000000000A00008
(1675219668.214791) can0 235#00000000003D
(1675219668.217251) can0 260#0E00000000000078
(1675219668.217256) can0 2C4#0382001908802115
(1675219668.219490) can0 020#000007
(1675219668.219494) can0 0B4#0000000058000014
(1675219668.219780) can0 025#0FC30FC378787839
(1675219668.220080) can0 024#0202020262008016
(1675219668.223420) can0 2C1#080115004EC800FF
(1675219668.225805) can0 0B0#00000000110F
(1675219668.225809) can0 0B2#00000000110F
(1675219668.225811) can0 223#0600000000000033
(1675219668.231750) can0 020#000007
(1675219668.231754) can0 0B4#0000000058000014
(1675219668.231755) can0 025#0FC30FC378787839
(1675219668.232206) can0 024#0203020362008018
(1675219668.233953) can0 260#0E00000000000078
(1675219668.234449) can0 351#00000000
(1675219668.237632) can0 0B0#000000001100
(1675219668.237637) can0 0B2#000000001100
(1675219668.238076) can0 224#2000000000A60008
(1675219668.238080) can0 235#00000000003D
(1675219668.241024) can0 2C4#0383001908802116
(1675219668.243970) can0 020#000007
(1675219668.243974) can0 0B4#0000000058000014
(1675219668.243976) can0 025#0FC30FC378787839
(1675219668.244673) can0 024#0203020461FF8017
(1675219668.244677) can0 2D0#06A409001000009D
(1675219668.249045) can0 3A0#004E000000000023
(1675219668.249640) can0 0B0#000000001101
(1675219668.249644) can0 0B2#000000001101
(1675219668.250214) can0 223#0600000000000033
(1675219668.253961) can0 260#0E00000000000078
(1675219668.255391) can0 2C1#080102003FC800DD
(1675219668.255399) can0 020#000007
(1675219668.255801) can0 0B4#0000000058000014
(1675219668.255804) can0 025#0FC30FC378787839
(1675219668.256862) can0 024#0203020361FF8016
(1675219668.259653) can0 621#1100000000000000
(1675219668.261936) can0 0B0#000000001102
(1675219668.261943) can0 0B2#000000001102
(1675219668.261945) can0 224#2000000000AA0008
(1675219668.262276) can0 235#00000000003D
(1675219668.264629) can0 2C4#0381001908802114
(1675219668.267821) can0 020#000007
(1675219668.267827) can0 0B4#0000000058000014
(1675219668.267829) can0 025#0FC30FC378787839
(1675219668.268120) can0 024#0203020361FF8016
(1675219668.271066) can0 442#4002000000000000
(1675219668.273864) can0 0B0#000000001103
(1675219668.273869) can0 0B2#000000001103
(1675219668.274330) can0 223#0600000000000033
(1675219668.275097) can0 260#0E00000000000078
(1675219668.276970) can0 2D0#06A90900100000A2
(1675219668.279872) can0 020#000007
(1675219668.279876) can0 0B4#0000000058000014
(1675219668.279877) can0 025#0FC30FC378787839
(1675219668.280411) can0 024#0203020361FF8016
(1675219668.286218) can0 0B0#000000001104
(1675219668.286224) can0 0B2#000000001104
(1675219668.286226) can0 224#2000000000AD0008
(1675219668.287110) can0 235#00000000003D
(1675219668.287113) can0 2C1#08010E0046C800F0
(1675219668.288066) can0 2C4#0384001908802117
(1675219668.292428) can0 020#000007
(1675219668.292436) can0 0B4#0000000058000014
(1675219668.292439) can0 025#0FC30FC378787839
(1675219668.292668) can0 024#0203020361FF8016
(1675219668.293733) can0 260#0E00000000000078
(1675219668.294626) can0 351#00000000
(1675219668.298475) can0 0B0#000000001105
(1675219668.299751) can0 0B2#000000001105
(1675219668.299755) can0 223#0600000000000033
(1675219668.304125) can0 020#000007
(1675219668.304130) can0 0B4#0000000058000014
(1675219668.305097) can0 025#0FC30FC378787839
(1675219668.305101) can0 024#0203020461FF8017
(1675219668.308772) can0 2D0#06AD0900100000A6
(1675219668.310373) can0 0B0#000000001106
(1675219668.310386) can0 0B2#000000001106
(1675219668.310390) can0 224#2000000000B00008
(1675219668.310611) can0 235#00000000003D
(1675219668.311535) can0 3B7#0000800000000000
(1675219668.311541) can0 2C4#0385001908802118
(1675219668.312768) can0 394#00
(1675219668.313950) can0 260#0E00000000000078
(1675219668.316446) can0 020#000007
(1675219668.316451) can0 0B4#0000000058000014
(1675219668.316453) can0 025#0FC30FC378787839
(1675219668.317634) can0 024#0203020461FF8017
(1675219668.318740) can0 2C1#0801080045C800E9
(1675219668.322540) can0 0B0#000000001107
(1675219668.322546) can0 0B2#000000001107
(1675219668.322548) can0 223#0600000000000033
(1675219668.328181) can0 020#000007
(1675219668.328198) can0 0B4#0000000058000014
(1675219668.328719) can0 024#0202020362008017
(1675219668.328724) can0 025#0FC30FC382828257
(1675219668.334551) can0 260#0E00000000000078
(1675219668.334561) can0 0B0#000000001108
(1675219668.334564) can0 0B2#000000001108
(1675219668.334566) can0 224#2000000000B40008
(1675219668.334966) can0 235#00000000003D
(1675219668.334976) can0 2C4#0383001908802116
(1675219668.339922) can0 020#000007
(1675219668.339931) can0 0B4#0000000058000014
(1675219668.340329) can0 2D0#06B10900100000AA
(1675219668.340887) can0 025#0FC30FC378787839
(1675219668.340892) can0 024#0202020362008017
(1675219668.346190) can0 0B0#000000001109
(1675219668.346196) can0 0B2#000000001109
(1675219668.346200) can0 223#0600000000000033
(1675219668.348964) can0 3A0#004D000000000023
(1675219668.350619) can0 2C1#08010D0051C800FA
(1675219668.351350) can0 611#210010A00002821C
(1675219668.351828) can0 4C6#0700010000000000
(1675219668.351832) can0 020#000007
(1675219668.351835) can0 0B4#0000000058000014
(1675219668.353431) can0 025#0FC30FC378787839
(1675219668.353442) can0 024#0202020461FF7F15
(1675219668.354257) can0 260#0E00000000000078
(1675219668.354264) can0 351#00000000
(1675219668.358533) can0 0B0#00000000110A
(1675219668.358540) can0 0B2#00000000110A
(1675219668.358543) can0 224#2000000000B70008
(1675219668.358546) can0 235#00000000003D
(1675219668.359718) can0 2C4#0383001908802116
(1675219668.364345) can0 020#000007
(1675219668.364351) can0 0B4#0000000058000014
(1675219668.364353) can0 024#0203020561FF8018
(1675219668.364827) can0 025#0FC30FC378787839
(1675219668.369524) can0 440#4202000001000000
(1675219668.369531) can0 622#1200E83000000000
(1675219668.370178) can0 0B0#00000000110B
(1675219668.370182) can0 0B2#00000000110B
(1675219668.370186) can0 223#0600000000000033
(1675219668.371876) can0 2D0#06B50900100000AE
(1675219668.374095) can0 260#0E00000000000078
(1675219668.376222) can0 020#000007
(1675219668.376229) can0 0B4#0000000058000014
(1675219668.376756) can0 024#0203020361FF8016
(1675219668.376762) can0 025#0FC30FC378787839
(1675219668.381490) can0 610#20000064C0FFFEE0
(1675219668.382227) can0 2C1#08010C0050C800F8
(1675219668.382239) can0 0B0#00000000110C
(1675219668.382645) can0 0B2#00000000110C
(1675219668.382655) can0 224#2000000000B90008
(1675219668.383378) can0 235#00000000003D
(1675219668.383384) can0 2C4#0382001908802115
(1675219668.384750) can0 638#13001F0000000000
(1675219668.388315) can0 020#000007
(1675219668.388322) can0 0B4#0000000058000014
(1675219668.388779) can0 025#0FC30FC378787839
(1675219668.388786) can0 024#0203020362008018
(1675219668.394446) can0 260#0E00000000000078
(1675219668.394450) can0 0B0#00000000110D
(1675219668.394453) can0 0B2#00000000110D
(1675219668.395317) can0 223#0600000000000033
(1675219668.400574) can0 020#000007
(1675219668.400579) can0 0B4#0000000058000014
(1675219668.400581) can0 025#0FC30FC378787839
(1675219668.401209) can0 024#0203020362008018
(1675219668.404102) can0 2D0#06B90900100000B2
(1675219668.405714) can0 2C4#0382001908802115
(1675219668.406316) can0 0B0#00000000110E
(1675219668.406323) can0 0B2#00000000110E
(1675219668.406701) can0 224#2000000000BC0008
(1675219668.406705) can0 235#00000000003D
(1675219668.412942) can0 020#000007
(1675219668.412949) can0 0B4#0000000058000014
(1675219668.412952) can0 024#0203020361FF8016
(1675219668.412955) can0 025#0FC30FC378787839
(1675219668.414237) can0 260#0E00000000000078
(1675219668.414243) can0 2C1#080109004FC800F4
(1675219668.414613) can0 351#00000000
(1675219668.418349) can0 0B0#00000000110F
(1675219668.418354) can0 0B2#00000000110F
(1675219668.418763) can0 223#0600000000000033
(1675219668.424423) can0 020#000007
(1675219668.424432) can0 0B4#0000000058000014
(1675219668.424834) can0 025#0FC30FC378787839
(1675219668.424841) can0 024#0203020361FF8016
(1675219668.429347) can0 2C4#0386001908802119
(1675219668.430317) can0 0B0#000000001100
(1675219668.430321) can0 0B2#000000001100
(1675219668.430738) can0 224#2000000000BD0008
(1675219668.430741) can0 235#00000000003D
(1675219668.433984) can0 260#0E00000000000078
(1675219668.435482) can0 2D0#06B80900100000B1
(1675219668.436149) can0 020#000007
(1675219668.436152) can0 0B4#0000000058000014
(1675219668.436840) can0 025#0FC30FC378787839
(1675219668.436844) can0 024#0203020361FF8016
(1675219668.442481) can0 0B0#000000001101
(1675219668.442550) can0 0B2#000000001101
(1675219668.442559) can0 223#0600000000000033
(1675219668.446019) can0 2C1#0801160052C80004
(1675219668.448921) can0 020#000007
(1675219668.448929) can0 0B4#0000000058000014
(1675219668.448931) can0 3A0#004D000000000023
(1675219668.448933) can0 025#0FC30FC378787839
(1675219668.449459) can0 024#0202020462008119
(1675219668.449464) can0 620#1000024DF0402000
(1675219668.453187) can0 2C4#038700190880211A
(1675219668.453829) can0 260#0E00000000000078
(1675219668.454571) can0 0B0#000000001102
(1675219668.454575) can0 0B2#000000001102
(1675219668.454578) can0 224#2000000000BF0008
(1675219668.454747) can0 235#00000000003D
(1675219668.460840) can0 020#000007
(1675219668.460846) can0 0B4#0000000058000014
(1675219668.460848) can0 024#0202020462007F17
(1675219668.461040) can0 025#0FC30FC378787839
(1675219668.462139) can0 442#4002000000000000
(1675219668.467035) can0 0B0#000000001103
(1675219668.467043) can0 0B2#000000001103
(1675219668.467047) can0 223#0600000000000033
(1675219668.467049) can0 2D0#06B90900100000B2
(1675219668.472845) can0 020#000007
(1675219668.472850) can0 0B4#0000000058000014
(1675219668.472853) can0 025#0FC30FC378787839
(1675219668.473945) can0 024#0202020361FF8116
(1675219668.473949) can0 260#0E00000000000078
(1675219668.473951) can0 351#00000000
(1675219668.476314) can0 2C4#038900190880211C
(1675219668.477610) can0 2C1#08010F005BC80006
(1675219668.478804) can0 0B0#000000001104
(1675219668.478808) can0 0B2#000000001104
(1675219668.479154) can0 224#2000000000BF0008
(1675219668.480800) can0 235#00000000003D
(1675219668.484858) can0 020#000007
(1675219668.484864) can0 0B4#0000000058000014
(1675219668.484868) can0 025#0FC30FC378787839
(1675219668.485403) can0 024#0203020461FF8017
(1675219668.490865) can0 0B0#000000001105
(1675219668.490870) can0 0B2#000000001105
(1675219668.490872) can0 223#0600000000000033
(1675219668.494015) can0 260#0E00000000000078
(1675219668.497191) can0 020#000007
(1675219668.497198) can0 0B4#0000000058000014
(1675219668.497207) can0 025#0FC30FC378787839
(1675219668.497530) can0 024#0203020361FF8016
(1675219668.499320) can0 2D0#06BA0900100000B3
(1675219668.499959) can0 2C4#0390001908802123
(1675219668.503265) can0 0B0#000000001106
(1675219668.503273) can0 0B2#000000001106
(1675219668.503276) can0 224#2000000000C00008
(1675219668.503278) can0 235#00000000003D
(1675219668.509194) can0 020#000007
(1675219668.509199) can0 0B4#0000000058000014
(1675219668.509683) can0 025#0FC30FC378787839
(1675219668.510437) can0 2C1#08011C0060C80018
(1675219668.510441) can0 024#0202020361FF8015
(1675219668.514136) can0 260#0E00000000000078
(1675219668.514791) can0 0B0#000000001107
(1675219668.514796) can0 0B2#000000001107
(1675219668.515365) can0 223#0600000000000033
(1675219668.521272) can0 020#000007
(1675219668.521278) can0 0B4#0000000058000014
(1675219668.521280) can0 024#0203020361FF8016
(1675219668.522488) can0 025#0FC30FC378787839
(1675219668.523429) can0 2C4#0390001908802123
(1675219668.527534) can0 0B0#000000001108
(1675219668.527539) can0 0B2#000000001108
(1675219668.527542) can0 224#2000000000C30008
(1675219668.527543) can0 235#00000000003D
(1675219668.530750) can0 2D0#06BD0900100000B6
(1675219668.533482) can0 020#000007
(1675219668.533489) can0 0B4#0000000058000014
(1675219668.533492) can0 025#0FC30FC378787839
(1675219668.533494) can0 024#0203020461FF8017
(1675219668.533709) can0 260#0E00000000000078
(1675219668.534659) can0 351#00000000
(1675219668.538983) can0 0B0#000000001109
(1675219668.538989) can0 0B2#000000001109
(1675219668.539500) can0 223#0600000000000033
(1675219668.540828) can0 2C1#08011B005DC80014
(1675219668.544880) can0 020#000007
(1675219668.544887) can0 0B4#0000000058000014
(1675219668.545647) can0 025#0FC30FC378787839
(1675219668.545652) can0 024#0203020361FF8016
(1675219668.547268) can0 2C4#038F001908802122
(1675219668.549062) can0 3A0#004E000000000023
(1675219668.551479) can0 0B0#00000000110A
(1675219668.551484) can0 0B2#00000000110A
(1675219668.551486) can0 224#2000000000C30008
(1675219668.552952) can0 235#00000000003D
(1675219668.554094) can0 260#0E00000000000078
(1675219668.557174) can0 020#000007
(1675219668.557179) can0 0B4#0000000058000014
(1675219668.557881) can0 025#0FC30FC382828257
(1675219668.557885) can0 024#0202020261FF7F13
(1675219668.559406) can0 440#4202000001000000
(1675219668.562507) can0 2D0#06C30900100000BC
(1675219668.563128) can0 0B0#00000000110B
(1675219668.563133) can0 0B2#00000000110B
(1675219668.563343) can0 223#0600000000000033
(1675219668.569130) can0 020#000007
(1675219668.569135) can0 0B4#0000000058000014
(1675219668.570069) can0 025#0FC30FC378787839
(1675219668.570074) can0 024#0203020362008018
(1675219668.570289) can0 2C4#038B00190880211E
(1675219668.572763) can0 2C1#080107005CC800FF
(1675219668.574019) can0 260#0E00000000000078
(1675219668.575430) can0 0B0#00000000110C
(1675219668.575435) can0 0B2#00000000110C
(1675219668.575438) can0 224#2000000000C50008
(1675219668.575441) can0 235#00000000003D
(1675219668.575636) can0 3B3#038B28
(1675219668.581702) can0 020#000007
(1675219668.581709) can0 0B4#0000000058000014
(1675219668.581712) can0 024#0203020361FF8016
(1675219668.582083) can0 025#0FC30FC378787839
(1675219668.587353) can0 0B0#00000000110D
(1675219668.587358) can0 0B2#00000000110D
(1675219668.587360) can0 223#0600000000000033
(1675219668.593175) can0 020#000007
(1675219668.593180) can0 0B4#0000000058000014
(1675219668.593827) can0 024#0203020461FF8017
(1675219668.593834) can0 025#0FC30FC378787839
(1675219668.594589) can0 260#0E00000000000078
(1675219668.594596) can0 2C4#038C00190880211F
(1675219668.594599) can0 2D0#06CA0900100000C3
(1675219668.594933) can0 351#00000000
(1675219668.599645) can0 0B0#00000000110E
(1675219668.599650) can0 0B2#00000000110E
(1675219668.600867) can0 224#2000000000C50008
(1675219668.600872) can0 235#00000000003D
(1675219668.604816) can0 2C1#080113005BC8000A
(1675219668.604823) can0 020#000007
(1675219668.605249) can0 0B4#0000000058000014
(1675219668.605816) can0 025#0FC30FC378787839
(1675219668.605820) can0 024#0203020361FF8016
(1675219668.611656) can0 0B0#00000000110F
(1675219668.611660) can0 0B2#00000000110F
(1675219668.611662) can0 223#0600000000000033
(1675219668.611991) can0 3B7#0000800000000000
(1675219668.612449) can0 394#00
(1675219668.613975) can0 260#0E00000000000078
(1675219668.617614) can0 020#000007
(1675219668.617619) can0 0B4#0000000058000014
(1675219668.617621) can0 2C4#0391001908802124
(1675219668.617623) can0 025#0FC30FC378787839
(1675219668.618270) can0 024#0203020362008018
(1675219668.623547) can0 0B0#000000001100
(1675219668.623552) can0 0B2#000000001100
(1675219668.623554) can0 224#2000000000C50008
(1675219668.624715) can0 235#00000000003D
(1675219668.625932) can0 2D0#06CE0900100000C7
(1675219668.629333) can0 3B4#0000AAB081000000
(1675219668.629340) can0 020#000007
(1675219668.629740) can0 0B4#0000000058000014
(1675219668.629744) can0 024#0202020362008017
(1675219668.630396) can0 025#0FC30FC378787839
(1675219668.634143) can0 260#0E00000000000078
(1675219668.635485) can0 0B0#000000001101
(1675219668.635489) can0 0B2#000000001101
(1675219668.635491) can0 223#0600000000000033
(1675219668.635922) can0 2C1#0801190062C80017
(1675219668.641874) can0 2C4#039700190880212A
(1675219668.641883) can0 020#000007
(1675219668.641887) can0 0B4#0000000058000014
(1675219668.641890) can0 025#0FC30FC378787839
(1675219668.642732) can0 024#0203020361FF8016
(1675219668.647524) can0 0B0#000000001102
(1675219668.647529) can0 0B2#000000001102
(1675219668.647806) can0 224#2000000000C50008
(1675219668.648760) can0 235#00000000003D
(1675219668.648764) can0 3A0#004E000000000023
(1675219668.651230) can0 442#4002000000000000
(1675219668.653844) can0 020#000007
(1675219668.653851) can0 0B4#0000000058000014
(1675219668.653856) can0 025#0FC30FC378787839
(1675219668.653859) can0 260#0E00000000000078
(1675219668.654338) can0 024#0202020361FF7F14
(1675219668.654648) can0 351#00000000
(1675219668.658103) can0 2D0#06D10900100000CA
(1675219668.659739) can0 0B0#000000001103
(1675219668.659744) can0 0B2#000000001103
(1675219668.659746) can0 223#0600000000000033
(1675219668.664929) can0 2C4#039D001908802130
(1675219668.665750) can0 020#000007
(1675219668.665814) can0 0B4#0000000058000014
(1675219668.665817) can0 025#0FC30FC378787839
(1675219668.666351) can0 024#0203020362008018
(1675219668.667889) can0 2C1#0801050063C80004
(1675219668.671728) can0 0B0#000000001104
(1675219668.671736) can0 0B2#000000001104
(1675219668.671739) can0 224#2000000000C80008
(1675219668.671741) can0 235#00000000003D
(1675219668.674242) can0 260#0E00000000000078
(1675219668.677719) can0 020#000007
(1675219668.677728) can0 0B4#0000000058000014
(1675219668.678477) can0 024#0203020362008018
(1675219668.678870) can0 025#0FC30FC378787839
(1675219668.678873) can0 4DC#1D00030200000000
(1675219668.683806) can0 0B0#000000001105
(1675219668.683811) can0 0B2#000000001105
(1675219668.683812) can0 223#0600000000000033
(1675219668.688760) can0 2C4#03A3001908802136
(1675219668.689341) can0 38C#0000000000000037
(1675219668.689346) can0 2D0#06D40900100000CD
(1675219668.689951) can0 020#000007
(1675219668.689956) can0 0B4#0000000058000014
(1675219668.689958) can0 025#0FC30FC378787839
(1675219668.691354) can0 024#0203020362008018
(1675219668.694128) can0 260#0E00000000000078
(1675219668.694736) can0 623#1900000000000000
(1675219668.695485) can0 0B0#000000001106
(1675219668.695490) can0 0B2#000000001106
(1675219668.696038) can0 224#2000000000C80008
(1675219668.696044) can0 235#00000000003D
(1675219668.699704) can0 2C1#080105005AC800FB
(1675219668.702106) can0 020#000007
(1675219668.702112) can0 0B4#0000000058000014
(1675219668.702115) can0 025#0FC30FC378787839
(1675219668.702400) can0 024#0202020462007F17
(1675219668.704879) can0 624#1A00414949400000
(1675219668.708171) can0 0B0#000000001107
(1675219668.708176) can0 0B2#000000001107
(1675219668.708178) can0 223#0600000000000033
(1675219668.712253) can0 2C4#03A3001908802136
(1675219668.713650) can0 020#000007
(1675219668.713655) can0 0B4#0000000058000014
(1675219668.714137) can0 025#0FC30FC378787839
(1675219668.714142) can0 260#0E00000000000078
(1675219668.714704) can0 024#0203020361FF8016
(1675219668.714709) can0 351#00000000
(1675219668.718989) can0 3B0#0000002A0000
(1675219668.719948) can0 0B0#000000001108
(1675219668.719955) can0 0B2#000000001108
(1675219668.719958) can0 224#2000000000C80008
(1675219668.719960) can0 235#00000000003D
(1675219668.721130) can0 2D0#06DE0900100000D7
(1675219668.726016) can0 020#000007
(1675219668.726021) can0 0B4#0000000058000014
(1675219668.726876) can0 025#0FC30FC378787839
(1675219668.726880) can0 024#0203020361FF8016
(1675219668.731779) can0 2C1#0801020057C800F5
(1675219668.731788) can0 0B0#000000001109
(1675219668.731790) can0 0B2#000000001109
(1675219668.732006) can0 223#0600000000000033
(1675219668.734037) can0 260#0E00000000000078
(1675219668.734657) can0 630#1700000000000000
(1675219668.735419) can0 2C4#03A2001908802135
(1675219668.738200) can0 020#000007
(1675219668.738207) can0 0B4#0000000058000014
(1675219668.738210) can0 024#0203020462008019
(1675219668.739845) can0 025#0FC30FC378787839
(1675219668.744110) can0 0B0#00000000110A
(1675219668.744117) can0 0B2#00000000110A
(1675219668.744121) can0 224#2000000000CB0008
(1675219668.744527) can0 235#00000000003D
(1675219668.749097) can0 3A0#004E000000000022
(1675219668.749604) can0 440#4202000001000000
(1675219668.749608) can0 620#1000024DF0402000
(1675219668.750335) can0 020#000007
(1675219668.750340) can0 0B4#0000000058000014
(1675219668.750343) can0 024#0202020462008018
(1675219668.750700) can0 025#0FC30FC382828257
(1675219668.753047) can0 2D0#06E90900100000E2
(1675219668.754236) can0 260#0E00000000000078
(1675219668.756125) can0 0B0#00000000110B
(1675219668.756132) can0 0B2#00000000110B
(1675219668.757372) can0 223#0600000000000033
(1675219668.759208) can0 2C4#03A1001908802134
(1675219668.762674) can0 020#000007
(1675219668.763089) can0 0B4#0000000058000014
(1675219668.763862) can0 025#0FC30FC36E6E6E1B
(1675219668.763866) can0 024#0202020461FF7F15
(1675219668.766088) can0 2C1#0801030053C800F2
(1675219668.768138) can0 0B0#00000000110C
(1675219668.768144) can0 0B2#00000000110C
(1675219668.768146) can0 224#2000000000CB0008
(1675219668.768310) can0 235#00000000003D
(1675219668.774293) can0 020#000007
(1675219668.774298) can0 0B4#0000000058000014
(1675219668.774300) can0 025#0FC30FC378787839
(1675219668.775172) can0 260#0E00000000000078
(1675219668.775176) can0 260#0E00000000000078
(1675219668.775178) can0 024#0203020462008019
(1675219668.776415) can0 351#00000000
(1675219668.778591) can0 380#200808000000FE00
(1675219668.779881) can0 0B0#00000000110D
(1675219668.779885) can0 0B2#00000000110D
(1675219668.780411) can0 223#0600000000000033
(1675219668.782688) can0 2C4#03A4001908802137
(1675219668.784612) can0 2D0#06F30900100000EC
(1675219668.785935) can0 020#000007
(1675219668.785940) can0 0B4#0000000058000014
(1675219668.786535) can0 024#0203020462008019
(1675219668.786540) can0 025#0FC30FC382828257
(1675219668.792319) can0 0B0#00000000110E
(1675219668.792327) can0 0B2#00000000110E
(1675219668.792330) can0 224#2000000000CB0008
(1675219668.793449) can0 235#00000000003D
(1675219668.793950) can0 260#0E00000000000078
(1675219668.794983) can0 2C1#0801070052C800F5
(1675219668.794987) can0 38A#0800040000
(1675219668.798420) can0 020#000007
(1675219668.798428) can0 0B4#0000000058000014
(1675219668.798431) can0 024#0202020361FF7F14
(1675219668.798698) can0 025#0FC30FC378787839
(1675219668.804304) can0 0B0#00000000110F
(1675219668.804310) can0 0B2#00000000110F
(1675219668.805836) can0 223#0600000000000033
(1675219668.805841) can0 2C4#03A900190880213C
(1675219668.808878) can0 3A1#0000000000FF0000
(1675219668.810167) can0 020#000007
(1675219668.810171) can0 0B4#0000000058000014
(1675219668.810758) can0 024#0202020361FF8015
(1675219668.810761) can0 025#0FC30FC378787839
(1675219668.814249) can0 260#0E00000000000078
(1675219668.816260) can0 0B0#000000001100
(1675219668.817026) can0 0B2#000000001100
(1675219668.817033) can0 224#2000000000CB0008
(1675219668.817405) can0 235#00000000003D
(1675219668.817409) can0 2D0#06F60900100000EF
(1675219668.822570) can0 020#000007
(1675219668.822577) can0 0B4#0000000058000014
(1675219668.822953) can0 025#0FC30FC378787839
(1675219668.824836) can0 024#0203020362008018
(1675219668.826564) can0 2C1#0800FE0052C700EA
(1675219668.828648) can0 0B0#000000001101
(1675219668.828652) can0 0B2#000000001101
(1675219668.828654) can0 223#0600000000000033
(1675219668.829614) can0 2C4#03AC00190880213F
(1675219668.834202) can0 260#0E00000000000078
(1675219668.834210) can0 020#000007
(1675219668.834214) can0 0B4#0000000058000014
(1675219668.835288) can0 025#0FC30FC378787839
(1675219668.835294) can0 351#00000000
(1675219668.835296) can0 024#0202020362008118
(1675219668.840867) can0 0B0#000000001102
(1675219668.840872) can0 0B2#000000001102
(1675219668.840874) can0 224#2000000000CB0008
(1675219668.841832) can0 235#00000000003D
(1675219668.841836) can0 442#4002000000000000
(1675219668.846572) can0 020#000007
(1675219668.846580) can0 0B4#0000000058000014
(1675219668.846582) can0 024#0203020362008018
(1675219668.847234) can0 025#0FC30FC378787839
(1675219668.847982) can0 2D0#06FD0900100000F6
(1675219668.848605) can0 3A0#004E000000000022
(1675219668.852411) can0 0B0#000000001103
(1675219668.852416) can0 0B2#000000001103
(1675219668.853155) can0 223#0600000000000033
(1675219668.853694) can0 2C4#03B1001908802144
(1675219668.853698) can0 260#0E00000000000078
(1675219668.858851) can0 020#000007
(1675219668.858861) can0 0B4#0000000058000014
(1675219668.858864) can0 2C1#0800F70050C700E1
(1675219668.858867) can0 025#0FC30FC378787839
(1675219668.860456) can0 024#0203020462008019
(1675219668.864518) can0 0B0#000000001104
(1675219668.864525) can0 0B2#000000001104
(1675219668.864528) can0 224#2000000000CB0008
(1675219668.864919) can0 235#00000000003D
(1675219668.870650) can0 020#000007
(1675219668.870658) can0 0B4#0000000058000014
(1675219668.871119) can0 025#0FC30FC378787839
(1675219668.871658) can0 024#0202020461FF8016
(1675219668.873746) can0 423#00
(1675219668.873751) can0 260#0E00000000000078
(1675219668.876508) can0 0B0#000000001105
(1675219668.876513) can0 0B2#000000001105
(1675219668.876862) can0 223#0600000000000033
(1675219668.877648) can0 2C4#03B0001908802143
(1675219668.879837) can0 2D0#07030900100000FD
(1675219668.881586) can0 610#20000064C0FFFEE0
(1675219668.882277) can0 020#000007
(1675219668.882282) can0 0B4#0000000058000014
(1675219668.882649) can0 025#0FC30FC378787839
(1675219668.883683) can0 024#0202020361FF8015
(1675219668.888791) can0 0B0#000000001106
(1675219668.888796) can0 0B2#000000001106
(1675219668.888798) can0 224#2000000000CD0008
(1675219668.888801) can0 235#00000000003D
(1675219668.890027) can0 2C1#0800F4004BC700D9
(1675219668.894314) can0 260#0E00000000000078
(1675219668.894321) can0 020#000007
(1675219668.894952) can0 0B4#0000000058000014
(1675219668.894958) can0 024#0202020362007F16
(1675219668.894961) can0 025#0FC30FC378787839
(1675219668.894964) can0 351#00000000
(1675219668.900747) can0 2C4#03B2001908802145
(1675219668.900752) can0 0B0#000000001107
(1675219668.900754) can0 0B2#000000001107
(1675219668.901369) can0 223#0600000000000033
(1675219668.907054) can0 020#000007
(1675219668.907059) can0 0B4#0000000058000014
(1675219668.907062) can0 025#0FC30FC378787839
(1675219668.908472) can0 024#0203020362008018
(1675219668.909017) can0 4C7#0800012100000000
(1675219668.911957) can0 2D0#070B090010000005
(1675219668.912792) can0 0B0#000000001108
(1675219668.912797) can0 0B2#000000001108
(1675219668.912800) can0 224#2000000000CF0008
(1675219668.912803) can0 235#00000000003D
(1675219668.913159) can0 394#00
(1675219668.913168) can0 3B7#0000800000000000
(1675219668.914187) can0 260#0E00000000000078
(1675219668.918856) can0 020#000007
(1675219668.918863) can0 0B4#0000000058000014
(1675219668.918866) can0 025#0FC30FC378787839
(1675219668.919316) can0 024#0203020361FF8016
(1675219668.921928) can0 2C1#0800F9004DC700E0
(1675219668.923847) can0 2C4#03AD001908802140
(1675219668.924661) can0 0B0#000000001109
(1675219668.924665) can0 0B2#000000001109
(1675219668.924667) can0 223#0600000000000033
(1675219668.930790) can0 020#000007
(1675219668.930796) can0 0B4#0000000058000014
(1675219668.931872) can0 025#0FC30FC378787839
(1675219668.931876) can0 024#0203020361FF8016
(1675219668.934148) can0 260#0E00000000000078
(1675219668.936940) can0 0B0#00000000110A
(1675219668.937009) can0 0B2#00000000110A
(1675219668.937017) can0 224#2000000000CF0008
(1675219668.938415) can0 235#00000000003D
(1675219668.941584) can0 440#4202000001000000
(1675219668.942446) can0 020#000007
(1675219668.942453) can0 0B4#0000000058000014
(1675219668.942888) can0 024#0203020362008018
(1675219668.942893) can0 025#0FC30FC378787839
(1675219668.943103) can0 2D0#071009001000000A
(1675219668.947466) can0 2C4#03B0001908802143
(1675219668.948756) can0 3A0#004E000000000022
(1675219668.948761) can0 0B0#00000000110B
(1675219668.948764) can0 0B2#00000000110B
(1675219668.948767) can0 223#0600000000000033
(1675219668.953506) can0 2C1#0800F60045C700D5
(1675219668.953875) can0 260#0E00000000000078
(1675219668.954613) can0 020#000007
(1675219668.954682) can0 0B4#0000000058000014
(1675219668.954697) can0 025#0FC30FC378787839
(1675219668.955063) can0 024#0202020362007F16
(1675219668.955066) can0 351#00000000
(1675219668.960718) can0 0B0#00000000110C
(1675219668.960723) can0 0B2#00000000110C
(1675219668.960726) can0 224#2000000000CF0008
(1675219668.961127) can0 235#00000000003D
(1675219668.967010) can0 020#000007
(1675219668.967339) can0 0B4#0000000058000014
(1675219668.968691) can0 025#0FC30FC378787839
(1675219668.968698) can0 024#0203020361FF8016
(1675219668.970960) can0 2C4#03B2001908802145
(1675219668.973089) can0 0B0#00000000110D
(1675219668.973094) can0 0B2#00000000110D
(1675219668.973424) can0 223#0600000000000033
(1675219668.973968) can0 260#0E00000000000078
(1675219668.975066) can0 2D0#071509001000000F
(1675219668.978922) can0 020#000007
(1675219668.978927) can0 0B4#0000000058000014
(1675219668.979695) can0 025#0FC30FC378787839
(1675219668.980192) can0 024#0203020461FF8017
(1675219668.984996) can0 0B0#00000000110E
(1675219668.985002) can0 0B2#00000000110E
(1675219668.985005) can0 224#2000000000CF0008
(1675219668.985552) can0 235#00000000003D
(1675219668.985556) can0 2C1#0800F70046C700D7
(1675219668.988372) can0 4C1#0100090000000000
(1675219668.991098) can0 020#000007
(1675219668.991104) can0 0B4#0000000058000014
(1675219668.991106) can0 025#0FC30FC378787839
(1675219668.991916) can0 024#0202020362007F16
(1675219668.994346) can0 260#0E00000000000078
(1675219668.994971) can0 2C4#03B6001908802149
(1675219668.994976) can0 3B1#0000002400000000
(1675219668.997015) can0 0B0#00000000110F
(1675219668.997020) can0 0B2#00000000110F
(1675219668.997022) can0 223#0600000000000033
(1675219669.002796) can0 020#000007
(1675219669.002859) can0 0B4#0000000058000014
(1675219669.002861) can0 025#0FC30FC378787839
(1675219669.003589) can0 024#0202020361FF8116
(1675219669.006936) can0 2D0#0717090010000011
(1675219669.009266) can0 0B0#000000001100
(1675219669.009277) can0 0B2#000000001100
(1675219669.009280) can0 224#2000000000CF0008
(1675219669.010635) can0 235#00000000003D
(1675219669.014322) can0 260#0E00000000000078
(1675219669.015250) can0 020#000007
(1675219669.015258) can0 0B4#0000000058000014
(1675219669.015262) can0 025#0FC30FC378787839
(1675219669.015265) can0 351#00000000
(1675219669.015445) can0 024#0203020361FF8016
(1675219669.017129) can0 2C1#0800E20040C700BC
(1675219669.017964) can0 2C4#03B900190880214C
(1675219669.021530) can0 0B0#000000001101
(1675219669.021537) can0 0B2#000000001101
(1675219669.021540) can0 223#0600000000000033
(1675219669.021542) can0 4C3#0300120100000000
(1675219669.027282) can0 020#000007
(1675219669.027292) can0 0B4#0000000058000014
(1675219669.027295) can0 025#0FC30FC378787839
(1675219669.027616) can0 024#0203020461FF8017
(1675219669.031305) can0 442#4002000000000000
(1675219669.033650) can0 0B0#000000001102
(1675219669.033659) can0 0B2#000000001102
(1675219669.033888) can0 224#2000000000CF0008
(1675219669.034438) can0 235#00000000003D
(1675219669.034441) can0 260#0E00000000000078
(1675219669.038951) can0 2D0#0718090010000012
(1675219669.039006) can0 020#000007
(1675219669.039913) can0 0B4#0000000058000014
(1675219669.039917) can0 025#0FC30FC382828257
(1675219669.039919) can0 024#0203020361FF8016
(1675219669.042188) can0 2C4#03BB00190880214E
(1675219669.045318) can0 0B0#000000001103
(1675219669.045323) can0 0B2#000000001103
(1675219669.046923) can0 223#0600000000000033
(1675219669.048515) can0 3A0#004E000000000022
(1675219669.048520) can0 2C1#0800DF0038C600B0
(1675219669.050170) can0 620#1000024DF0402000
(1675219669.051093) can0 020#000007
(1675219669.051097) can0 0B4#0000000058000014
(1675219669.051099) can0 024#0202020361FF8116
(1675219669.051853) can0 619#2300FFFEE0012480
(1675219669.051857) can0 025#0FC30FC378787839
(1675219669.054080) can0 260#0E00000000000078
(1675219669.057463) can0 0B0#000000001104
(1675219669.057471) can0 0B2#000000001104
(1675219669.057474) can0 224#2000000000CF0008
(1675219669.057476) can0 235#00000000003D
(1675219669.063166) can0 020#000007
(1675219669.063174) can0 0B4#0000000058000014
(1675219669.063722) can0 024#0202020362008017
(1675219669.063725) can0 025#0FC30FC378787839
(1675219669.065323) can0 2C4#03BD001908802150
(1675219669.069837) can0 0B0#000000001105
(1675219669.070243) can0 0B2#000000001105
(1675219669.070846) can0 223#0600000000000033
(1675219669.070849) can0 2D0#071D090010000017
(1675219669.073996) can0 260#0E00000000000078
(1675219669.075162) can0 351#00000000
(1675219669.075168) can0 020#000007
(1675219669.075170) can0 0B4#0000000058000014
(1675219669.075788) can0 025#0FC30FC378787839
(1675219669.075792) can0 024#0203020461FF8017
(1675219669.081277) can0 2C1#0800E40039C700B7
(1675219669.081284) can0 398#00F4
(1675219669.081287) can0 0B0#000000001106
(1675219669.081998) can0 0B2#000000001106
(1675219669.082001) can0 224#2000000000CF0008
(1675219669.082003) can0 235#00000000003D
(1675219669.087773) can0 020#000007
(1675219669.087779) can0 0B4#0000000058000014
(1675219669.087782) can0 3B3#03BF28
(1675219669.087783) can0 025#0FC30FC378787839
(1675219669.087950) can0 024#0203020361FF8016
(1675219669.088620) can0 2C4#03BF001908802152
(1675219669.093669) can0 0B0#000000001107
(1675219669.094179) can0 0B2#000000001107
(1675219669.094183) can0 223#0600000000000033
(1675219669.094185) can0 260#0E00000000000078
(1675219669.099704) can0 020#000007
(1675219669.099709) can0 0B4#0000000058000014
(1675219669.100818) can0 024#0203020362008018
(1675219669.100823) can0 025#0FC30FC378787839
(1675219669.102120) can0 2D0#072309001000001D
(1675219669.105704) can0 0B0#000000001108
(1675219669.105710) can0 0B2#000000001108
(1675219669.105712) can0 224#2000000000CF0008
(1675219669.107359) can0 235#00000000003D
(1675219669.111545) can0 020#000007
(1675219669.111551) can0 0B4#0000000058000014
(1675219669.111795) can0 024#0203020362008018
(1675219669.112521) can0 025#0FC30FC378787839
(1675219669.112527) can0 2C1#0800E30039C700B6
(1675219669.112529) can0 2C4#03C0001908802153
(1675219669.113928) can0 260#0E00000000000078
(1675219669.117502) can0 0B0#000000001109
(1675219669.117508) can0 0B2#000000001109
(1675219669.118873) can0 223#0600000000000033
(1675219669.123849) can0 020#000007
(1675219669.123857) can0 0B4#0000000058000014
(1675219669.123860) can0 025#0FC30FC378787839
(1675219669.124280) can0 024#0203020361FF8016
(1675219669.130127) can0 0B0#00000000110A
(1675219669.130132) can0 0B2#00000000110A
(1675219669.130134) can0 224#2000000000D10008
(1675219669.131701) can0 235#00000000003D
(1675219669.131706) can0 440#4202000001000000
(1675219669.134030) can0 2D0#072A090010000024
(1675219669.134036) can0 260#0E00000000000078
(1675219669.135267) can0 351#00000000
(1675219669.135316) can0 020#000007
(1675219669.135764) can0 0B4#0000000058000014
(1675219669.135769) can0 2C4#03C4001908802157
(1675219669.136095) can0 025#0FC30FC378787839
(1675219669.136737) can0 024#0203020461FF8017
(1675219669.141527) can0 0B0#00000000110B
(1675219669.141532) can0 0B2#00000000110B
(1675219669.141829) can0 223#0600000000000033
(1675219669.143913) can0 2C1#0800D40037C600A4
(1675219669.144922) can0 4DD#1E00000100000000
(1675219669.147460) can0 020#000007
(1675219669.147465) can0 0B4#0000000058000014
(1675219669.147930) can0 025#0FC30FC378787839
(1675219669.147934) can0 3A0#004E000000000022
(1675219669.148688) can0 024#0203020362008018
(1675219669.154098) can0 0B0#00000000110C
(1675219669.154104) can0 0B2#00000000110C
(1675219669.154338) can0 224#2000000000D20008
(1675219669.155213) can0 235#00000000003D
(1675219669.155218) can0 260#0E00000000000078
(1675219669.157029) can0 4C8#0900010200000000
(1675219669.159772) can0 2C4#03C0001908802153
(1675219669.159779) can0 020#000007
(1675219669.159787) can0 0B4#0000000058000014
(1675219669.159792) can0 024#0202020361FF8116
(1675219669.160160) can0 025#0FC30FC378787839
(1675219669.165884) can0 2D0#073109001000002B
(1675219669.165892) can0 0B0#00000000110D
(1675219669.165894) can0 0B2#00000000110D
(1675219669.165897) can0 223#0600000000000033
(1675219669.172159) can0 020#000007
(1675219669.172166) can0 0B4#0000000058000014
(1675219669.172170) can0 025#0FC30FC378787839
(1675219669.172543) can0 024#0203020361FF8016
(1675219669.173969) can0 260#0E00000000000078
(1675219669.176052) can0 2C1#0800D6003BC600AA
(1675219669.177893) can0 0B0#00000000110E
(1675219669.177900) can0 0B2#00000000110E
(1675219669.177902) can0 224#2000000000D20008
(1675219669.178233) can0 235#00000000003D
(1675219669.183632) can0 2C4#03C0001908802153
(1675219669.183641) can0 020#000007
(1675219669.183643) can0 0B4#0000000058000014
(1675219669.184451) can0 025#0FC30FC378787839
(1675219669.184455) can0 024#0203020461FF8017
(1675219669.189813) can0 0B0#00000000110F
(1675219669.189827) can0 0B2#00000000110F
(1675219669.190546) can0 223#0600000000000033
(1675219669.194329) can0 260#0E00000000000078
(1675219669.194974) can0 351#00000000
(1675219669.195494) can0 020#000007
(1675219669.195499) can0 0B4#0000000058000014
(1675219669.196106) can0 025#0FC30FC378787839
(1675219669.196691) can0 024#0203020461FF8017
(1675219669.197153) can0 2D0#073509001000002F
(1675219669.202064) can0 0B0#000000001100
(1675219669.202070) can0 0B2#000000001100
(1675219669.202072) can0 224#2000000000D20008
(1675219669.203206) can0 235#00000000003D
(1675219669.207009) can0 2C4#03B800190880214B
(1675219669.207864) can0 2C1#0800D40036C600A3
(1675219669.207870) can0 020#000007
(1675219669.207873) can0 0B4#0000000058000014
(1675219669.207876) can0 024#0203020361FF8016
(1675219669.208234) can0 025#0FC30FC378787839
(1675219669.213561) can0 394#00
(1675219669.213567) can0 0B0#000000001101
(1675219669.214134) can0 0B2#000000001101
(1675219669.214138) can0 223#0600000000000033
(1675219669.214572) can0 260#0E00000000000078
(1675219669.214577) can0 3B7#0000800000000000
(1675219669.220370) can0 020#000007
(1675219669.220377) can0 0B4#0000000058000014
(1675219669.220935) can0 025#0FC30FC378787839
(1675219669.221641) can0 024#0203020361FF8016
(1675219669.221645) can0 442#4002000000000000
(1675219669.226260) can0 0B0#000000001102
(1675219669.226269) can0 0B2#000000001102
(1675219669.226272) can0 224#2000000000D20008
(1675219669.226275) can0 235#00000000003D
(1675219669.229149) can0 2D0#0736090010000030
(1675219669.229944) can0 2C4#03B2001908802145
(1675219669.232019) can0 020#000007
(1675219669.232120) can0 0B4#0000000058000014
(1675219669.232495) can0 025#0FC30FC378787839
(1675219669.233500) can0 024#0203020462008019
(1675219669.234030) can0 260#0E00000000000078
(1675219669.238059) can0 0B0#000000001103
(1675219669.238065) can0 0B2#000000001103
(1675219669.238067) can0 223#0600000000000033
(1675219669.239260) can0 2C1#0800DF002FC600A7
(1675219669.244080) can0 020#000007
(1675219669.244085) can0 0B4#0000000058000014
(1675219669.244835) can0 025#0FC30FC378787839
(1675219669.245573) can0 024#0203020361FF8016
(1675219669.248085) can0 3A0#004E000000000022
(1675219669.250419) can0 0B0#000000001104
(1675219669.250424) can0 0B2#000000001104
(1675219669.251283) can0 224#2000000000D40008
(1675219669.251287) can0 235#00000000003D
(1675219669.253535) can0 2C4#03B4001908802147
(1675219669.254081) can0 260#0E00000000000078
(1675219669.254826) can0 351#00000000
(1675219669.256213) can0 020#000007
(1675219669.256217) can0 0B4#0000000058000014
(1675219669.256220) can0 025#0FC30FC378787839
(1675219669.257384) can0 024#0203020362008018
(1675219669.259935) can0 621#1100000000000000
(1675219669.260679) can0 2D0#073109001000002B
(1675219669.262408) can0 0B0#000000001105
(1675219669.262413) can0 0B2#000000001105
(1675219669.262415) can0 223#0600000000000033
(1675219669.268210) can0 020#000007
(1675219669.268215) can0 0B4#0000000058000014
(1675219669.268217) can0 024#0203020462008019
(1675219669.268767) can0 025#0FC30FC382828257
(1675219669.271405) can0 2C1#0800DF002BC600A3
(1675219669.274475) can0 0B0#000000001106
(1675219669.274488) can0 0B2#000000001106
(1675219669.274492) can0 224#2000000000D50008
(1675219669.274494) can0 235#00000000003D
(1675219669.274919) can0 260#0E00000000000078
(1675219669.277398) can0 2C4#03B1001908802144
(1675219669.280244) can0 020#000007
(1675219669.280714) can0 0B4#0000000058000014
(1675219669.280719) can0 024#0203020461FF8017
(1675219669.281890) can0 025#0FC30FC378787839
(1675219669.286438) can0 0B0#000000001107
(1675219669.286443) can0 0B2#000000001107
(1675219669.287471) can0 223#0600000000000033
(1675219669.292722) can0 020#000007
(1675219669.292728) can0 0B4#0000000058000014
(1675219669.292731) can0 2D0#0728090010000022
(1675219669.292733) can0 025#0FC30FC378787839
(1675219669.294522) can0 024#0203020461FF8017
(1675219669.294529) can0 260#0E00000000000078
(1675219669.298813) can0 0B0#000000001108
(1675219669.298818) can0 0B2#000000001108
(1675219669.299742) can0 224#2000000000D50008
(1675219669.299745) can0 235#00000000003D
(1675219669.300591) can0 2C4#03B5001908802148
(1675219669.303143) can0 2C1#0800DB002FC600A3
(1675219669.304547) can0 020#000007
(1675219669.304554) can0 0B4#0000000058000014
(1675219669.304938) can0 025#0FC30FC378787839
(1675219669.304941) can0 024#0203020362008018
(1675219669.310450) can0 0B0#000000001109
(1675219669.310455) can0 0B2#000000001109
(1675219669.311566) can0 223#0600000000000033
(1675219669.311573) can0 4C6#0700010000000000
(1675219669.314352) can0 260#0E00000000000078
(1675219669.314908) can0 351#00000000
(1675219669.316195) can0 020#000007
(1675219669.316200) can0 0B4#0000000058000014
(1675219669.316644) can0 024#0203020362008018
(1675219669.316649) can0 025#0FC30FC378787839
(1675219669.320182) can0 440#4202000001000000
(1675219669.322496) can0 0B0#00000000110A
(1675219669.322501) can0 0B2#00000000110A
(1675219669.322503) can0 224#2000000000D50008
(1675219669.322727) can0 235#00000000003D
(1675219669.324311) can0 2D0#072209001000001C
(1675219669.324315) can0 2C4#03B800190880214B
(1675219669.328578) can0 020#000007
(1675219669.328585) can0 0B4#0000000058000014
(1675219669.328589) can0 024#0203020361FF8016
(1675219669.328921) can0 025#0FC30FC378787839
(1675219669.334479) can0 260#0E00000000000078
(1675219669.334488) can0 0B0#00000000110B
(1675219669.334847) can0 0B2#00000000110B
(1675219669.335615) can0 223#0600000000000033
(1675219669.335619) can0 2C1#0800D80032C600A3
(1675219669.340338) can0 020#000007
(1675219669.340347) can0 0B4#0000000058000014
(1675219669.340921) can0 025#0FC30FC378787839
(1675219669.340975) can0 024#0203020461FF8017
(1675219669.346670) can0 0B0#00000000110C
(1675219669.346677) can0 0B2#00000000110C
(1675219669.347045) can0 224#2000000000D50008
(1675219669.348179) can0 235#00000000003D
(1675219669.348183) can0 2C4#03BC00190880214F
(1675219669.348185) can0 3A0#004E000000000022
(1675219669.349940) can0 620#1000024DF0402000
(1675219669.351407) can0 611#210010A00002821C
(1675219669.352660) can0 020#000007
(1675219669.352665) can0 0B4#0000000058000014
(1675219669.353031) can0 025#0FC30FC378787839
(1675219669.353362) can0 024#0203020461FF8017
(1675219669.354116) can0 260#0E00000000000078
(1675219669.355964) can0 2D0#071A090010000014
(1675219669.358590) can0 0B0#00000000110D
(1675219669.358595) can0 0B2#00000000110D
(1675219669.360299) can0 223#0600000000000033
(1675219669.364901) can0 020#000007
(1675219669.364909) can0 0B4#0000000058000014
(1675219669.364913) can0 024#0203020361FF8016
(1675219669.364916) can0 025#0FC30FC378787839
(1675219669.366280) can0 2C1#0800D2002EC60099
(1675219669.369676) can0 622#1200E83000000000
(1675219669.370571) can0 0B0#00000000110E
(1675219669.370576) can0 0B2#00000000110E
(1675219669.370579) can0 224#2000000000D50008
(1675219669.371044) can0 235#00000000003D
(1675219669.371048) can0 2C4#03BE001908802151
(1675219669.374420) can0 260#0E00000000000078
(1675219669.375021) can0 351#00000000
(1675219669.376836) can0 020#000007
(1675219669.376842) can0 0B4#0000000058000014
(1675219669.376845) can0 025#0FC30FC378787839
(1675219669.376847) can0 024#0203020261FF8015
(1675219669.381521) can0 610#20000064C0FFFEE0
(1675219669.382692) can0 0B0#00000000110F
(1675219669.382696) can0 0B2#00000000110F
(1675219669.382698) can0 223#0600000000000033
(1675219669.384970) can0 638#13001F0000000000
(1675219669.388226) can0 2D0#0716090010000010
(1675219669.388236) can0 020#000007
(1675219669.388465) can0 0B4#0000000058000014
(1675219669.389276) can0 025#0FC30FC378787839
(1675219669.389283) can0 024#0203020362008018
(1675219669.394334) can0 260#0E00000000000078
(1675219669.394339) can0 0B0#000000001100
(1675219669.394680) can0 0B2#000000001100
(1675219669.394683) can0 224#2000000000D50008
(1675219669.395011) can0 235#00000000003D
(1675219669.395365) can0 2C4#03BB00190880214E
(1675219669.398535) can0 2C1#0800CD0026C6008C
(1675219669.400641) can0 020#000007
(1675219669.400646) can0 0B4#0000000058000014
(1675219669.401479) can0 025#0FC30FC378787839
(1675219669.402113) can0 024#0203020361FF8016
(1675219669.406475) can0 0B0#000000001101
(1675219669.406482) can0 0B2#000000001101
(1675219669.406967) can0 223#0600000000000033
(1675219669.410888) can0 442#4002000000000000
(1675219669.412735) can0 020#000007
(1675219669.412742) can0 0B4#0000000058000014
(1675219669.412745) can0 025#0FC30FC378787839
(1675219669.413945) can0 024#0203020361FF8016
(1675219669.413949) can0 260#0E00000000000078
(1675219669.418903) can0 2C4#03BB00190880214E
(1675219669.418910) can0 0B0#000000001102
(1675219669.418914) can0 0B2#000000001102
(1675219669.419251) can0 224#2000000000D50008
(1675219669.419254) can0 235#00000000003D
(1675219669.420015) can0 2D0#0717090010000011
(1675219669.425023) can0 020#000007
(1675219669.425030) can0 0B4#0000000058000014
(1675219669.425033) can0 025#0FC30FC378787839
(1675219669.425931) can0 024#0203020362008018
(1675219669.430534) can0 2C1#0800C30020C6007C
(1675219669.430540) can0 0B0#000000001103
(1675219669.430542) can0 0B2#000000001103
(1675219669.430793) can0 223#0600000000000033
(1675219669.434176) can0 260#0E00000000000078
(1675219669.435075) can0 351#00000000
(1675219669.437003) can0 020#000007
(1675219669.437009) can0 0B4#0000000058000014
(1675219669.437011) can0 025#0FC30FC378787839
(1675219669.437449) can0 024#0203020462008019
(1675219669.442083) can0 2C4#03BB00190880214E
(1675219669.442780) can0 0B0#000000001104
(1675219669.442784) can0 0B2#000000001104
(1675219669.443397) can0 224#2000000000D50008
(1675219669.443401) can0 235#00000000003D
(1675219669.447918) can0 3A0#004E000000000022
(1675219669.449007) can0 020#000007
(1675219669.449011) can0 0B4#0000000058000014
(1675219669.449013) can0 025#0FC30FC378787839
(1675219669.449397) can0 024#0203020361FF8016
(1675219669.451226) can0 2D0#071B090010000015
(1675219669.454673) can0 260#0E00000000000078
(1675219669.454744) can0 0B0#000000001105
(1675219669.455107) can0 0B2#000000001105
(1675219669.455112) can0 223#0600000000000033
(1675219669.461108) can0 020#000007
(1675219669.461115) can0 0B4#0000000058000014
(1675219669.461795) can0 025#0FC30FC378787839
(1675219669.461801) can0 2C1#0800C60020C6007F
(1675219669.462279) can0 024#0203020461FF8017
(1675219669.465957) can0 2C4#03BD001908802150
(1675219669.467321) can0 0B0#000000001106
(1675219669.467325) can0 0B2#000000001106
(1675219669.467327) can0 224#2000000000D50008
(1675219669.467330) can0 235#00000000003D
(1675219669.473296) can0 020#000007
(1675219669.473343) can0 0B4#0000000058000014
(1675219669.474209) can0 025#0FC30FC378787839
(1675219669.474213) can0 260#0E00000000000078
(1675219669.474215) can0 024#0203020362008018
(1675219669.479189) can0 0B0#000000001107
(1675219669.479194) can0 0B2#000000001107
(1675219669.480882) can0 223#0600000000000033
(1675219669.483049) can0 2D0#072009001000001A
(1675219669.485214) can0 020#000007
(1675219669.485220) can0 0B4#0000000058000014
(1675219669.485222) can0 024#0203020361FF8016
(1675219669.485747) can0 025#0FC30FC382828257
(1675219669.489213) can0 2C4#03BB00190880214E
(1675219669.491407) can0 0B0#000000001108
(1675219669.491412) can0 0B2#000000001108
(1675219669.491414) can0 224#2000000000D50008
(1675219669.491416) can0 235#00000000003D
(1675219669.493322) can0 2C1#0800C90023C60085
(1675219669.494237) can0 260#0E00000000000078
(1675219669.494952) can0 351#00000000
(1675219669.497332) can0 020#000007
(1675219669.497340) can0 0B4#0000000058000014
(1675219669.497732) can0 024#0203020361FF8016
(1675219669.497735) can0 025#0FC30FC378787839
(1675219669.503242) can0 0B0#000000001109
(1675219669.503247) can0 0B2#000000001109
(1675219669.504776) can0 223#0600000000000033
(1675219669.509726) can0 020#000007
(1675219669.509731) can0 0B4#0000000058000014
(1675219669.509733) can0 440#4202000001000000
(1675219669.509736) can0 025#0FC30FC378787839
(1675219669.509947) can0 024#0203020461FF8017
(1675219669.512918) can0 2C4#03BB00190880214E
(1675219669.513975) can0 394#00
(1675219669.513981) can0 260#0E00000000000078
(1675219669.514847) can0 2D0#072509001000001F
(1675219669.514853) can0 0B0#00000000110A
(1675219669.515347) can0 0B2#00000000110A
(1675219669.515849) can0 224#2000000000D50008
(1675219669.515853) can0 235#00000000003D
(1675219669.517092) can0 3B7#0000800000000000
(1675219669.521304) can0 020#000007
(1675219669.521765) can0 0B4#0000000058000014
(1675219669.522279) can0 025#0FC30FC378787839
(1675219669.522284) can0 024#0203020461FF8017
(1675219669.525357) can0 2C1#0800C5001DC6007B
(1675219669.527314) can0 0B0#00000000110B
(1675219669.527319) can0 0B2#00000000110B
(1675219669.527321) can0 223#0600000000000033
(1675219669.533819) can0 020#000007
(1675219669.533824) can0 0B4#0000000058000014
(1675219669.533826) can0 024#0203020361FF8016
(1675219669.533828) can0 025#0FC30FC378787839
(1675219669.533830) can0 260#0E00000000000078
(1675219669.536497) can0 2C4#03BB00190880214E
(1675219669.539333) can0 0B0#00000000110C
(1675219669.539338) can0 0B2#00000000110C
(1675219669.539527) can0 224#2000000000D50008
(1675219669.540731) can0 235#00000000003D
(1675219669.545366) can0 020#000007
(1675219669.545375) can0 0B4#0000000058000014
(1675219669.546340) can0 024#0203020362008018
(1675219669.546344) can0 025#0FC30FC378787839
(1675219669.546702) can0 2D0#0727090010000021
(1675219669.547752) can0 3A0#004E000000000022
(1675219669.551347) can0 0B0#00000000110D
(1675219669.551354) can0 0B2#00000000110D
(1675219669.553055) can0 223#0600000000000033
(1675219669.554328) can0 260#0E00000000000078
(1675219669.554922) can0 351#00000000
(1675219669.556669) can0 2C1#0800C7001CC6007C
(1675219669.557144) can0 020#000007
(1675219669.557147) can0 0B4#0000000058000014
(1675219669.558126) can0 025#0FC30FC378787839
(1675219669.558131) can0 024#0203020361FF8016
(1675219669.559870) can0 2C4#03BA00190880214D
(1675219669.563388) can0 0B0#00000000110E
(1675219669.563396) can0 0B2#00000000110E
(1675219669.563399) can0 224#2000000000D50008
(1675219669.563857) can0 235#00000000003D
(1675219669.569581) can0 020#000007
(1675219669.569587) can0 0B4#0000000058000014
(1675219669.569590) can0 025#0FC30FC378787839
(1675219669.570363) can0 024#0203020361FF8016
(1675219669.570942) can0 3B4#0000AAB001000000
(1675219669.574258) can0 260#0E00000000000078
(1675219669.575423) can0 0B0#00000000110F
(1675219669.575428) can0 0B2#00000000110F
(1675219669.575430) can0 223#0600000000000033
(1675219669.578211) can0 2D0#0728080010000021
(1675219669.581553) can0 020#000007
(1675219669.581558) can0 0B4#0000000058000014
(1675219669.581938) can0 024#0203020362008018
(1675219669.582606) can0 025#0FC30FC378787839
(1675219669.583212) can0 2C4#03BB00190880214E
(1675219669.587627) can0 0B0#000000001100
(1675219669.587632) can0 0B2#000000001100
(1675219669.587635) can0 224#2000000000D60008
(1675219669.588142) can0 235#00000000003D
(1675219669.588147) can0 2C1#0800BD0018C5006D
(1675219669.593641) can0 020#000007
(1675219669.593650) can0 0B4#0000000058000014
(1675219669.593654) can0 025#0FC30FC378787839
(1675219669.593896) can0 024#0203020362018019
(1675219669.594333) can0 260#0E00000000000078
(1675219669.599479) can0 0B0#000000001101
(1675219669.599487) can0 0B2#000000001101
(1675219669.599848) can0 223#0600000000000033
(1675219669.599853) can0 3B3#03BB28
(1675219669.601117) can0 442#4002000000000000
(1675219669.604034) can0 3B4#0000AAB041000000
(1675219669.605635) can0 020#000007
(1675219669.605641) can0 0B4#0000000058000014
(1675219669.605643) can0 025#0FC30FC378787839
(1675219669.606177) can0 024#020301FF62048017
(1675219669.606790) can0 2C4#03BC00190880214F
(1675219669.610193) can0 2D0#072702001000001A
(1675219669.610201) can0 621#1180720000000000
(1675219669.611617) can0 0B0#000000001102
(1675219669.611621) can0 0B2#000000001102
(1675219669.611624) can0 224#2000000000D90008
(1675219669.612014) can0 235#00000000003D
(1675219669.614426) can0 260#0E00000000000078
(1675219669.615047) can0 351#00000000
(1675219669.617784) can0 020#000007
(1675219669.617791) can0 0B4#0000000058000014
(1675219669.617795) can0 025#0FC30FC378787839
(1675219669.618500) can0 024#0203020162038019
(1675219669.620513) can0 2C1#0800BA0016C50068
(1675219669.623522) can0 0B0#000000001103
(1675219669.623530) can0 0B2#000000001103
(1675219669.623975) can0 223#0600000000000033
(1675219669.624928) can0 638#13801E0000000000
(1675219669.629606) can0 020#000007
(1675219669.629612) can0 0B4#0000000058000014
(1675219669.630024) can0 024#0203020362018019
(1675219669.630030) can0 025#0FC30FC378787839
(1675219669.630371) can0 2C4#03BB00190880214E
(1675219669.634367) can0 260#0E00000000000078
(1675219669.635748) can0 0B0#000000001104
(1675219669.635754) can0 0B2#000000001104
(1675219669.635757) can0 224#2000000000D70008
(1675219669.636137) can0 235#00000000003D
(1675219669.642014) can0 020#000007
(1675219669.642022) can0 0B4#0000000058000014
(1675219669.642025) can0 025#0FC30FC378787839
(1675219669.642028) can0 024#0203020461FE8016
(1675219669.642502) can0 2D0#072902001000001C
(1675219669.647945) can0 0B0#000000001105
(1675219669.647954) can0 0B2#000000001105
(1675219669.647957) can0 223#0600000000000033
(1675219669.649696) can0 3A0#004E000000000022
(1675219669.649700) can0 620#1000024DF0402000
(1675219669.651997) can0 2C1#0800AD0007C5004C
(1675219669.653715) can0 020#000007
(1675219669.653722) can0 0B4#0000000058000014
(1675219669.654261) can0 025#0FC30FC378787839
(1675219669.654266) can0 260#0E00000000000078
(1675219669.654276) can0 024#0203020362008018
(1675219669.654765) can0 2C4#03BC00190880214F
(1675219669.660013) can0 0B0#000000001106
(1675219669.660021) can0 0B2#000000001106
(1675219669.660024) can0 224#2000000000D70008
(1675219669.661583) can0 235#00000000003D
(1675219669.666193) can0 020#000007
(1675219669.666204) can0 0B4#0000000058000014
(1675219669.666208) can0 025#0FC30FC378787839
(1675219669.666756) can0 024#0203020262018018
(1675219669.669674) can0 3B4#0000AAB021000000
(1675219669.672028) can0 0B0#000000001107
(1675219669.672036) can0 0B2#000000001107
(1675219669.672041) can0 223#0600000000000033
(1675219669.673379) can0 2D0#072B0C0010000028
(1675219669.674312) can0 260#0E00000000000078
(1675219669.675007) can0 351#00000000
(1675219669.678262) can0 2C4#03B700190880214A
(1675219669.679274) can0 4DC#1D00030200000000
(1675219669.679279) can0 020#000007
(1675219669.679281) can0 0B4#0000000058000014
