(1675219110.949872) can0 260#0F00000000000079
(1675219110.951832) can0 020#000007
(1675219110.951873) can0 0B4#00000000E000009C
(1675219110.952394) can0 024#020201FE62058016
(1675219110.954280) can0 025#00110FC35A5A783C
(1675219110.958211) can0 0B0#00000000110A
(1675219110.958218) can0 0B2#00000000110A
(1675219110.958222) can0 224#2000000000680008
(1675219110.959479) can0 235#00000000003D
(1675219110.961686) can0 2D0#00001000100000FA
(1675219110.963184) can0 3A0#2D4E000000000021
(1675219110.963766) can0 020#000007
(1675219110.963771) can0 0B4#00000000E000009C
(1675219110.964501) can0 025#00110FC378787878
(1675219110.964508) can0 024#020201FF62057F16
(1675219110.965052) can0 620#1000025DF0402000
(1675219110.967304) can0 4C1#0100090000000000
(1675219110.968009) can0 2C4#0399001A0880212D
(1675219110.969971) can0 0B0#00000000110B
(1675219110.970240) can0 0B2#00000000110B
(1675219110.970607) can0 223#0500000000000032
(1675219110.970610) can0 260#0F00000000000079
(1675219110.971026) can0 351#00000000
(1675219110.972179) can0 2C1#08021702B7D00075
(1675219110.975624) can0 020#000007
(1675219110.975860) can0 0B4#00000000E000009C
(1675219110.976399) can0 025#00110FC378787878
(1675219110.976799) can0 024#020201FE62058016
(1675219110.981968) can0 0B0#00000000110C
(1675219110.981970) can0 0B2#00000000110C
(1675219110.982611) can0 224#2000000000680008
(1675219110.982619) can0 235#00000000003D
(1675219110.982976) can0 3B7#0000800000000000
(1675219110.988226) can0 020#000007
(1675219110.988231) can0 0B4#00000000E000009C
(1675219110.988704) can0 024#020201FE62058016
(1675219110.989896) can0 025#00110FC378787878
(1675219110.989901) can0 260#0F00000000000079
(1675219110.991347) can0 2C4#039D001A08802131
(1675219110.993557) can0 2D0#00001000100000FA
(1675219110.994044) can0 0B0#00000000110D
(1675219110.994099) can0 0B2#00000000110D
(1675219110.994895) can0 223#0500000000000032
(1675219110.999935) can0 020#000007
(1675219110.999940) can0 0B4#00000000E000009C
(1675219111.000792) can0 024#020201FE62058016
(1675219111.000798) can0 025#00110FC378787878
(1675219111.003774) can0 2C1#0800A302D5C50012
(1675219111.005043) can0 611#210010A00002821A
(1675219111.006401) can0 0B0#00000000110E
(1675219111.006404) can0 0B2#00000000110E
(1675219111.006407) can0 224#2000000000680008
(1675219111.007809) can0 235#00000000003D
(1675219111.010163) can0 260#0F00000000000079
(1675219111.010171) can0 440#4202000001000000
(1675219111.012056) can0 020#000007
(1675219111.012061) can0 0B4#00000000E000009C
(1675219111.012581) can0 025#00110FC378787878
(1675219111.012589) can0 024#020201FE62058016
(1675219111.015191) can0 2C4#03A2001A08802136
(1675219111.018630) can0 0B0#00000000110F
(1675219111.018632) can0 0B2#00000000110F
(1675219111.020588) can0 223#0500000000000032
(1675219111.022179) can0 3B3#03A128
(1675219111.024161) can0 020#000007
(1675219111.024167) can0 0B4#00000000E000009C
(1675219111.024457) can0 025#00110FC378787878
(1675219111.025132) can0 024#020201FF62048016
(1675219111.025137) can0 2D0#00001000100000FA
(1675219111.030354) can0 260#0F00000000000079
(1675219111.030363) can0 0B0#000000001100
(1675219111.030527) can0 0B2#000000001100
(1675219111.030865) can0 224#2000000000680008
(1675219111.030868) can0 235#00000000003D
(1675219111.031101) can0 351#00000000
(1675219111.036038) can0 2C1#0800CF02DFC60049
(1675219111.036045) can0 020#000007
(1675219111.036232) can0 0B4#00000000E000009C
(1675219111.037090) can0 025#00110FC378787878
(1675219111.037094) can0 024#020201FE62058016
(1675219111.038611) can0 2C4#03A4001A08802138
(1675219111.042650) can0 0B0#000000001101
(1675219111.042655) can0 0B2#000000001101
(1675219111.044414) can0 223#0500000000000032
(1675219111.048701) can0 020#000007
(1675219111.048707) can0 0B4#00000000E000009C
(1675219111.048710) can0 024#020201FE62068017
(1675219111.049148) can0 025#00110FC378787878
(1675219111.049151) can0 260#0F00000000000079
(1675219111.050078) can0 394#00
(1675219111.054379) can0 0B0#000000001102
(1675219111.054384) can0 0B2#000000001102
(1675219111.054986) can0 224#2000000000680008
(1675219111.055662) can0 235#00000000003D
(1675219111.057458) can0 2D0#00001000100000FA
(1675219111.060438) can0 020#000007
(1675219111.060443) can0 0B4#00000000E000009C
(1675219111.060800) can0 025#00110FC378787878
(1675219111.061535) can0 024#020201FE62058016
(1675219111.062873) can0 2C4#03AC001A08802140
(1675219111.063146) can0 3A0#214E000000000021
(1675219111.066693) can0 0B0#000000001103
(1675219111.066698) can0 0B2#000000001103
(1675219111.067321) can0 223#0500000000000032
(1675219111.068894) can0 2C1#08010302F7C80098
(1675219111.070245) can0 260#0F00000000000079
(1675219111.072692) can0 020#000007
(1675219111.072741) can0 0B4#00000000E000009C
(1675219111.072745) can0 025#00120FC30A0A789D
(1675219111.072930) can0 024#020201FE62048015
(1675219111.078678) can0 0B0#000000001104
(1675219111.078683) can0 0B2#000000001104
(1675219111.078687) can0 224#2000000000680008
(1675219111.078969) can0 235#00000000003D
(1675219111.084495) can0 020#000007
(1675219111.084501) can0 0B4#00000000E000009C
(1675219111.085203) can0 025#00120FC378787879
(1675219111.085207) can0 024#020201FE62068017
(1675219111.085657) can0 2C4#03AB001A0880213F
(1675219111.089088) can0 2D0#00001000100000FA
(1675219111.090296) can0 260#0F00000000000079
(1675219111.090301) can0 351#00000000
(1675219111.090304) can0 0B0#000000001105
(1675219111.090690) can0 0B2#000000001105
(1675219111.090817) can0 223#0500000000000032
(1675219111.096471) can0 020#000007
(1675219111.096477) can0 0B4#00000000E000009C
(1675219111.096726) can0 024#020201FE62068118
(1675219111.097095) can0 025#00120FC378787879
(1675219111.099130) can0 2C1#08011802F3C800A9
(1675219111.102679) can0 0B0#000000001106
(1675219111.102686) can0 0B2#000000001106
(1675219111.102973) can0 224#2000000000680008
(1675219111.104375) can0 235#00000000003D
(1675219111.104792) can0 442#4002000000000000
(1675219111.108546) can0 020#000007
(1675219111.108554) can0 0B4#00000000E000009C
(1675219111.108900) can0 025#00120FC378787879
(1675219111.109208) can0 024#020201FE62058117
(1675219111.109996) can0 2C4#03B0001A08802144
(1675219111.110000) can0 260#0F00000000000079
(1675219111.114912) can0 0B0#000000001107
(1675219111.114917) can0 0B2#000000001107
(1675219111.116248) can0 223#0500000000000032
(1675219111.121334) can0 2D0#00001000100000FA
(1675219111.121342) can0 020#000007
(1675219111.121345) can0 0B4#00000000E000009C
(1675219111.121503) can0 024#020301FF62058018
(1675219111.122083) can0 025#00120FC382828297
(1675219111.127169) can0 0B0#000000001108
(1675219111.127172) can0 0B2#000000001108
(1675219111.127176) can0 224#2000000000680008
(1675219111.128691) can0 235#00000000003D
(1675219111.130934) can0 260#0F00000000000079
(1675219111.132964) can0 2C1#08014102D2CA00B3
(1675219111.132972) can0 020#000007
(1675219111.132976) can0 0B4#00000000E000009C
(1675219111.133640) can0 025#00130FC332326EE4
(1675219111.133646) can0 2C4#03AD001A08802141
(1675219111.135801) can0 024#020201FF62058017
(1675219111.139013) can0 0B0#000000001109
(1675219111.139020) can0 0B2#000000001109
(1675219111.140333) can0 223#0500000000000032
(1675219111.144981) can0 020#000007
(1675219111.144993) can0 0B4#00000000E000009C
(1675219111.145853) can0 025#00130FC382828298
(1675219111.145859) can0 024#020201FE62057F15
(1675219111.150268) can0 260#0F00000000000079
(1675219111.150273) can0 351#00000000
(1675219111.150884) can0 0B0#00000000110A
(1675219111.150889) can0 0B2#00000000110A
(1675219111.151195) can0 224#2000000000680008
(1675219111.151198) can0 235#00000000003D
(1675219111.152385) can0 2D0#00001000100000FA
(1675219111.153074) can0 4C7#0800012100000000
(1675219111.156996) can0 2C4#03AA001A0880213E
(1675219111.157006) can0 020#000007
(1675219111.157010) can0 0B4#00000000E000009C
(1675219111.157492) can0 024#020201FE62058016
(1675219111.157967) can0 025#00130FC37878787A
(1675219111.162589) can0 2C1#08014E02A5CA0093
(1675219111.162593) can0 0B0#00000000110B
(1675219111.162985) can0 0B2#00000000110B
(1675219111.163380) can0 223#0500000000000032
(1675219111.164990) can0 3A0#054E000000000021
(1675219111.168813) can0 020#000007
(1675219111.169205) can0 0B4#00000000E000009C
(1675219111.169211) can0 260#0F00000000000079
(1675219111.169736) can0 024#020201FE62058016
(1675219111.169742) can0 025#00130FC37878787A
(1675219111.171027) can0 3B4#0000AAB001400000
(1675219111.175140) can0 0B0#00000000110C
(1675219111.175148) can0 0B2#00000000110C
(1675219111.175153) can0 224#2000000000680008
(1675219111.175157) can0 235#00000000003D
(1675219111.179988) can0 2C4#03A8001A0880213C
(1675219111.180853) can0 020#000007
(1675219111.180856) can0 0B4#00000000E000009C
(1675219111.181571) can0 025#00140FC30A0A789F
(1675219111.182167) can0 024#020201FE62057F15
(1675219111.184364) can0 2D0#00001000100000FA
(1675219111.187276) can0 0B0#00000000110D
(1675219111.187282) can0 0B2#00000000110D
(1675219111.188684) can0 223#0500000000000032
(1675219111.190222) can0 260#0F00000000000079
(1675219111.193062) can0 020#000007
(1675219111.193070) can0 0B4#00000000E000009C
(1675219111.193074) can0 4DC#1D00030200000000
(1675219111.193412) can0 025#00140FC37878787B
(1675219111.194278) can0 024#020301FE62058017
(1675219111.194282) can0 2C1#080328027ED90057
(1675219111.198896) can0 0B0#00000000110E
(1675219111.198903) can0 0B2#00000000110E
(1675219111.199076) can0 224#2000000000660008
(1675219111.199249) can0 235#00000000003D
(1675219111.200056) can0 440#4202000001000000
(1675219111.200060) can0 622#1200E83000000000
(1675219111.203474) can0 38C#0000000000000037
(1675219111.205132) can0 2C4#039E001A08802132
(1675219111.205137) can0 020#000007
(1675219111.205417) can0 0B4#00000000E000009C
(1675219111.206374) can0 024#020201FE62057F15
(1675219111.207596) can0 025#00150FC346467818
(1675219111.210180) can0 260#0F00000000000079
(1675219111.210181) can0 351#00000000
(1675219111.211079) can0 0B0#00000000110F
(1675219111.211080) can0 0B2#00000000110F
(1675219111.211085) can0 223#0500000000000032
(1675219111.215712) can0 2D0#00001000100000FA
(1675219111.216898) can0 020#000007
(1675219111.216904) can0 0B4#00000000E000009C
(1675219111.217546) can0 024#020201FE62058016
(1675219111.217549) can0 025#00150FC37878787C
(1675219111.223451) can0 0B0#000000001100
(1675219111.223458) can0 0B2#000000001100
(1675219111.224722) can0 224#2000000000650008
(1675219111.226068) can0 235#00000000003D
(1675219111.226069) can0 2C1#08032C0256D90033
(1675219111.227800) can0 2C4#039D001A08802131
(1675219111.229378) can0 020#000007
(1675219111.229384) can0 0B4#00000000E000009C
(1675219111.229882) can0 025#00160FC364647855
(1675219111.230124) can0 024#020201FE62058016
(1675219111.233245) can0 260#0F00000000000079
(1675219111.233249) can0 3B0#0000002A0000
(1675219111.235298) can0 0B0#000000001101
(1675219111.235304) can0 0B2#000000001101
(1675219111.236286) can0 223#0500000000000032
(1675219111.241317) can0 020#000007
(1675219111.241497) can0 0B4#00000000E000009C
(1675219111.242038) can0 025#00160FC37878787D
(1675219111.243194) can0 024#020201FE62047F14
(1675219111.247475) can0 0B0#000000001102
(1675219111.247484) can0 0B2#000000001102
(1675219111.247486) can0 224#2000000000650008
(1675219111.247944) can0 235#00000000003D
(1675219111.248742) can0 2D0#00001000100000FA
(1675219111.249217) can0 3B1#0000002400000000
(1675219111.250444) can0 260#0F00000000000079
(1675219111.250447) can0 2C4#0397001A0880212B
(1675219111.253506) can0 020#000007
(1675219111.253516) can0 0B4#00000000E000009C
(1675219111.253711) can0 025#00170FC34646781A
(1675219111.254334) can0 024#020201FE62057F15
(1675219111.257829) can0 2C1#08033B0233D9001F
(1675219111.259540) can0 0B0#000000001103
(1675219111.259544) can0 0B2#000000001103
(1675219111.260836) can0 223#0500000000000032
(1675219111.263307) can0 3A0#014E000000000021
(1675219111.265602) can0 620#1000025DF0402000
(1675219111.265609) can0 020#000007
(1675219111.265613) can0 0B4#00000000E000009C
(1675219111.265907) can0 024#020201FE62057F15
(1675219111.266169) can0 025#00170FC37878787E
(1675219111.270204) can0 260#0F00000000000079
(1675219111.271687) can0 0B0#000000001104
(1675219111.271694) can0 0B2#000000001104
(1675219111.271985) can0 224#2000000000650008
(1675219111.272895) can0 235#00000000003D
(1675219111.274289) can0 351#00000000
(1675219111.274295) can0 2C4#0396001A0880212A
(1675219111.277737) can0 020#000007
(1675219111.277745) can0 0B4#00000000E000009C
(1675219111.277932) can0 025#00180FC3141478B7
(1675219111.279105) can0 024#020201FE62048015
(1675219111.280390) can0 2D0#00001000100000FA
(1675219111.283512) can0 0B0#000000001105
(1675219111.283519) can0 0B2#000000001105
(1675219111.283701) can0 223#0500000000000032
(1675219111.284070) can0 3B7#0000800000000000
(1675219111.290018) can0 020#000007
(1675219111.290025) can0 0B4#00000000E000009C
(1675219111.290028) can0 025#00190FC34646781C
(1675219111.290080) can0 2C1#0803350211D900F7
(1675219111.290355) can0 024#020201FE62048116
(1675219111.291722) can0 260#0F00000000000079
(1675219111.293332) can0 380#200808000000FB00
(1675219111.295211) can0 442#4002000000000000
(1675219111.295220) can0 0B0#000000001106
(1675219111.295501) can0 0B2#000000001106
(1675219111.296026) can0 224#2000000000650008
(1675219111.296028) can0 235#00000000003D
(1675219111.298084) can0 2C4#038E001A08802122
(1675219111.301582) can0 020#000007
(1675219111.301590) can0 0B4#00000000E000009C
(1675219111.302523) can0 025#001A0FC364647859
(1675219111.302527) can0 024#020301FE62048016
(1675219111.307731) can0 0B0#000000001107
(1675219111.307740) can0 0B2#000000001107
(1675219111.309209) can0 223#0500000000000032
(1675219111.310317) can0 260#0F00000000000079
(1675219111.311031) can0 2D0#00001000100000FA
(1675219111.314232) can0 020#000007
(1675219111.315760) can0 0B4#00000000E000009C
(1675219111.315761) can0 024#020201FD62047F13
(1675219111.316954) can0 025#001B0FC378787882
(1675219111.319564) can0 0B0#000000001108
(1675219111.319570) can0 0B2#000000001108
(1675219111.319981) can0 224#2000000000650008
(1675219111.320418) can0 235#00000000003D
(1675219111.321501) can0 2C1#08033901F4D900DD
(1675219111.321505) can0 2C4#0388001A0880211C
(1675219111.323402) can0 3A1#0000000000FF0000
(1675219111.325886) can0 020#000007
(1675219111.325894) can0 0B4#00000000E000009C
(1675219111.325898) can0 025#001B0FC378787882
(1675219111.326318) can0 024#020201FE62057F15
(1675219111.330367) can0 260#0F00000000000079
(1675219111.331657) can0 0B0#000000001109
(1675219111.331664) can0 0B2#000000001109
(1675219111.332096) can0 223#0500000000000032
(1675219111.333339) can0 351#00000000
(1675219111.337501) can0 020#000007
(1675219111.337779) can0 0B4#00000000E000009C
(1675219111.338233) can0 025#001C0FC30A0A78A7
(1675219111.338237) can0 024#020201FE62058016
(1675219111.343378) can0 2D0#00001000100000FA
(1675219111.343386) can0 0B0#00000000110A
(1675219111.343775) can0 0B2#00000000110A
(1675219111.343781) can0 224#2000000000650008
(1675219111.344220) can0 235#00000000003D
(1675219111.344631) can0 2C4#0387001A0880211B
(1675219111.349189) can0 394#00
(1675219111.349568) can0 020#000007
(1675219111.349572) can0 0B4#00000000E000009C
(1675219111.349798) can0 025#001D0FC30A0A78A8
(1675219111.350011) can0 260#0F00000000000079
(1675219111.350621) can0 024#020201FE62057F15
(1675219111.353151) can0 2C1#08034F01E3DA00E3
(1675219111.355784) can0 0B0#00000000110B
(1675219111.355789) can0 0B2#00000000110B
(1675219111.357101) can0 223#0500000000000032
(1675219111.361912) can0 020#000007
(1675219111.361917) can0 0B4#00000000E000009C
(1675219111.362080) can0 024#020301FE62058017
(1675219111.363095) can0 025#001F0FC30A6E780E
(1675219111.365577) can0 3A0#004E000000000021
(1675219111.367982) can0 0B0#00000000110C
(1675219111.367985) can0 0B2#00000000110C
(1675219111.367989) can0 224#2000000000620008
(1675219111.368244) can0 235#00000000003D
(1675219111.368425) can0 2C4#0383001A08802117
(1675219111.370403) can0 260#0F00000000000079
(1675219111.370407) can0 4C8#0900010200000000
(1675219111.373981) can0 020#000007
(1675219111.373989) can0 0B4#00000000E000009C
(1675219111.374434) can0 025#00200FC35A5A784B
(1675219111.374439) can0 024#020301FE62058017
(1675219111.377996) can0 2D0#00001000100000FA
(1675219111.379889) can0 0B0#00000000110D
(1675219111.379899) can0 0B2#00000000110D
(1675219111.380030) can0 223#0500000000000032
(1675219111.384959) can0 2C1#08034301D1DA00C5
(1675219111.385670) can0 020#000007
(1675219111.386027) can0 0B4#00000000E000009C
(1675219111.386034) can0 025#00210FC346467824
(1675219111.386250) can0 024#020301FE62068018
(1675219111.390485) can0 260#0F00000000000079
(1675219111.391054) can0 351#00000000
(1675219111.391752) can0 0B0#00000000110E
(1675219111.392184) can0 0B2#00000000110E
(1675219111.392189) can0 224#20000000005F0008
(1675219111.392381) can0 235#00000000003D
(1675219111.393402) can0 2C4#037C001A08802110
(1675219111.395844) can0 440#4202000001000000
(1675219111.397731) can0 610#20000064C0FFFEE0
(1675219111.397737) can0 020#000007
(1675219111.398587) can0 0B4#00000000E000009C
(1675219111.398593) can0 025#00230FC31E78823A
(1675219111.398719) can0 024#020201FE62057F15
(1675219111.404032) can0 0B0#00000000110F
(1675219111.404039) can0 0B2#00000000110F
(1675219111.404043) can0 223#0500000000000032
(1675219111.406388) can0 2D0#00001000100000FA
(1675219111.409804) can0 020#000007
(1675219111.410212) can0 0B4#00000000E000009C
(1675219111.410583) can0 024#020301FE62058017
(1675219111.410589) can0 260#0F00000000000079
(1675219111.412037) can0 025#00240FC346467827
(1675219111.415391) can0 2C4#0375001A08802109
(1675219111.415843) can0 0B0#000000001100
(1675219111.416243) can0 0B2#000000001100
(1675219111.416249) can0 224#20000000005B0008
(1675219111.416501) can0 235#00000000003D
(1675219111.418245) can0 2C1#08035C01C9DA00D6
(1675219111.419510) can0 423#00
(1675219111.421754) can0 020#000007
(1675219111.422162) can0 0B4#00000000E000009C
(1675219111.422169) can0 024#020301FE62058017
(1675219111.422529) can0 025#00260FC31E6E7829
(1675219111.428089) can0 0B0#000000001101
(1675219111.428095) can0 0B2#000000001101
(1675219111.429151) can0 223#0500000000000032
(1675219111.430460) can0 260#0F00000000000079
(1675219111.433837) can0 020#000007
(1675219111.433845) can0 0B4#00000000E000009C
(1675219111.434616) can0 024#020301FD62068017
(1675219111.434620) can0 025#00270FC33C3C7816
(1675219111.438169) can0 2D0#00001000100000FA
(1675219111.439025) can0 2C4#036F001A08802103
(1675219111.439956) can0 0B0#000000001102
(1675219111.439958) can0 0B2#000000001102
(1675219111.440311) can0 224#2000000000580008
(1675219111.440315) can0 235#00000000003D
(1675219111.445831) can0 020#000007
(1675219111.446084) can0 0B4#00000000E000009C
(1675219111.446648) can0 025#00290FC30A5078FA
(1675219111.447046) can0 024#020301FE62058017
(1675219111.448244) can0 2C1#08035401B9DA00BE
(1675219111.450483) can0 260#0F00000000000079
(1675219111.451051) can0 351#00000000
(1675219111.451987) can0 0B0#000000001103
(1675219111.451993) can0 0B2#000000001103
(1675219111.452146) can0 223#0500000000000032
(1675219111.458089) can0 020#000007
(1675219111.458097) can0 0B4#00000000E000009C
(1675219111.458418) can0 024#020301FE62058017
(1675219111.459260) can0 025#002B0FC31E647824
(1675219111.462966) can0 2C4#0361001A088021F5
(1675219111.462972) can0 3A0#004D000000000021
(1675219111.464365) can0 0B0#000000001104
(1675219111.464370) can0 0B2#000000001104
(1675219111.465653) can0 224#2000000000550008
(1675219111.467916) can0 235#00000000003D
(1675219111.470168) can0 2D0#00001000100000FA
(1675219111.470181) can0 020#000007
(1675219111.470183) can0 0B4#00000000E000009C
(1675219111.470383) can0 260#0F00000000000079
(1675219111.470708) can0 024#020301FE62058017
(1675219111.471149) can0 025#002D0FC328647830
(1675219111.476146) can0 0B0#000000001105
(1675219111.476152) can0 0B2#000000001105
(1675219111.477489) can0 223#0500000000000032
(1675219111.480059) can0 2C1#08034F01ADDA00AD
(1675219111.481964) can0 020#000007
(1675219111.481970) can0 0B4#00000000E000009C
(1675219111.482502) can0 4C3#0300120100000000
(1675219111.482507) can0 025#002F0FC3285A7828
(1675219111.482664) can0 024#020301FD62058016
(1675219111.486333) can0 2C4#035A001A088021EE
(1675219111.488137) can0 0B0#000000001106
(1675219111.488146) can0 0B2#000000001106
(1675219111.488562) can0 224#2000000000510008
(1675219111.489434) can0 235#00000000003D
(1675219111.490272) can0 260#0F00000000000079
(1675219111.494472) can0 020#000007
(1675219111.494474) can0 0B4#00000000E000009C
(1675219111.495068) can0 025#00310FC31E507816
(1675219111.495071) can0 024#020301FE62058017
(1675219111.495267) can0 442#4002000000000000
(1675219111.500243) can0 0B0#000000001107
(1675219111.500251) can0 0B2#000000001107
(1675219111.500254) can0 223#0500000000000032
(1675219111.501752) can0 2D0#00001000100000FA
(1675219111.506126) can0 020#000007
(1675219111.506132) can0 0B4#00000000E000009C
(1675219111.506487) can0 024#020301FE62048016
(1675219111.506492) can0 025#00340FC314787837
(1675219111.509891) can0 2C4#0354001A088021E8
(1675219111.510294) can0 260#0F00000000000079
(1675219111.512206) can0 351#00000000
(1675219111.512215) can0 2C1#08035F01A3DA00B3
(1675219111.512220) can0 0B0#000000001108
(1675219111.512285) can0 0B2#000000001108
(1675219111.512536) can0 224#2000000000510008
(1675219111.513317) can0 235#00000000003D
(1675219111.518291) can0 020#000007
(1675219111.518299) can0 0B4#00000000E000009C
(1675219111.518447) can0 024#020301FE62048016
(1675219111.519732) can0 025#00360FC332647843
(1675219111.521833) can0 4C6#0700010000000000
(1675219111.524465) can0 0B0#000000001109
(1675219111.524472) can0 0B2#000000001109
(1675219111.524734) can0 223#0500000000000032
(1675219111.525341) can0 623#1900000000000000
(1675219111.530425) can0 260#0F00000000000079
(1675219111.530433) can0 020#000007
(1675219111.530681) can0 0B4#00000000E000009C
(1675219111.531076) can0 024#020301FE62048016
(1675219111.531085) can0 025#00380FC31E50781D
(1675219111.533432) can0 2D0#00001000100000FA
(1675219111.533438) can0 2C4#0350001A088021E4
(1675219111.534119) can0 3B3#034E28
(1675219111.535283) can0 624#1A00414949400000
(1675219111.536623) can0 0B0#00000000110A
(1675219111.536629) can0 0B2#00000000110A
(1675219111.537903) can0 224#2000000000510008
(1675219111.539060) can0 235#00000000003D
(1675219111.542580) can0 020#000007
(1675219111.542586) can0 0B4#00000000E000009C
(1675219111.543067) can0 025#003B0FC30A6E782A
(1675219111.543408) can0 024#020301FE62058017
(1675219111.543413) can0 2C1#0803610199DB00AC
(1675219111.548331) can0 0B0#00000000110B
(1675219111.548336) can0 0B2#00000000110B
(1675219111.548751) can0 223#0500000000000032
(1675219111.550159) can0 260#0F00000000000079
(1675219111.554803) can0 020#000007
(1675219111.554804) can0 0B4#00000000E000009C
(1675219111.554807) can0 025#003D0FC3285A7836
(1675219111.555404) can0 024#020301FE62058017
(1675219111.556873) can0 2C4#034B001A088021DF
(1675219111.560969) can0 630#1700000000000000
(1675219111.560976) can0 0B0#00000000110C
(1675219111.560980) can0 0B2#00000000110C
(1675219111.561904) can0 224#2000000000510008
(1675219111.562771) can0 235#00000000003D
(1675219111.563614) can0 3A0#004D000000000021
(1675219111.565612) can0 2D0#00001000100000FA
(1675219111.566522) can0 020#000007
(1675219111.566527) can0 0B4#00000000E000009C
(1675219111.566530) can0 024#020301FE62048016
(1675219111.566982) can0 025#00400FC314787843
(1675219111.569290) can0 620#1000025DF0402000
(1675219111.570593) can0 260#0F00000000000079
(1675219111.570909) can0 351#00000000
(1675219111.572476) can0 0B0#00000000110D
(1675219111.572480) can0 0B2#00000000110D
(1675219111.572483) can0 223#0400000000000031
(1675219111.575554) can0 2C1#0803580193DA009C
(1675219111.578437) can0 020#000007
(1675219111.578443) can0 0B4#00000000E000009C
(1675219111.578788) can0 025#00420FC33264784F
(1675219111.580303) can0 024#020301FF62048017
(1675219111.580309) can0 2C4#0346001A088021DA
(1675219111.585042) can0 0B0#00000000110E
(1675219111.585052) can0 0B2#00000000110E
(1675219111.585059) can0 224#2000000000510008
(1675219111.585061) can0 235#00000000003D
(1675219111.586442) can0 3B7#0000800000000000
(1675219111.590697) can0 260#0F00000000000079
(1675219111.590698) can0 020#000007
(1675219111.591127) can0 0B4#00000000E000009C
(1675219111.592319) can0 025#00440FC3285A783D
(1675219111.594287) can0 024#020301FF62048017
(1675219111.595640) can0 440#4202000001000000
(1675219111.596700) can0 0B0#00000000110F
(1675219111.596705) can0 0B2#00000000110F
(1675219111.596988) can0 223#0400000000000031
(1675219111.596991) can0 2D0#00001000100000FA
(1675219111.602723) can0 020#000007
(1675219111.602729) can0 0B4#00000000E000009C
(1675219111.602732) can0 025#00460FC314507821
(1675219111.603834) can0 024#020301FE62058017
(1675219111.603838) can0 2C4#0340001A088021D4
(1675219111.606953) can0 2C1#0803760192DB00BA
(1675219111.608658) can0 0B0#000000001100
(1675219111.608663) can0 0B2#000000001100
(1675219111.608916) can0 224#2000000000510008
(1675219111.609086) can0 235#00000000003D
(1675219111.610365) can0 260#0F00000000000079
(1675219111.614571) can0 020#000007
(1675219111.614583) can0 0B4#00000000E000009C
(1675219111.614587) can0 024#020301FE62057F16
(1675219111.614926) can0 025#00480FC30A46780F
(1675219111.620994) can0 0B0#000000001101
(1675219111.620995) can0 0B2#000000001101
(1675219111.622353) can0 223#0400000000000031
(1675219111.626911) can0 020#000007
(1675219111.626919) can0 0B4#00000000E000009C
(1675219111.626920) can0 025#004B0FC30A787844
(1675219111.627373) can0 024#020301FF62048017
(1675219111.628298) can0 2C4#033F001A088021D3
(1675219111.628302) can0 2D0#00001000100000FA
(1675219111.630594) can0 260#0F00000000000079
(1675219111.632374) can0 351#00000000
(1675219111.632644) can0 0B0#000000001102
(1675219111.632915) can0 0B2#000000001102
(1675219111.633229) can0 224#2000000000510008
(1675219111.634562) can0 235#00000000003D
(1675219111.638544) can0 020#000007
(1675219111.638549) can0 0B4#00000000E000009C
(1675219111.639025) can0 025#004D0FC33C787878
(1675219111.639030) can0 2C1#0803640191DB00A7
(1675219111.639406) can0 024#020301FF62048017
(1675219111.644913) can0 0B0#000000001103
(1675219111.644916) can0 0B2#000000001103
(1675219111.644920) can0 223#0400000000000031
(1675219111.649080) can0 394#00
(1675219111.650165) can0 260#0F00000000000079
(1675219111.650404) can0 020#000007
(1675219111.650741) can0 0B4#00000000E000009C
(1675219111.650747) can0 025#004F0FC33C78787A
(1675219111.651079) can0 2C4#0333001A088021C7
(1675219111.651454) can0 024#020301FF62047F16
(1675219111.657149) can0 0B0#000000001104
(1675219111.657150) can0 0B2#000000001104
(1675219111.658244) can0 224#2000000000500008
(1675219111.660213) can0 235#00000000003D
(1675219111.660218) can0 2D0#00001000100000FA
(1675219111.662964) can0 020#000007
(1675219111.662972) can0 0B4#00000000E000009C
(1675219111.662976) can0 025#00510FC33C78787C
(1675219111.663335) can0 3A0#004D000000000020
(1675219111.663982) can0 024#020301FF62058018
(1675219111.668971) can0 0B0#000000001105
(1675219111.668976) can0 0B2#000000001105
(1675219111.670363) can0 223#0400000000000031
(1675219111.670370) can0 260#0F00000000000079
(1675219111.671687) can0 2C1#0803690196DB00B1
(1675219111.674902) can0 2C4#032D001A088021C1
(1675219111.674914) can0 020#000007
(1675219111.675032) can0 0B4#00000000E000009C
(1675219111.675502) can0 024#020301FF62058018
(1675219111.676345) can0 025#00530FC34682829C
(1675219111.681031) can0 0B0#000000001106
(1675219111.681038) can0 0B2#000000001106
(1675219111.681269) can0 224#20000000004C0008
(1675219111.681926) can0 235#00000000003D
(1675219111.686841) can0 020#000007
(1675219111.686846) can0 0B4#00000000E000009C
(1675219111.687426) can0 024#020301FF62058018
(1675219111.687563) can0 025#00550FC33C787880
(1675219111.690818) can0 260#0F00000000000079
(1675219111.690820) can0 351#00000000
(1675219111.691937) can0 2D0#00001000100000FA
(1675219111.692936) can0 0B0#000000001107
(1675219111.692941) can0 0B2#000000001107
(1675219111.693080) can0 223#0400000000000031
(1675219111.694435) can0 442#4002000000000000
(1675219111.698400) can0 2C4#032A001A088021BE
(1675219111.698463) can0 020#000007
(1675219111.698865) can0 0B4#00000000E000009C
(1675219111.699713) can0 025#00570FC33C787882
(1675219111.699718) can0 024#020301FF62058018
(1675219111.701130) can0 621#1100000000000000
(1675219111.702346) can0 2C1#0803DD019EDE0030
(1675219111.704933) can0 0B0#000000001108
(1675219111.705150) can0 0B2#000000001108
(1675219111.705308) can0 224#2000000000490008
(1675219111.706105) can0 235#00000000003D
(1675219111.710698) can0 260#0F00000000000079
(1675219111.710708) can0 020#000007
(1675219111.710711) can0 0B4#00000000E000009C
(1675219111.711576) can0 025#00580FC34646785B
(1675219111.711861) can0 024#020301FF62058018
(1675219111.717006) can0 0B0#000000001109
(1675219111.717015) can0 0B2#000000001109
(1675219111.717019) can0 223#0400000000000031
(1675219111.721640) can0 2C4#0326001A088021BA
(1675219111.722945) can0 020#000007
(1675219111.723009) can0 0B4#00000000E000009C
(1675219111.723502) can0 024#020301FF62058018
(1675219111.723656) can0 025#005A0FC30A50782B
(1675219111.724322) can0 2D0#00001000100000FA
(1675219111.729321) can0 0B0#00000000110A
(1675219111.729329) can0 0B2#00000000110A
(1675219111.729333) can0 224#2000000000460008
(1675219111.730304) can0 235#00000000003D
(1675219111.730892) can0 260#0F00000000000079
(1675219111.733961) can0 2C1#0803E801ABDF0049
(1675219111.734676) can0 020#000007
(1675219111.734858) can0 0B4#00000000E000009C
(1675219111.735499) can0 024#020301FE62068018
(1675219111.735504) can0 025#005C0FC314507837
(1675219111.741324) can0 0B0#00000000110B
(1675219111.741329) can0 0B2#00000000110B
(1675219111.743109) can0 223#0400000000000031
(1675219111.745531) can0 2C4#0325001A088021B9
(1675219111.747028) can0 020#000007
(1675219111.747032) can0 0B4#00000000E000009C
(1675219111.747563) can0 025#005E0FC314507839
(1675219111.747567) can0 024#020301FE62068018
(1675219111.750440) can0 260#0F00000000000079
(1675219111.750978) can0 351#00000000
(1675219111.753443) can0 0B0#00000000110C
(1675219111.753448) can0 0B2#00000000110C
(1675219111.753686) can0 224#2000000000450008
(1675219111.754945) can0 235#00000000003D
(1675219111.755397) can0 2D0#00001000100000FA
(1675219111.759502) can0 020#000007
(1675219111.759511) can0 0B4#00000000E000009C
(1675219111.759517) can0 025#00600FC31450783B
(1675219111.759979) can0 024#020301FE62058017
(1675219111.762916) can0 3A0#004D000000000020
(1675219111.765576) can0 0B0#00000000110D
(1675219111.765583) can0 0B2#00000000110D
(1675219111.765587) can0 223#0400000000000031
(1675219111.766923) can0 2C1#08038901B8DC00F4
(1675219111.769227) can0 2C4#0322001A088021B6
(1675219111.771045) can0 260#0F00000000000079
(1675219111.771057) can0 020#000007
(1675219111.771063) can0 0B4#00000000E000009C
(1675219111.771602) can0 024#020301FF62058018
(1675219111.771606) can0 025#00620FC30A467829
(1675219111.777482) can0 0B0#00000000110E
(1675219111.777487) can0 0B2#00000000110E
(1675219111.777742) can0 224#2000000000410008
(1675219111.779159) can0 235#00000000003D
(1675219111.783310) can0 020#000007
(1675219111.783317) can0 0B4#00000000E000009C
(1675219111.783700) can0 025#00650FC30A78785E
(1675219111.783705) can0 024#020301FF62058018
(1675219111.787185) can0 2D0#00001000100000FA
(1675219111.789364) can0 0B0#00000000110F
(1675219111.789371) can0 0B2#00000000110F
(1675219111.789735) can0 223#0400000000000031
(1675219111.790190) can0 440#4202000001000000
(1675219111.790318) can0 260#0F00000000000079
(1675219111.792261) can0 2C4#031E001A088021B2
(1675219111.795497) can0 020#000007
(1675219111.795581) can0 0B4#00000000E000009C
(1675219111.795586) can0 025#00670FC33C6E7888
(1675219111.795885) can0 024#020301FE62068018
(1675219111.797520) can0 2C1#08038801CADC0005
(1675219111.798082) can0 38A#0800040000
(1675219111.801364) can0 0B0#000000001100
(1675219111.801369) can0 0B2#000000001100
(1675219111.801808) can0 224#2000000000410008
(1675219111.801812) can0 235#00000000003D
(1675219111.807538) can0 020#000007
(1675219111.807548) can0 0B4#00000000E000009C
(1675219111.808016) can0 025#00690FC32864786C
(1675219111.808404) can0 024#020301FE62068018
(1675219111.810551) can0 260#0F00000000000079
(1675219111.811051) can0 351#00000000
(1675219111.813293) can0 0B0#000000001101
(1675219111.813619) can0 0B2#000000001101
(1675219111.813620) can0 223#0400000000000031
(1675219111.815856) can0 2C4#0320001A088021B4
(1675219111.819594) can0 2D0#00001000100000FA
(1675219111.819606) can0 020#000007
(1675219111.819607) can0 0B4#00000000E000009C
(1675219111.819610) can0 025#006B0FC31E507850
(1675219111.820334) can0 024#020201FE62058016
(1675219111.825745) can0 0B0#000000001102
(1675219111.825750) can0 0B2#000000001102
(1675219111.825753) can0 224#2000000000410008
(1675219111.826226) can0 235#00000000003D
(1675219111.829229) can0 2C1#0803CD01DBDE005D
(1675219111.830391) can0 638#1300000000000000
(1675219111.830395) can0 260#0F00000000000079
(1675219111.831181) can0 020#000007
(1675219111.831577) can0 0B4#00000000E000009C
(1675219111.831908) can0 025#006E0FC30A6E785D
(1675219111.832375) can0 024#020301FE62058017
(1675219111.837656) can0 0B0#000000001103
(1675219111.837662) can0 0B2#000000001103
(1675219111.838734) can0 223#0400000000000031
(1675219111.839373) can0 2C4#031F001A088021B3
(1675219111.843409) can0 020#000007
(1675219111.843670) can0 0B4#00000000E000009C
(1675219111.844071) can0 025#00700FC3285A7869
(1675219111.844629) can0 024#020301FE62058017
(1675219111.849682) can0 0B0#000000001104
(1675219111.849691) can0 0B2#000000001104
(1675219111.849695) can0 224#20000000003F0008
(1675219111.850073) can0 235#00000000003D
(1675219111.850369) can0 260#0F00000000000079
(1675219111.850624) can0 2D0#00001000100000FA
(1675219111.855584) can0 020#000007
(1675219111.855587) can0 0B4#00000000E000009C
(1675219111.855709) can0 025#00730FC30A6E7862
(1675219111.856391) can0 024#020301FD62058016
(1675219111.860920) can0 2C1#08036E01EBDB000B
(1675219111.861615) can0 0B0#000000001105
(1675219111.862499) can0 0B2#000000001105
(1675219111.862907) can0 223#0400000000000031
(1675219111.862916) can0 3A0#004D000000000020
(1675219111.864488) can0 2C4#031C001A088021B0
(1675219111.865690) can0 620#1000025DF0402000
(1675219111.867827) can0 020#000007
(1675219111.867834) can0 0B4#00000000E000009C
(1675219111.868092) can0 025#00760FC31E787883
(1675219111.869334) can0 024#020301FE62058017
(1675219111.870572) can0 260#0F00000000000079
(1675219111.871039) can0 351#00000000
(1675219111.873980) can0 0B0#000000001106
(1675219111.873989) can0 0B2#000000001106
(1675219111.875420) can0 224#20000000003D0008
(1675219111.877420) can0 235#00000000003D
(1675219111.878736) can0 4C1#0100090000000000
(1675219111.878743) can0 4DD#1E00000100000000
(1675219111.879637) can0 020#000007
(1675219111.879642) can0 0B4#00000000E000009C
(1675219111.879955) can0 025#00780FC332647885
(1675219111.881131) can0 024#020301FE62048016
(1675219111.882364) can0 2D0#00001000100000FA
(1675219111.885033) can0 442#4002000000000000
(1675219111.885627) can0 0B0#000000001107
(1675219111.885939) can0 0B2#000000001107
(1675219111.885942) can0 223#0400000000000031
(1675219111.886403) can0 3B7#0000800000000000
(1675219111.886407) can0 2C4#0319001A088021AD
(1675219111.890933) can0 260#0F00000000000079
(1675219111.891622) can0 020#000007
(1675219111.891629) can0 0B4#00000000E000009C
(1675219111.892054) can0 025#007B0FC3146E7874
(1675219111.892556) can0 024#020301FE62058017
(1675219111.893349) can0 2C1#08036C01FCDB001A
(1675219111.895842) can0 610#20000064C0FFFEE0
(1675219111.898031) can0 0B0#000000001108
(1675219111.898039) can0 0B2#000000001108
(1675219111.898161) can0 224#20000000003D0008
(1675219111.899165) can0 235#00000000003D
(1675219111.903937) can0 020#000007
(1675219111.903945) can0 0B4#00000000E000009C
(1675219111.903948) can0 025#007E0FC31E78788B
(1675219111.904448) can0 024#020301FE62048016
(1675219111.910225) can0 0B0#000000001109
(1675219111.910232) can0 0B2#000000001109
(1675219111.910510) can0 223#0400000000000031
(1675219111.911154) can0 260#0F00000000000079
(1675219111.913398) can0 2C4#031A001A088021AE
(1675219111.914159) can0 2D0#00001000100000FA
(1675219111.915814) can0 020#000007
(1675219111.915818) can0 0B4#00000000E000009C
(1675219111.916022) can0 025#00800FC32850786F
(1675219111.916777) can0 024#020301FD62038014
(1675219111.921866) can0 0B0#00000000110A
(1675219111.921877) can0 0B2#00000000110A
(1675219111.922227) can0 224#20000000003D0008
(1675219111.923383) can0 235#00000000003D
(1675219111.924717) can0 2C1#0803D1020EDE0095
(1675219111.928043) can0 020#000007
(1675219111.928048) can0 0B4#00000000E000009C
(1675219111.928548) can0 024#020301FD62058016
(1675219111.929152) can0 025#00840FC30A828291
(1675219111.930484) can0 260#0F00000000000079
(1675219111.930973) can0 351#00000000
(1675219111.933666) can0 2C4#031C001A088021B0
(1675219111.934230) can0 0B0#00000000110B
(1675219111.934240) can0 0B2#00000000110B
(1675219111.935823) can0 223#0400000000000031
(1675219111.940178) can0 020#000007
(1675219111.940562) can0 0B4#00000000E000009C
(1675219111.940566) can0 024#020301FE62048016
(1675219111.941902) can0 025#00860FC3325A7889
(1675219111.945864) can0 0B0#00000000110C
(1675219111.945866) can0 0B2#00000000110C
(1675219111.946404) can0 224#20000000003D0008
(1675219111.946407) can0 235#00000000003D
(1675219111.946561) can0 2D0#00001000100000FA
(1675219111.949171) can0 394#00
(1675219111.950653) can0 260#0F00000000000079
(1675219111.952038) can0 020#000007
(1675219111.952683) can0 0B4#00000000E000009C
(1675219111.952691) can0 024#020301FE62058017
(1675219111.953332) can0 025#008A0FC30A787883
(1675219111.956037) can0 2C1#08036C021FDB003E
(1675219111.957798) can0 2C4#0320001A088021B4
(1675219111.957802) can0 0B0#00000000110D
(1675219111.957993) can0 0B2#00000000110D
(1675219111.958221) can0 223#0400000000000031
(1675219111.962465) can0 3A0#004D000000000020
(1675219111.963853) can0 020#000007
(1675219111.963859) can0 0B4#00000000E000009C
(1675219111.964472) can0 025#008C0FC3325A788F
(1675219111.964833) can0 024#020301FE62038015
(1675219111.969994) can0 0B0#00000000110E
(1675219111.969996) can0 0B2#00000000110E
(1675219111.970205) can0 224#20000000003D0008
(1675219111.970675) can0 235#00000000003D
(1675219111.971123) can0 260#0F00000000000079
(1675219111.976092) can0 020#000007
(1675219111.976100) can0 0B4#00000000E000009C
(1675219111.976103) can0 024#020401FE62048017
(1675219111.976673) can0 025#008F0FC30A5A786A
(1675219111.977692) can0 2D0#00001000100000FA
(1675219111.980314) can0 440#4202000001000000
(1675219111.980623) can0 2C4#0322001A088021B6
(1675219111.982041) can0 0B0#00000000110F
(1675219111.982049) can0 0B2#00000000110F
(1675219111.982052) can0 223#0400000000000031
(1675219111.988402) can0 2C1#0803690225DB0041
(1675219111.988465) can0 020#000007
(1675219111.988471) can0 0B4#00000000E000009C
(1675219111.989847) can0 024#020301FD62058016
(1675219111.990317) can0 025#00920FC30A5A786D
(1675219111.991094) can0 260#0F00000000000079
(1675219111.993308) can0 351#00000000
(1675219111.994020) can0 0B0#000000001100
(1675219111.994092) can0 0B2#000000001100
(1675219111.994691) can0 224#20000000003D0008
(1675219111.994695) can0 235#00000000003D
(1675219111.999975) can0 020#000007
(1675219111.999983) can0 0B4#00000000E000009C
(1675219112.000637) can0 025#00950FC30A5A7870
(1675219112.001011) can0 024#020301FD62048015
(1675219112.004312) can0 2C4#0326001A088021BA
(1675219112.005269) can0 611#210010A00002821A
(1675219112.006035) can0 0B0#000000001101
(1675219112.006041) can0 0B2#000000001101
(1675219112.006456) can0 223#0400000000000031
(1675219112.010150) can0 2D0#00001000100000FA
(1675219112.010486) can0 260#0F00000000000079
(1675219112.011915) can0 020#000007
(1675219112.011922) can0 0B4#00000000E000009C
(1675219112.012480) can0 025#00980FC30A64787D
(1675219112.013709) can0 024#020301FE62038015
(1675219112.018129) can0 0B0#000000001102
(1675219112.018133) can0 0B2#000000001102
(1675219112.018780) can0 224#20000000003D0008
(1675219112.018782) can0 235#00000000003D
(1675219112.020420) can0 2C1#080367022EDB0048
(1675219112.024418) can0 020#000007
(1675219112.024420) can0 0B4#00000000E000009C
(1675219112.025494) can0 025#009B0FC3146E7894
(1675219112.025500) can0 024#020401FF62038017
(1675219112.027755) can0 2C4#0325001A088021B9
(1675219112.030286) can0 0B0#000000001103
(1675219112.030294) can0 0B2#000000001103
(1675219112.030674) can0 223#0400000000000031
(1675219112.030685) can0 260#0F00000000000079
(1675219112.036354) can0 020#000007
(1675219112.036363) can0 0B4#00000000E000009C
(1675219112.036761) can0 024#020301FF62048118
(1675219112.036765) can0 025#009D0FC31E507882
(1675219112.041405) can0 2D0#00001000100000FA
(1675219112.042191) can0 0B0#000000001104
(1675219112.042197) can0 0B2#000000001104
(1675219112.042638) can0 224#20000000003D0008
(1675219112.042640) can0 235#00000000003D
(1675219112.046097) can0 3B3#032528
(1675219112.048128) can0 020#000007
(1675219112.048133) can0 0B4#00000000E000009C
(1675219112.048329) can0 025#00A00FC30A6E788F
(1675219112.048790) can0 024#020401FE62068019
(1675219112.050389) can0 260#0F00000000000079
(1675219112.050396) can0 351#00000000
(1675219112.052901) can0 2C1#0803630236DB004C
(1675219112.052905) can0 2C4#0323001A088021B7
(1675219112.054623) can0 0B0#000000001105
(1675219112.055918) can0 0B2#000000001105
(1675219112.055921) can0 223#0400000000000031
(1675219112.060462) can0 020#000007
(1675219112.060468) can0 0B4#00000000E000009C
(1675219112.060471) can0 025#00A20FC3286478A5
(1675219112.061122) can0 024#020301FE62068018
(1675219112.062262) can0 3A0#004D000000000020
(1675219112.066584) can0 0B0#000000001106
(1675219112.066590) can0 0B2#000000001106
(1675219112.067026) can0 224#20000000003D0008
(1675219112.067039) can0 235#00000000003D
(1675219112.070439) can0 260#0F00000000000079
(1675219112.072210) can0 020#000007
(1675219112.072587) can0 0B4#00000000E000009C
(1675219112.072831) can0 025#00A40FC3285A789D
(1675219112.073049) can0 2D0#00001000100000FA
(1675219112.073299) can0 024#020301FF62057F17
(1675219112.074586) can0 442#4002000000000000
(1675219112.074722) can0 2C4#0323001A088021B7
(1675219112.078555) can0 0B0#000000001107
(1675219112.078568) can0 0B2#000000001107
(1675219112.078746) can0 223#0400000000000031
(1675219112.083028) can0 2C1#0803660241DB005A
(1675219112.084876) can0 020#000007
(1675219112.084880) can0 0B4#00000000E000009C
(1675219112.084883) can0 024#020301FF62057F17
(1675219112.086289) can0 025#00A60FC31E64789F
(1675219112.090659) can0 260#0F00000000000079
(1675219112.090667) can0 0B0#000000001108
(1675219112.090729) can0 0B2#000000001108
(1675219112.091134) can0 224#20000000003D0008
(1675219112.091779) can0 235#00000000003D
(1675219112.096425) can0 020#000007
(1675219112.096431) can0 0B4#00000000E000009C
(1675219112.096954) can0 025#00A80FC3286E78B5
(1675219112.098553) can0 024#020301FF62047F16
(1675219112.098557) can0 2C4#0324001A088021B8
(1675219112.102649) can0 0B0#000000001109
(1675219112.102658) can0 0B2#000000001109
(1675219112.102662) can0 223#0400000000000031
(1675219112.105086) can0 2D0#00001000100000FA
(1675219112.109120) can0 020#000007
(1675219112.109126) can0 0B4#00000000E000009C
(1675219112.110356) can0 025#00A90FC33C3C7898
(1675219112.110360) can0 024#020401FF6206801A
(1675219112.111772) can0 260#0F00000000000079
(1675219112.113866) can0 351#00000000
(1675219112.115050) can0 0B0#00000000110A
(1675219112.115058) can0 0B2#00000000110A
(1675219112.115062) can0 224#20000000003D0008
(1675219112.115212) can0 235#00000000003D
(1675219112.116474) can0 2C1#0803810245DC007A
(1675219112.120714) can0 020#000007
(1675219112.120722) can0 0B4#00000000E000009C
(1675219112.120998) can0 025#00AB0FC314507886
(1675219112.121753) can0 024#020401FF6206801A
(1675219112.121757) can0 2C4#0326001A088021BA
(1675219112.123563) can0 4C7#0800012100000000
(1675219112.126415) can0 0B0#00000000110B
(1675219112.126725) can0 0B2#00000000110B
(1675219112.126726) can0 223#0400000000000031
(1675219112.130520) can0 260#0F00000000000079
(1675219112.132935) can0 020#000007
(1675219112.134482) can0 0B4#00000000E000009C
(1675219112.135712) can0 024#020301FF62068019
(1675219112.136288) can0 025#00AD0FC31E6478A6
(1675219112.137088) can0 2D0#00001000100000FA
(1675219112.138554) can0 0B0#00000000110C
(1675219112.138936) can0 0B2#00000000110C
(1675219112.138942) can0 224#20000000003D0008
(1675219112.140478) can0 235#00000000003D
(1675219112.144970) can0 020#000007
(1675219112.144978) can0 0B4#00000000E000009C
(1675219112.144983) can0 025#00AF0FC3327878D0
(1675219112.145358) can0 024#020301FF62058018
(1675219112.145588) can0 2C4#032C001A088021C0
(1675219112.146773) can0 2C1#08037A024ADB0077
(1675219112.150895) can0 260#0F00000000000079
(1675219112.150901) can0 0B0#00000000110D
(1675219112.150904) can0 0B2#00000000110D
(1675219112.152151) can0 223#0400000000000031
(1675219112.156562) can0 020#000007
(1675219112.156569) can0 0B4#00000000E000009C
(1675219112.157401) can0 025#00B00FC33C3C789F
(1675219112.157634) can0 024#020301FF62048017
(1675219112.162276) can0 3A0#004D000000000020
(1675219112.162886) can0 0B0#00000000110E
(1675219112.162890) can0 0B2#00000000110E
(1675219112.163053) can0 224#20000000003D0008
(1675219112.164368) can0 235#00000000003D
(1675219112.165780) can0 620#1000025DF0402000
(1675219112.168930) can0 2D0#00001000100000FA
(1675219112.168940) can0 020#000007
(1675219112.168943) can0 0B4#00000000E000009C
(1675219112.169256) can0 025#00B20FC30A507883
(1675219112.169611) can0 2C4#032E001A088021C2
(1675219112.169747) can0 024#020301FF62058018
(1675219112.170218) can0 440#4202000001000000
(1675219112.170224) can0 260#0F00000000000079
(1675219112.170428) can0 351#00000000
(1675219112.174770) can0 0B0#00000000110F
(1675219112.174836) can0 0B2#00000000110F
(1675219112.175079) can0 223#0400000000000031
(1675219112.178585) can0 2C1#080362024BDB0060
(1675219112.181305) can0 020#000007
(1675219112.181900) can0 0B4#00000000E000009C
(1675219112.181903) can0 025#00B40FC31E6478AD
(1675219112.184756) can0 024#020301FE62068018
(1675219112.186947) can0 0B0#000000001100
(1675219112.186955) can0 0B2#000000001100
(1675219112.186959) can0 224#20000000003D0008
(1675219112.187175) can0 235#00000000003D
(1675219112.187551) can0 3B7#0000800000000000
(1675219112.190773) can0 260#0F00000000000079
(1675219112.192664) can0 4DC#1D00030200000000
(1675219112.192666) can0 2C4#0331001A088021C5
(1675219112.193109) can0 020#000007
(1675219112.193542) can0 0B4#00000000E000009C
(1675219112.193548) can0 024#020301FF62058018
(1675219112.193552) can0 025#00B60FC3328282EB
(1675219112.194827) can0 3B4#0000AAB001400000
(1675219112.198838) can0 0B0#000000001101
(1675219112.199079) can0 0B2#000000001101
(1675219112.199679) can0 223#0400000000000031
(1675219112.200243) can0 2D0#00001000100000FA
(1675219112.200249) can0 622#1200E83000000000
(1675219112.202101) can0 38C#0000000000000037
(1675219112.205010) can0 020#000007
(1675219112.205420) can0 0B4#00000000E000009C
(1675219112.205427) can0 024#020301FF62058018
(1675219112.205589) can0 025#00B70FC3464678BA
(1675219112.210144) can0 2C1#080364024CDB0063
(1675219112.210308) can0 260#0F00000000000079
(1675219112.210687) can0 0B0#000000001102
(1675219112.211181) can0 0B2#000000001102
(1675219112.211188) can0 224#20000000003D0008
(1675219112.211375) can0 235#00000000003D
(1675219112.216628) can0 2C4#0333001A088021C7
(1675219112.216633) can0 020#000007
(1675219112.216889) can0 0B4#00000000E000009C
(1675219112.217569) can0 025#00B90FC3145A789E
(1675219112.217574) can0 024#020301FF62048017
(1675219112.222925) can0 0B0#000000001103
(1675219112.222932) can0 0B2#000000001103
(1675219112.223860) can0 223#0400000000000031
(1675219112.228971) can0 020#000007
(1675219112.229575) can0 0B4#00000000E000009C
(1675219112.229578) can0 025#00BB0FC3287878D2
(1675219112.229882) can0 024#020301FE62058017
(1675219112.230331) can0 260#0F00000000000079
(1675219112.230334) can0 351#00000000
(1675219112.231592) can0 2D0#00001000100000FA
(1675219112.232122) can0 3B0#0000002A0000
(1675219112.234934) can0 0B0#000000001104
(1675219112.234942) can0 0B2#000000001104
(1675219112.235209) can0 224#20000000003C0008
(1675219112.235530) can0 235#00000000003D
(1675219112.239842) can0 2C4#0332001A088021C6
(1675219112.241237) can0 020#000007
(1675219112.241246) can0 0B4#00000000E000009C
(1675219112.241493) can0 024#020301FE62068018
(1675219112.241747) can0 025#00BC0FC3464678BF
(1675219112.243030) can0 2C1#08034E0251DA0051
(1675219112.247005) can0 0B0#000000001105
(1675219112.247013) can0 0B2#000000001105
(1675219112.247305) can0 223#0400000000000031
(1675219112.249020) can0 3B1#0000002400000000
(1675219112.249025) can0 394#00
(1675219112.250580) can0 260#0F00000000000079
(1675219112.253027) can0 020#000007
(1675219112.253081) can0 0B4#00000000E000009C
(1675219112.253472) can0 024#020301FE62068018
(1675219112.253785) can0 025#00BE0FC3146478AD
(1675219112.259083) can0 0B0#000000001106
(1675219112.259090) can0 0B2#000000001106
(1675219112.259466) can0 224#2000000000390008
(1675219112.259472) can0 235#00000000003D
(1675219112.262262) can0 3A0#004D00000000001F
(1675219112.263583) can0 2D0#00001000100000FA
(1675219112.265007) can0 2C4#0334001A088021C8
(1675219112.265013) can0 442#4002000000000000
(1675219112.265286) can0 020#000007
(1675219112.265604) can0 0B4#00000000E000009C
(1675219112.265611) can0 025#00C00FC3327878E1
(1675219112.266503) can0 024#020201FE62058117
(1675219112.270938) can0 260#0F00000000000079
(1675219112.270946) can0 0B0#000000001107
(1675219112.271101) can0 0B2#000000001107
(1675219112.272242) can0 223#0400000000000031
(1675219112.273532) can0 2C1#080355025DDA0064
(1675219112.277121) can0 020#000007
(1675219112.277127) can0 0B4#00000000E000009C
(1675219112.277489) can0 025#00C10FC3464678C4
(1675219112.278039) can0 024#020301FE62048016
(1675219112.283290) can0 0B0#000000001108
(1675219112.283296) can0 0B2#000000001108
(1675219112.283597) can0 224#2000000000390008
(1675219112.284560) can0 235#00000000003D
(1675219112.287008) can0 2C4#0336001A088021CA
(1675219112.289234) can0 020#000007
(1675219112.289240) can0 0B4#00000000E000009C
(1675219112.289536) can0 024#020301FE62048016
(1675219112.290626) can0 025#00C30FC30A507894
(1675219112.290630) can0 260#0F00000000000079
(1675219112.290634) can0 351#00000000
(1675219112.292348) can0 380#200808000000FB00
(1675219112.295366) can0 2D0#00001000100000FA
(1675219112.295372) can0 0B0#000000001109
(1675219112.296931) can0 0B2#000000001109
(1675219112.298577) can0 223#0400000000000031
(1675219112.301266) can0 020#000007
(1675219112.301273) can0 0B4#00000000E000009C
(1675219112.301495) can0 025#00C50FC3145A78AA
(1675219112.301751) can0 024#020301FE62068018
(1675219112.305488) can0 2C1#080357025CDA0065
(1675219112.307268) can0 0B0#00000000110A
(1675219112.307274) can0 0B2#00000000110A
(1675219112.307646) can0 224#2000000000370008
(1675219112.307804) can0 235#00000000003D
(1675219112.310673) can0 2C4#0339001A088021CD
(1675219112.310679) can0 260#0F00000000000079
(1675219112.313212) can0 020#000007
(1675219112.313218) can0 0B4#00000000E000009C
(1675219112.313637) can0 025#00C70FC31E6478C0
(1675219112.314408) can0 024#020301FD62058016
(1675219112.319610) can0 0B0#00000000110B
(1675219112.319615) can0 0B2#00000000110B
(1675219112.320274) can0 223#0400000000000031
(1675219112.322521) can0 3A1#0000000000FF0000
(1675219112.325515) can0 020#000007
(1675219112.325798) can0 0B4#00000000E000009C
(1675219112.326180) can0 025#00C90FC3286478CC
(1675219112.326588) can0 024#020301FD62058016
(1675219112.326632) can0 2D0#00001000100000FA
(1675219112.331293) can0 260#0F00000000000079
(1675219112.331301) can0 0B0#00000000110C
(1675219112.331838) can0 0B2#00000000110C
(1675219112.331844) can0 224#2000000000330008
(1675219112.332047) can0 235#00000000003D
(1675219112.334059) can0 2C4#033F001A088021D3
(1675219112.337685) can0 2C1#08035C025CDA006A
(1675219112.337691) can0 020#000007
(1675219112.338629) can0 0B4#00000000E000009C
(1675219112.339895) can0 025#00CB0FC3326E78E2
(1675219112.341008) can0 024#020301FD62058016
(1675219112.342285) can0 383#0000000000000000
(1675219112.343702) can0 0B0#00000000110D
(1675219112.343712) can0 0B2#00000000110D
(1675219112.343717) can0 223#0400000000000031
(1675219112.349817) can0 020#000007
(1675219112.349824) can0 0B4#00000000E000009C
(1675219112.350021) can0 025#00CD0FC3286478D0
(1675219112.350375) can0 024#020301FE62047F15
(1675219112.350786) can0 260#0F00000000000079
(1675219112.350795) can0 351#00000000
(1675219112.351925) can0 4C8#0900010200000000
(1675219112.356067) can0 0B0#00000000110E
(1675219112.356073) can0 0B2#00000000110E
(1675219112.357807) can0 224#2000000000300008
(1675219112.358539) can0 235#00000000003D
(1675219112.359414) can0 2C4#0341001A088021D5
(1675219112.360297) can0 2D0#00001000100000FA
(1675219112.361170) can0 440#4202000001000000
(1675219112.361469) can0 020#000007
(1675219112.361475) can0 0B4#00000000E000009C
(1675219112.361823) can0 025#00CF0FC3285A78C8
(1675219112.362983) can0 024#020301FD62058016
(1675219112.362985) can0 3A0#004D00000000001F
(1675219112.367816) can0 0B0#00000000110F
(1675219112.367824) can0 0B2#00000000110F
(1675219112.367829) can0 223#0400000000000031
(1675219112.368764) can0 2C1#08035E0262DA0072
(1675219112.370738) can0 260#0F00000000000079
(1675219112.373589) can0 020#000007
(1675219112.373596) can0 0B4#00000000E000009C
(1675219112.373904) can0 025#00D10FC31E5A78C0
(1675219112.374292) can0 024#020401FB62068016
(1675219112.379987) can0 0B0#000000001100
(1675219112.380005) can0 0B2#000000001100
(1675219112.380011) can0 224#20000000002D0008
(1675219112.381127) can0 235#00000000003D
(1675219112.383335) can0 2C4#0345001A088021D9
(1675219112.385762) can0 020#000007
(1675219112.385768) can0 0B4#00000000E000009C
(1675219112.386845) can0 025#00D30FC31E5078B8
(1675219112.386851) can0 024#020401FC62058016
(1675219112.390304) can0 2D0#00001000100000FA
(1675219112.390309) can0 260#0F00000000000079
(1675219112.392135) can0 0B0#000000001101
(1675219112.393517) can0 0B2#000000001101
(1675219112.395754) can0 223#0400000000000031
(1675219112.395761) can0 610#20000064C0FFFEE0
(1675219112.397343) can0 020#000007
(1675219112.397768) can0 0B4#00000000E000009C
(1675219112.398085) can0 025#00D60FC3147878D9
(1675219112.398091) can0 024#020401FD62058017
(1675219112.400409) can0 2C1#0803570257DA0060
(1675219112.403823) can0 0B0#000000001102
(1675219112.404144) can0 0B2#000000001102
(1675219112.404641) can0 224#20000000002D0008
(1675219112.405021) can0 235#00000000003D
(1675219112.406212) can0 2C4#033E001A088021D2
(1675219112.409842) can0 020#000007
(1675219112.409853) can0 0B4#00000000E000009C
(1675219112.409857) can0 025#00D80FC3326E78EF
(1675219112.410151) can0 024#020401FD62048016
(1675219112.410450) can0 260#0F00000000000079
(1675219112.411228) can0 351#00000000
(1675219112.415752) can0 0B0#000000001103
(1675219112.416224) can0 0B2#000000001103
(1675219112.416228) can0 223#0400000000000031
(1675219112.417448) can0 4C3#0300120100000000
(1675219112.421897) can0 020#000007
(1675219112.421905) can0 0B4#00000000E000009C
(1675219112.422172) can0 025#00DA0FC3285A78D3
(1675219112.422516) can0 2D0#00001000100000FA
(1675219112.423519) can0 024#020401FC62068017
(1675219112.427718) can0 423#00
(1675219112.427794) can0 0B0#000000001104
(1675219112.428157) can0 0B2#000000001104
(1675219112.428376) can0 224#2000000000290008
(1675219112.428378) can0 235#00000000003D
(1675219112.429489) can0 2C4#0340001A088021D4
(1675219112.430607) can0 260#0F00000000000079
(1675219112.432737) can0 2C1#08036A0254DB0071
(1675219112.433675) can0 020#000007
(1675219112.433681) can0 0B4#00000000E000009C
(1675219112.434033) can0 025#00DC0FC31E5078C1
(1675219112.434925) can0 024#020401FB62068016
(1675219112.439947) can0 0B0#000000001105
(1675219112.439952) can0 0B2#000000001105
(1675219112.441244) can0 223#000000000000002D
(1675219112.445855) can0 020#000007
(1675219112.445863) can0 0B4#00000000E000009C
(1675219112.445958) can0 025#00DF0FC30A7878D8
(1675219112.446169) can0 024#020401FB62068016
(1675219112.450649) can0 260#0F00000000000079
(1675219112.452078) can0 0B0#000000001106
(1675219112.452084) can0 0B2#000000001106
(1675219112.452086) can0 224#2000000000260008
(1675219112.452426) can0 235#00000000003D
(1675219112.453572) can0 2C4#0340001A088021D4
(1675219112.453577) can0 2D0#00001000100000FA
(1675219112.455080) can0 442#4002000000000000
(1675219112.458146) can0 020#000007
(1675219112.458153) can0 0B4#00000000E000009C
(1675219112.458154) can0 025#00E10FC3326E78F8
(1675219112.459439) can0 024#020401FC62068017
(1675219112.462266) can0 3A0#004D00000000001F
(1675219112.463768) can0 0B0#000000001107
(1675219112.463826) can0 0B2#000000001107
(1675219112.464210) can0 223#000000000000002D
(1675219112.464215) can0 2C1#080361024ADB005E
(1675219112.465504) can0 620#1000025DF0402000
(1675219112.470791) can0 020#000007
(1675219112.470797) can0 0B4#00000000E000009C
(1675219112.470798) can0 025#00E30FC3285A78DC
(1675219112.471608) can0 260#0F00000000000079
(1675219112.473789) can0 024#020401FC62058016
(1675219112.475921) can0 351#00000000
(1675219112.475927) can0 2C4#0341001A088021D5
(1675219112.476148) can0 0B0#000000001108
(1675219112.477130) can0 0B2#000000001108
(1675219112.479204) can0 224#2000000000230008
(1675219112.481627) can0 235#00000000003D
(1675219112.481637) can0 4C6#0700010000000000
(1675219112.482669) can0 020#000007
(1675219112.482673) can0 0B4#00000000E000009C
(1675219112.482675) can0 025#00E60FC3148282FD
(1675219112.484053) can0 024#020401FB62068016
(1675219112.485832) can0 2D0#00001000100000FA
(1675219112.488309) can0 0B0#000000001109
(1675219112.488317) can0 0B2#000000001109
(1675219112.488319) can0 223#000000000000002D
(1675219112.489973) can0 3B7#0000800000000000
(1675219112.491454) can0 260#0F00000000000079
(1675219112.493793) can0 020#000007
(1675219112.493799) can0 0B4#00000000E000009C
(1675219112.494233) can0 024#020401FB62078017
(1675219112.494516) can0 025#00E80FC3326E78FF
(1675219112.495875) can0 2C1#08036C024FDB006E
(1675219112.499107) can0 2C4#0345001A088021D9
(1675219112.500030) can0 0B0#00000000110A
(1675219112.500036) can0 0B2#00000000110A
(1675219112.500040) can0 224#2000000000230008
(1675219112.500414) can0 235#00000000003D
(1675219112.505853) can0 020#000007
(1675219112.506637) can0 0B4#00000000E000009C
(1675219112.506644) can0 024#020401FB62068016
(1675219112.506647) can0 025#00EA0FC3285A78E3
(1675219112.510614) can0 260#0F00000000000079
(1675219112.511841) can0 0B0#00000000110B
(1675219112.512080) can0 0B2#00000000110B
(1675219112.512375) can0 223#000000000000002D
(1675219112.517193) can0 2D0#00001000100000FA
(1675219112.518046) can0 020#000007
(1675219112.518050) can0 0B4#00000000E000009C
(1675219112.518693) can0 025#00EC0FC3145078C7
(1675219112.518696) can0 024#020401FB62068016
(1675219112.522602) can0 2C4#0347001A088021DB
(1675219112.524069) can0 0B0#00000000110C
(1675219112.524076) can0 0B2#00000000110C
(1675219112.524560) can0 224#2000000000200008
(1675219112.524566) can0 235#00000000003D
(1675219112.525626) can0 623#1900000000000000
(1675219112.527808) can0 2C1#0803540250DA0056
(1675219112.530000) can0 020#000007
(1675219112.530006) can0 0B4#00000000E000009C
(1675219112.530633) can0 260#0F00000000000079
(1675219112.530637) can0 025#00EF0FC30A7878E8
(1675219112.531012) can0 024#020401FB62068016
(1675219112.531018) can0 351#00000000
(1675219112.535436) can0 624#1A00414949400000
(1675219112.535925) can0 0B0#00000000110D
(1675219112.535930) can0 0B2#00000000110D
(1675219112.536431) can0 223#000000000000002D
(1675219112.542407) can0 020#000007
(1675219112.542409) can0 0B4#00000000E000009C
(1675219112.542605) can0 024#020401FB62078017
(1675219112.543921) can0 025#00F10FC33C6E7812
(1675219112.546054) can0 2C4#0346001A088021DA
(1675219112.548162) can0 0B0#00000000110E
(1675219112.548170) can0 0B2#00000000110E
(1675219112.548174) can0 224#20000000001E0008
(1675219112.548608) can0 235#00000000003D
(1675219112.549047) can0 2D0#00001000100000FA
(1675219112.549052) can0 394#00
(1675219112.550638) can0 440#4202000001000000
(1675219112.550643) can0 260#0F00000000000079
(1675219112.554575) can0 020#000007
(1675219112.554586) can0 0B4#00000000E000009C
(1675219112.554591) can0 024#020401FA62088017
(1675219112.555476) can0 025#00F30FC332647800
(1675219112.558047) can0 3B3#034A28
(1675219112.559190) can0 2C1#08034F0249DA004A
(1675219112.559978) can0 0B0#00000000110F
(1675219112.559980) can0 0B2#00000000110F
(1675219112.560152) can0 223#000000000000002D
(1675219112.560541) can0 630#1700000000000000
(1675219112.561662) can0 3A0#004D00000000001F
(1675219112.566458) can0 020#000007
(1675219112.566466) can0 0B4#00000000E000009C
(1675219112.566709) can0 025#00F50FC31E5A78E4
(1675219112.568134) can0 024#020401FA62088017
(1675219112.569549) can0 2C4#034C001A088021E0
(1675219112.570584) can0 260#0F00000000000079
(1675219112.572108) can0 0B0#000000001100
(1675219112.572114) can0 0B2#000000001100
(1675219112.572513) can0 224#20000000001E0008
(1675219112.572520) can0 235#00000000003D
(1675219112.578108) can0 020#000007
(1675219112.578481) can0 0B4#00000000E000009C
(1675219112.578486) can0 025#00F70FC3144678C8
(1675219112.579509) can0 024#020401FA62088017
(1675219112.581000) can0 2D0#00001000100000FA
(1675219112.584454) can0 0B0#000000001101
(1675219112.584460) can0 0B2#000000001101
(1675219112.585521) can0 223#000000000000002D
(1675219112.590369) can0 020#000007
(1675219112.590378) can0 0B4#00000000E000009C
(1675219112.590381) can0 024#020401FA62078016
(1675219112.591070) can0 025#00FA0FC30A7878F3
(1675219112.591075) can0 260#0F00000000000079
(1675219112.591288) can0 2C1#08032F025CD9003C
(1675219112.592838) can0 351#00000000
(1675219112.592840) can0 2C4#0347001A088021DB
(1675219112.596536) can0 0B0#000000001102
(1675219112.596542) can0 0B2#000000001102
(1675219112.597456) can0 224#20000000001A0008
(1675219112.598105) can0 235#00000000003D
(1675219112.602177) can0 020#000007
(1675219112.602179) can0 0B4#00000000E000009C
(1675219112.602413) can0 025#00FC0FC3326E7813
(1675219112.602789) can0 024#020401F962088016
(1675219112.608198) can0 0B0#000000001103
(1675219112.608204) can0 0B2#000000001103
(1675219112.608631) can0 223#000000000000002D
(1675219112.610549) can0 260#0F00000000000079
(1675219112.612443) can0 2D0#00001000100000FA
(1675219112.614026) can0 020#000007
(1675219112.614231) can0 0B4#00000000E000009C
(1675219112.614556) can0 025#00FE0FC33264780B
(1675219112.614970) can0 024#020401F962088016
(1675219112.616801) can0 2C4#0349001A088021DD
(1675219112.620426) can0 0B0#000000001104
(1675219112.620433) can0 0B2#000000001104
(1675219112.620876) can0 224#2000000000180008
(1675219112.621310) can0 235#00000000003D
(1675219112.622979) can0 2C1#0803670253DB006D
(1675219112.626773) can0 020#000007
(1675219112.626779) can0 0B4#00000000E000009C
(1675219112.626782) can0 025#01000FC3285A78FA
(1675219112.627186) can0 024#020401FA62098119
(1675219112.630631) can0 260#0F00000000000079
(1675219112.632676) can0 0B0#000000001105
(1675219112.632683) can0 0B2#000000001105
(1675219112.632686) can0 223#000000000000002D
(1675219112.638466) can0 020#000007
(1675219112.638475) can0 0B4#00000000E000009C
(1675219112.639561) can0 025#01020FC31E5A78F2
(1675219112.639564) can0 024#020501FA62088018
(1675219112.639944) can0 2C4#0346001A088021DA
(1675219112.644460) can0 2D0#00001000100000FA
(1675219112.644469) can0 0B0#000000001106
(1675219112.644971) can0 0B2#000000001106
(1675219112.644978) can0 224#2000000000170008
(1675219112.645315) can0 235#00000000003D
(1675219112.645321) can0 442#4002000000000000
(1675219112.650786) can0 020#000007
(1675219112.650788) can0 0B4#00000000E000009C
(1675219112.651327) can0 024#020501FA62078017
(1675219112.651334) can0 025#01040FC31E5A78F4
(1675219112.651338) can0 260#0F00000000000079
(1675219112.652837) can0 351#00000000
(1675219112.654807) can0 2C1#08037A026ADB0097
(1675219112.657030) can0 398#015E
(1675219112.657035) can0 0B0#000000001107
(1675219112.658231) can0 0B2#000000001107
(1675219112.659403) can0 223#000000000000002D
(1675219112.661882) can0 3A0#004D00000000001F
(1675219112.662553) can0 020#000007
(1675219112.662556) can0 0B4#00000000E000009C
(1675219112.662777) can0 025#01060FC31E647800
(1675219112.663119) can0 024#020501F962088017
(1675219112.663698) can0 2C4#0344001A088021D8
(1675219112.668809) can0 0B0#000000001108
(1675219112.668815) can0 0B2#000000001108
(1675219112.669124) can0 224#2000000000150008
(1675219112.670489) can0 235#00000000003D
(1675219112.670495) can0 260#0F00000000000079
(1675219112.674768) can0 020#000007
(1675219112.674777) can0 0B4#00000000E000009C
(1675219112.674907) can0 025#01080FC3285A7802
(1675219112.675242) can0 024#020501F962088017
(1675219112.675894) can0 2D0#00001000100000FA
(1675219112.681055) can0 0B0#000000001109
(1675219112.683121) can0 0B2#000000001109
(1675219112.685119) can0 223#000000000000002D
(1675219112.686455) can0 2C1#080323025CD90030
(1675219112.686457) can0 020#000007
(1675219112.687012) can0 0B4#00000000E000009C
(1675219112.687015) can0 025#010A0FC31E5A78FA
(1675219112.687561) can0 2C4#034C001A088021E0
(1675219112.687565) can0 024#020501F962088017
(1675219112.690773) can0 260#0F00000000000079
(1675219112.693030) can0 0B0#00000000110A
(1675219112.693035) can0 0B2#00000000110A
(1675219112.694282) can0 224#2000000000150008
(1675219112.696341) can0 235#00000000003D
(1675219112.698940) can0 020#000007
(1675219112.698947) can0 0B4#00000000E000009C
(1675219112.698951) can0 024#020501F962088017
(1675219112.699131) can0 025#010C0FC31E5A78FC
(1675219112.700531) can0 621#1100000000000000
(1675219112.705119) can0 0B0#00000000110B
(1675219112.707049) can0 0B2#00000000110B
(1675219112.708404) can0 223#000000000000002D
(1675219112.710875) can0 2D0#00001000100000FA
(1675219112.710885) can0 260#0F00000000000079
(1675219112.710889) can0 020#000007
(1675219112.711137) can0 0B4#00000000E000009C
(1675219112.711631) can0 2C4#034D001A088021E1
(1675219112.711634) can0 024#020501F962078016
(1675219112.711636) can0 025#010E0FC31E5A8208
(1675219112.713414) can0 351#00000000
(1675219112.717255) can0 0B0#00000000110C
(1675219112.717261) can0 0B2#00000000110C
(1675219112.717892) can0 224#2000000000120008
(1675219112.718330) can0 235#00000000003D
(1675219112.720457) can0 2C1#0803660258DB0071
(1675219112.722958) can0 020#000007
(1675219112.722963) can0 0B4#00000000E000009C
(1675219112.723426) can0 025#01100FC30A506ED8
(1675219112.723429) can0 024#020501F962088118
(1675219112.728775) can0 0B0#00000000110D
(1675219112.729137) can0 0B2#00000000110D
(1675219112.730085) can0 223#000000000000002D
(1675219112.731476) can0 260#0F00000000000079
(1675219112.734336) can0 2C4#0351001A088021E5
(1675219112.734906) can0 020#000007
(1675219112.734912) can0 0B4#00000000E000009C
(1675219112.735594) can0 025#01120FC3145082F8
(1675219112.735773) can0 024#020501F862088016
(1675219112.739619) can0 2D0#00001000100000FA
(1675219112.741595) can0 0B0#00000000110E
(1675219112.743425) can0 0B2#00000000110E
(1675219112.743426) can0 224#20000000000F0008
(1675219112.744846) can0 235#00000000003D
(1675219112.746060) can0 440#4202000001000000
(1675219112.746832) can0 020#000007
(1675219112.746837) can0 0B4#00000000E000009C
(1675219112.747536) can0 025#01150FC30A78780F
(1675219112.747900) can0 024#020501F762077F13
(1675219112.749659) can0 2C1#08032C0274D90051
(1675219112.750401) can0 260#0F00000000000079
(1675219112.752948) can0 0B0#00000000110F
(1675219112.753201) can0 0B2#00000000110F
(1675219112.753205) can0 223#000000000000002D
(1675219112.758162) can0 2C4#0356001A088021EA
(1675219112.758985) can0 020#000007
(1675219112.758988) can0 0B4#00000000E000009C
(1675219112.759495) can0 024#020601F862078016
(1675219112.760695) can0 025#01170FC33C787843
(1675219112.761885) can0 3A0#004D00000000001E
(1675219112.765075) can0 0B0#000000001100
(1675219112.765431) can0 0B2#000000001100
(1675219112.765487) can0 224#20000000000F0008
(1675219112.766016) can0 235#00000000003D
(1675219112.767543) can0 620#1000025DF0402000
(1675219112.770863) can0 260#0F00000000000079
(1675219112.770869) can0 020#000007
(1675219112.771026) can0 0B4#00000000E000009C
(1675219112.771432) can0 2D0#00001000100000FA
(1675219112.771980) can0 024#020601F862078016
(1675219112.772198) can0 025#01190FC33C787845
(1675219112.773399) can0 351#00000000
(1675219112.777215) can0 0B0#000000001101
(1675219112.777457) can0 0B2#000000001101
(1675219112.778142) can0 223#000000000000002D
(1675219112.781830) can0 2C1#08031D0262D8002F
(1675219112.783084) can0 2C4#0352001A088021E6
(1675219112.783092) can0 020#000007
(1675219112.783654) can0 0B4#00000000E000009C
(1675219112.783661) can0 025#011B0FC33C787847
(1675219112.784320) can0 024#020601F762078015
(1675219112.787927) can0 4C1#0100090000000000
(1675219112.789201) can0 0B0#000000001102
(1675219112.789206) can0 0B2#000000001102
(1675219112.789535) can0 224#20000000000F0008
(1675219112.789814) can0 235#00000000003D
(1675219112.790458) can0 3B7#0000800000000000
(1675219112.790463) can0 260#0F00000000000079
(1675219112.795270) can0 020#000007
(1675219112.795295) can0 0B4#00000000E000009C
(1675219112.795594) can0 025#011C0FC33C3C780C
(1675219112.796281) can0 024#020601F762088016
(1675219112.801206) can0 0B0#000000001103
(1675219112.801219) can0 0B2#000000001103
(1675219112.801386) can0 223#000000000000002D
(1675219112.802833) can0 2D0#00001000100000FA
(1675219112.804986) can0 2C4#0355001A088021E9
(1675219112.807182) can0 020#000007
(1675219112.807194) can0 0B4#00000000E000009C
(1675219112.807197) can0 024#020601F762088016
(1675219112.807696) can0 025#011E0FC30A4678E6
(1675219112.810577) can0 260#0F00000000000079
(1675219112.813180) can0 0B0#000000001104
(1675219112.813187) can0 0B2#000000001104
(1675219112.813452) can0 224#20000000000F0008
(1675219112.813811) can0 235#00000000003D
(1675219112.814689) can0 2C1#080366026EDB0087
(1675219112.819231) can0 020#000007
(1675219112.819237) can0 0B4#00000000E000009C
(1675219112.819685) can0 025#01200FC30A5078F2
(1675219112.820612) can0 024#020701F762088017
(1675219112.825439) can0 0B0#000000001105
(1675219112.826561) can0 0B2#000000001105
(1675219112.826565) can0 223#000000000000002D
(1675219112.828563) can0 2C4#0350001A088021E4
(1675219112.831271) can0 638#1300000000000000
(1675219112.831279) can0 260#0F00000000000079
(1675219112.831284) can0 020#000007
(1675219112.831289) can0 0B4#00000000E000009C
(1675219112.831702) can0 351#00000000
(1675219112.831912) can0 025#01220FC32878783A
(1675219112.832075) can0 024#020701F762078016
(1675219112.834775) can0 2D0#00001000100000FA
(1675219112.837862) can0 0B0#000000001106
(1675219112.837870) can0 0B2#000000001106
(1675219112.837874) can0 224#20000000000C0008
(1675219112.838974) can0 235#00000000003D
(1675219112.843230) can0 020#000007
(1675219112.843581) can0 0B4#00000000E000009C
(1675219112.844513) can0 025#01230FC346467827
(1675219112.844518) can0 024#020701F762088017
(1675219112.844732) can0 442#4002000000000000
(1675219112.844734) can0 2C1#0803250287D9005D
(1675219112.849650) can0 0B0#000000001107
(1675219112.849655) can0 0B2#000000001107
(1675219112.850713) can0 223#000000000000002D
(1675219112.850717) can0 394#00
(1675219112.852152) can0 260#0F00000000000079
(1675219112.852158) can0 2C4#0353001A088021E7
(1675219112.855229) can0 020#000007
(1675219112.855235) can0 0B4#00000000E000009C
(1675219112.855770) can0 024#020701F862098019
(1675219112.856889) can0 025#01250FC31E6E7829
(1675219112.861603) can0 0B0#000000001108
(1675219112.861611) can0 0B2#000000001108
(1675219112.861615) can0 224#20000000000B0008
(1675219112.861875) can0 235#00000000003D
(1675219112.862331) can0 3A0#004D00000000001E
(1675219112.866830) can0 2D0#00001000100000FA
(1675219112.867565) can0 020#000007
(1675219112.867572) can0 0B4#00000000E000009C
(1675219112.867963) can0 025#01260FC34646782A
(1675219112.867995) can0 024#020701F862088018
(1675219112.870625) can0 260#0F00000000000079
(1675219112.873469) can0 0B0#000000001109
(1675219112.873820) can0 0B2#000000001109
(1675219112.874793) can0 223#000000000000002D
(1675219112.875678) can0 2C4#035B001A088021EF
(1675219112.876475) can0 2C1#08032D0294D90072
(1675219112.881999) can0 020#000007
(1675219112.882003) can0 0B4#00000000E000009C
(1675219112.883371) can0 025#01270FC3282878EF
(1675219112.885683) can0 024#020701F862088018
(1675219112.885691) can0 0B0#00000000110A
(1675219112.885695) can0 0B2#00000000110A
(1675219112.886049) can0 224#20000000000B0008
(1675219112.886594) can0 235#00000000003D
(1675219112.888702) can0 4DD#1E00000100000000
(1675219112.890699) can0 260#0F00000000000079
(1675219112.891568) can0 020#000007
(1675219112.891577) can0 0B4#00000000E000009C
(1675219112.891785) can0 025#01290FC30A64780F
(1675219112.892654) can0 024#020801F862078018
(1675219112.892660) can0 351#00000000
(1675219112.895155) can0 610#20000064C0FFFEE0
(1675219112.897709) can0 0B0#00000000110B
(1675219112.897714) can0 0B2#00000000110B
(1675219112.898100) can0 223#000000000000002D
(1675219112.899285) can0 2D0#00001000100000FA
(1675219112.899290) can0 2C4#035E001A088021F2
(1675219112.904045) can0 020#000007
(1675219112.904953) can0 0B4#00000000E000009C
(1675219112.906250) can0 025#012A0FC34646782E
(1675219112.907488) can0 024#020801F762088018
(1675219112.908632) can0 2C1#08032B0292D9006E
(1675219112.909608) can0 0B0#00000000110C
(1675219112.909614) can0 0B2#00000000110C
(1675219112.909850) can0 224#20000000000B0008
(1675219112.910167) can0 235#00000000003D
(1675219112.910488) can0 260#0F00000000000079
(1675219112.915808) can0 020#000007
(1675219112.915816) can0 0B4#00000000E000009C
(1675219112.916179) can0 025#012B0FC332327807
(1675219112.916185) can0 024#020801F762098019
(1675219112.921670) can0 0B0#00000000110D
(1675219112.921671) can0 0B2#00000000110D
(1675219112.922124) can0 223#000000000000002D
(1675219112.922752) can0 2C4#035F001A088021F3
(1675219112.928147) can0 020#000007
(1675219112.928155) can0 0B4#00000000E000009C
(1675219112.928157) can0 025#012C0FC332327808
(1675219112.929761) can0 024#020801F762098019
(1675219112.929764) can0 2D0#00001000100000FA
(1675219112.930793) can0 260#0F00000000000079
(1675219112.934334) can0 0B0#00000000110E
(1675219112.934339) can0 0B2#00000000110E
(1675219112.936230) can0 224#2000000000070008
(1675219112.938071) can0 235#00000000003D
(1675219112.940226) can0 020#000007
(1675219112.940653) can0 0B4#00000000E000009C
(1675219112.940814) can0 025#012D0FC31E1E78E1
(1675219112.941504) can0 2C1#08030B02A7D80062
(1675219112.943582) can0 024#020801F86209801A
(1675219112.944855) can0 440#4202000001000000
(1675219112.946052) can0 0B0#00000000110F
(1675219112.946057) can0 0B2#00000000110F
(1675219112.947982) can0 223#000000000000002D
(1675219112.949617) can0 2C4#035F001A088021F3
(1675219112.950675) can0 38A#0800040000
(1675219112.950682) can0 260#0F00000000000079
(1675219112.951541) can0 351#00000000
(1675219112.951545) can0 020#000007
(1675219112.951927) can0 0B4#00000000E000009C
(1675219112.951929) can0 025#012E0FC31E1E78E2
(1675219112.952978) can0 024#020801F762088018
(1675219112.957924) can0 0B0#000000001100
(1675219112.957930) can0 0B2#000000001100
(1675219112.958192) can0 224#2000000000000008
(1675219112.959101) can0 235#00000000003D
(1675219112.961615) can0 3A0#004D00000000001E
(1675219112.962949) can0 2D0#00001000100000FA
(1675219112.964014) can0 020#000007
(1675219112.964019) can0 0B4#00000000E000009C
(1675219112.964614) can0 024#020801F662088017
(1675219112.965325) can0 025#012F0FC31E1E82ED
(1675219112.970651) can0 2C4#0362001A088021F6
(1675219112.970657) can0 0B0#000000001101
(1675219112.971842) can0 0B2#000000001101
(1675219112.971849) can0 223#000000000000002D
(1675219112.972967) can0 260#0F00000000000079
(1675219112.975089) can0 2C1#08031002A9D80069
(1675219112.975862) can0 020#000007
(1675219112.975867) can0 0B4#00000000E000009C
(1675219112.976357) can0 024#020801F662088017
(1675219112.976528) can0 025#01300FC3141478D0
(1675219112.982227) can0 0B0#000000001102
(1675219112.982496) can0 0B2#000000001102
(1675219112.983315) can0 224#2000000000000008
(1675219112.985484) can0 235#00000000003D
(1675219112.988147) can0 020#000007
(1675219112.988153) can0 0B4#00000000E000009C
(1675219112.988697) can0 025#01310FC3282878F9
(1675219112.988701) can0 024#020801F662088017
(1675219112.991093) can0 260#0F00000000000079
(1675219112.993695) can0 2D0#00001000100000FA
(1675219112.993706) can0 2C4#0363001A088021F7
(1675219112.993969) can0 0B0#000000001103
(1675219112.994282) can0 0B2#000000001103
(1675219112.995441) can0 223#000000000000002D
(1675219113.000006) can0 020#000007
(1675219113.000011) can0 0B4#00000000E000009C
(1675219113.000757) can0 025#01320FC346467836
(1675219113.001886) can0 024#020801F762088018
(1675219113.003798) can0 2C1#080303029FD80052
(1675219113.005196) can0 611#210010A00002821A
(1675219113.005985) can0 0B0#000000001104
(1675219113.005991) can0 0B2#000000001104
(1675219113.006418) can0 224#2000000000000008
(1675219113.006422) can0 235#00000000003D
(1675219113.010693) can0 260#0F00000000000079
(1675219113.011285) can0 351#00000000
(1675219113.011883) can0 020#000007
(1675219113.012265) can0 0B4#00000000E000009C
(1675219113.012269) can0 024#020901F662088018
(1675219113.012677) can0 025#01330FC36E6E7887
(1675219113.017169) can0 2C4#0362001A088021F6
(1675219113.018265) can0 0B0#000000001105
(1675219113.018267) can0 0B2#000000001105
(1675219113.018270) can0 223#000000000000002D
(1675219113.024099) can0 020#000007
(1675219113.024106) can0 0B4#00000000E000009C
(1675219113.024564) can0 024#020901F662088018
(1675219113.024877) can0 025#01330FC37878789B
(1675219113.025124) can0 2D0#00001000100000FA
(1675219113.030160) can0 0B0#000000001106
(1675219113.030169) can0 0B2#000000001106
(1675219113.030583) can0 224#2000000000000008
(1675219113.030588) can0 235#00000000003D
(1675219113.030826) can0 260#0F00000000000079
(1675219113.034799) can0 442#4002000000000000
(1675219113.035366) can0 2C1#08030D02B5D80072
(1675219113.036004) can0 020#000007
(1675219113.036009) can0 0B4#00000000E000009C
(1675219113.036661) can0 025#01340FC33C3C7824
(1675219113.036977) can0 024#020901F662098019
(1675219113.037298) can0 3B4#0000AAB000400000
(1675219113.040511) can0 2C4#0367001A088021FB
(1675219113.042217) can0 0B0#000000001107
(1675219113.042222) can0 0B2#000000001107
(1675219113.043787) can0 223#000000000000002D
(1675219113.048100) can0 020#000007
(1675219113.048677) can0 0B4#00000000E000009C
(1675219113.049042) can0 025#01340FC37878789C
(1675219113.049052) can0 024#020901F662088018
(1675219113.050722) can0 260#0F00000000000079
(1675219113.054625) can0 0B0#000000001108
(1675219113.054637) can0 0B2#000000001108
(1675219113.054641) can0 224#0000000000000008
(1675219113.055838) can0 235#00000000003D
(1675219113.056981) can0 2D0#00001000100000FA
(1675219113.060399) can0 020#000007
(1675219113.060411) can0 0B4#00000000E000009C
(1675219113.060596) can0 025#01350FC31E1E78E9
(1675219113.061450) can0 024#020901F762087F18
(1675219113.061453) can0 3A0#004D00000000001E
(1675219113.064127) can0 2C4#036D001A08802101
(1675219113.065590) can0 619#2300FFFEE0012580
(1675219113.065593) can0 620#1000025DF0402000
(1675219113.066376) can0 0B0#000000001109
(1675219113.066380) can0 0B2#000000001109
(1675219113.066547) can0 223#000000000000002D
(1675219113.067018) can0 2C1#08030702CBD80082
(1675219113.070207) can0 3B3#037028
(1675219113.070767) can0 260#0F00000000000079
(1675219113.071534) can0 351#00000000
(1675219113.072087) can0 020#000007
(1675219113.072553) can0 0B4#00000000E000009C
(1675219113.072559) can0 024#020A01F76208801A
(1675219113.072718) can0 025#01350FC37878789D
(1675219113.078301) can0 0B0#00000000110A
(1675219113.078307) can0 0B2#00000000110A
(1675219113.078614) can0 224#0000000000000008
(1675219113.079475) can0 235#00000000003D
(1675219113.084800) can0 020#000007
(1675219113.084806) can0 0B4#00000000E000009C
(1675219113.086718) can0 025#01360FC332327812
(1675219113.088698) can0 024#020901F76208811A
(1675219113.088705) can0 2C4#0372001A08802106
(1675219113.090082) can0 2D0#00001000100000FA
(1675219113.090088) can0 0B0#00000000110B
(1675219113.090328) can0 0B2#00000000110B
(1675219113.090771) can0 223#000000000000002D
(1675219113.091542) can0 260#0F00000000000079
(1675219113.094164) can0 3B7#0000800000000000
(1675219113.094168) can0 4C7#0800012100000000
(1675219113.096263) can0 020#000007
(1675219113.096677) can0 0B4#00000000E000009C
(1675219113.096681) can0 025#01360FC37878789E
(1675219113.097055) can0 024#020901F662087F17
(1675219113.099287) can0 2C1#08032702E3D900BB
(1675219113.102863) can0 0B0#00000000110C
(1675219113.102871) can0 0B2#00000000110C
(1675219113.102875) can0 224#0000000000000008
(1675219113.106540) can0 235#00000000003D
(1675219113.108779) can0 020#000007
(1675219113.108788) can0 0B4#00000000E000009C
(1675219113.108793) can0 025#01370FC35050784F
(1675219113.109404) can0 024#020901F662087F17
(1675219113.110575) can0 260#0F00000000000079
(1675219113.111053) can0 2C4#0378001A0880210C
(1675219113.114821) can0 0B0#00000000110D
(1675219113.114827) can0 0B2#00000000110D
(1675219113.114829) can0 223#000000000000002D
(1675219113.120674) can0 2D0#00001000100000FA
(1675219113.120686) can0 020#000007
(1675219113.120689) can0 0B4#00000000E000009C
(1675219113.121833) can0 025#01370FC37878789F
(1675219113.121837) can0 024#020A01F762078019
(1675219113.126565) can0 0B0#00000000110E
(1675219113.126569) can0 0B2#00000000110E
(1675219113.126958) can0 224#0000000000000008
(1675219113.127213) can0 235#00000000003D
(1675219113.130804) can0 440#4202000001000000
(1675219113.130813) can0 260#0F00000000000079
(1675219113.131002) can0 2C1#08031D02EBD800B8
(1675219113.131186) can0 351#00000000
(1675219113.132870) can0 020#000007
(1675219113.132875) can0 0B4#00000000E000009C
(1675219113.133207) can0 025#01370FC37878789F
(1675219113.133954) can0 024#020A01F762078019
(1675219113.135379) can0 2C4#0376001A0880210A
(1675219113.138935) can0 0B0#00000000110F
(1675219113.138943) can0 0B2#00000000110F
(1675219113.138948) can0 223#000000000000002D
(1675219113.145094) can0 020#000007
(1675219113.145102) can0 0B4#00000000E000009C
(1675219113.145328) can0 025#01380FC31E1E78EC
(1675219113.145548) can0 024#020A01F662078018
(1675219113.149431) can0 394#00
(1675219113.151055) can0 0B0#000000001100
(1675219113.151059) can0 0B2#000000001100
(1675219113.151352) can0 224#0000000000000008
(1675219113.152072) can0 235#00000000003D
(1675219113.152077) can0 260#0F00000000000079
(1675219113.153428) can0 2D0#00001000100000FA
(1675219113.156933) can0 020#000007
(1675219113.156940) can0 0B4#00000000E000009C
(1675219113.157489) can0 025#01380FC3787878A0
(1675219113.158049) can0 024#020A01F662078119
(1675219113.158053) can0 2C4#0376001A0880210A
(1675219113.161256) can0 3A0#004D00000000001E
(1675219113.162874) can0 2C1#08034202E5DA00D9
(1675219113.162883) can0 0B0#000000001101
(1675219113.162888) can0 0B2#000000001101
(1675219113.163840) can0 223#000000000000002D
(1675219113.168969) can0 020#000007
(1675219113.168976) can0 0B4#00000000E000009C
(1675219113.169871) can0 025#01390FC332327815
(1675219113.169875) can0 024#020B01F662078019
(1675219113.170548) can0 260#0F00000000000079
(1675219113.175236) can0 0B0#000000001102
(1675219113.175246) can0 0B2#000000001102
(1675219113.175249) can0 224#0000000000000008
(1675219113.175252) can0 235#00000000003D
(1675219113.181267) can0 020#000007
(1675219113.181273) can0 0B4#00000000E000009C
(1675219113.181276) can0 025#01390FC3787878A1
(1675219113.181710) can0 024#020B01F76207801A
(1675219113.183044) can0 2C4#0378001A0880210C
(1675219113.184968) can0 2D0#00001000100000FA
(1675219113.187132) can0 0B0#000000001103
(1675219113.189092) can0 0B2#000000001103
(1675219113.189096) can0 223#000000000000002D
(1675219113.191096) can0 260#0F00000000000079
(1675219113.193130) can0 351#00000000
(1675219113.193552) can0 4DC#1D00030200000000
(1675219113.193557) can0 020#000007
(1675219113.194066) can0 0B4#00000000E000009C
(1675219113.194069) can0 024#020B01F662078019
(1675219113.195566) can0 025#013A0FC33C3C8234
(1675219113.199327) can0 2C1#08034602DCDA00D4
(1675219113.199331) can0 0B0#000000001104
(1675219113.199334) can0 0B2#000000001104
(1675219113.200459) can0 224#0000000000000008
(1675219113.200464) can0 235#00000000003D
(1675219113.201187) can0 622#1200E83000000000
(1675219113.201866) can0 38C#0000000000000037
(1675219113.205198) can0 020#000007
(1675219113.205201) can0 0B4#00000000E000009C
(1675219113.205717) can0 2C4#0375001A08802109
(1675219113.205719) can0 025#013A0FC3787878A2
(1675219113.206353) can0 024#020B01F662078019
(1675219113.211082) can0 260#0F00000000000079
(1675219113.211085) can0 0B0#000000001105
(1675219113.211089) can0 0B2#000000001105
(1675219113.211828) can0 223#000000000000002D
(1675219113.215631) can0 2D0#00001000100000FA
(1675219113.216993) can0 020#000007
(1675219113.216998) can0 0B4#00000000E000009C
(1675219113.217830) can0 025#013B0FC328287803
(1675219113.217835) can0 024#020B01F66208801A
(1675219113.223170) can0 0B0#000000001106
(1675219113.223177) can0 0B2#000000001106
(1675219113.223180) can0 224#0000000000000008
(1675219113.223395) can0 235#00000000003D
(1675219113.224689) can0 442#4002000000000000
(1675219113.225932) can0 2C1#08033A02BFD900AA
(1675219113.229502) can0 2C4#0376001A0880210A
(1675219113.229664) can0 020#000007
(1675219113.230298) can0 0B4#00000000E000009C
(1675219113.230301) can0 025#013B0FC3787878A3
(1675219113.230693) can0 024#020B01F662078019
(1675219113.231769) can0 260#0F00000000000079
(1675219113.231772) can0 3B0#0000002A0000
(1675219113.235286) can0 0B0#000000001107
(1675219113.235292) can0 0B2#000000001107
(1675219113.237331) can0 223#000000000000002D
(1675219113.241134) can0 020#000007
(1675219113.241140) can0 0B4#00000000E000009C
(1675219113.241571) can0 024#020C01F76207801B
(1675219113.242311) can0 025#013C0FC3141478DC
(1675219113.247383) can0 0B0#000000001108
(1675219113.247607) can0 0B2#000000001108
(1675219113.247611) can0 224#0000000000000008
(1675219113.248326) can0 235#00000000003D
(1675219113.249081) can0 2D0#00001000100000FA
(1675219113.251074) can0 3B1#0000002400000000
(1675219113.251079) can0 260#0F00000000000079
(1675219113.252737) can0 2C4#0376001A0880210A
(1675219113.253141) can0 351#00000000
(1675219113.253148) can0 020#000007
(1675219113.253594) can0 0B4#00000000E000009C
(1675219113.253786) can0 025#013D0FC35A5A7869
(1675219113.254924) can0 024#020C01F76207801B
(1675219113.257627) can0 2C1#08035D02B2DA00C1
(1675219113.258975) can0 0B0#000000001109
(1675219113.259294) can0 0B2#000000001109
(1675219113.259431) can0 223#000000000000002D
(1675219113.261304) can0 3A0#004D00000000001E
(1675219113.265083) can0 020#000007
(1675219113.265666) can0 0B4#00000000E000009C
(1675219113.265671) can0 025#013D0FC3787878A5
(1675219113.266014) can0 024#020C01F66207801A
(1675219113.271446) can0 260#0F00000000000079
(1675219113.271457) can0 0B0#00000000110A
(1675219113.271462) can0 0B2#00000000110A
(1675219113.272505) can0 224#0000000000000008
(1675219113.274586) can0 235#00000000003D
(1675219113.275965) can0 2C4#0370001A08802104
(1675219113.277321) can0 020#000007
(1675219113.277332) can0 0B4#00000000E000009C
(1675219113.277333) can0 024#020C01F66207801A
(1675219113.277708) can0 025#013E0FC31E1E78F2
(1675219113.278796) can0 2D0#00001000100000FA
(1675219113.283458) can0 0B0#00000000110B
(1675219113.283463) can0 0B2#00000000110B
(1675219113.284894) can0 223#000000000000002D
(1675219113.289299) can0 020#000007
(1675219113.289302) can0 0B4#00000000E000009C
(1675219113.289306) can0 2C1#08035202A1DA00A5
(1675219113.289743) can0 024#020D01F76207801C
(1675219113.289749) can0 025#013F0FC35A5A786B
(1675219113.290659) can0 260#0F00000000000079
(1675219113.291142) can0 380#200808000000FB00
(1675219113.295661) can0 0B0#00000000110C
(1675219113.295669) can0 0B2#00000000110C
(1675219113.295671) can0 224#0000000000000008
(1675219113.296443) can0 235#00000000003D
(1675219113.299980) can0 2C4#036B001A088021FF
(1675219113.301425) can0 020#000007
(1675219113.301433) can0 0B4#00000000E000009C
(1675219113.301437) can0 025#013F0FC3787878A7
(1675219113.301854) can0 024#020C01F862077F1B
(1675219113.307632) can0 0B0#00000000110D
(1675219113.307637) can0 0B2#00000000110D
(1675219113.308827) can0 223#000000000000002D
(1675219113.311084) can0 260#0F00000000000079
(1675219113.311477) can0 2D0#00001000100000FA
(1675219113.312160) can0 351#00000000
(1675219113.313461) can0 020#000007
(1675219113.313470) can0 0B4#00000000E000009C
(1675219113.314084) can0 025#01400FC31E1E78F4
(1675219113.314087) can0 024#020D01F76207801C
(1675219113.319698) can0 0B0#00000000110E
(1675219113.319707) can0 0B2#00000000110E
(1675219113.319711) can0 224#0000000000000008
(1675219113.320432) can0 235#00000000003D
(1675219113.320436) can0 440#4202000001000000
(1675219113.321214) can0 2C1#080368026BDB0086
(1675219113.321217) can0 3A1#0000000000FF0000
(1675219113.323159) can0 2C4#0366001A088021FA
(1675219113.325628) can0 020#000007
(1675219113.325633) can0 0B4#00000000E000009C
(1675219113.327014) can0 025#01410FC364647881
(1675219113.328305) can0 024#020D01F76207801C
(1675219113.330908) can0 260#0F00000000000079
(1675219113.330969) can0 4C8#0900010200000000
(1675219113.331273) can0 0B0#00000000110F
(1675219113.331626) can0 0B2#00000000110F
(1675219113.331636) can0 223#000000000000002D
(1675219113.337323) can0 020#000007
(1675219113.337550) can0 0B4#00000000E000009C
(1675219113.337872) can0 024#020D01F76206801B
(1675219113.337877) can0 025#01410FC3787878A9
(1675219113.342849) can0 2D0#00001000100000FA
(1675219113.343604) can0 0B0#000000001100
(1675219113.344046) can0 0B2#000000001100
(1675219113.344049) can0 224#0000000000000008
(1675219113.346100) can0 235#00000000003D
(1675219113.346664) can0 2C4#0361001A088021F5
(1675219113.349757) can0 020#000007
(1675219113.349942) can0 0B4#00000000E000009C
(1675219113.349944) can0 025#01410FC3787878A9
(1675219113.350428) can0 024#020D01F76206801B
(1675219113.350434) can0 4C3#0300120100000000
(1675219113.352034) can0 260#0F00000000000079
(1675219113.352769) can0 2C1#080376026DDB0096
(1675219113.355837) can0 0B0#000000001101
(1675219113.355845) can0 0B2#000000001101
(1675219113.356104) can0 223#000000000000002D
(1675219113.361959) can0 3A0#004D00000000001E
(1675219113.362312) can0 020#000007
(1675219113.362923) can0 0B4#00000000E000009C
(1675219113.364879) can0 025#01420FC3141478E2
(1675219113.365989) can0 024#020D01F86206801C
(1675219113.367727) can0 620#1000025DF0402000
(1675219113.367731) can0 0B0#000000001102
(1675219113.367996) can0 0B2#000000001102
(1675219113.369354) can0 224#0000000000000008
(1675219113.369358) can0 235#00000000003D
(1675219113.371094) can0 2C4#035D001A088021F1
(1675219113.372294) can0 260#0F00000000000079
(1675219113.372295) can0 351#00000000
(1675219113.373576) can0 020#000007
(1675219113.373581) can0 0B4#00000000E000009C
(1675219113.373870) can0 025#01420FC3787878AA
(1675219113.374142) can0 2D0#00001000100000FA
(1675219113.374317) can0 024#020E01F76207801D
(1675219113.379920) can0 0B0#000000001103
(1675219113.379930) can0 0B2#000000001103
(1675219113.381275) can0 223#000000000000002D
(1675219113.384647) can0 2C1#080362023DDB0052
(1675219113.385667) can0 020#000007
(1675219113.385671) can0 0B4#00000000E000009C
(1675219113.385927) can0 024#020E01F76207801D
(1675219113.386167) can0 025#01420FC3787878AA
(1675219113.391102) can0 260#0F00000000000079
(1675219113.391699) can0 0B0#000000001104
(1675219113.391700) can0 0B2#005A00001104
(1675219113.392333) can0 224#0000000000000008
(1675219113.392336) can0 235#00000000003D
(1675219113.393800) can0 3B7#0000800000000000
(1675219113.393805) can0 2C4#035B001A088021EF
(1675219113.394920) can0 610#20000064C0FFFEE0
(1675219113.397841) can0 020#000007
(1675219113.397847) can0 0B4#00000000E000009C
(1675219113.398209) can0 025#01420FC3787878AA
(1675219113.399645) can0 024#020E01F76206801C
(1675219113.403725) can0 0B0#005200001105
(1675219113.404054) can0 0B2#006500001105
(1675219113.405109) can0 223#000000000000002D
(1675219113.405978) can0 2D0#00001000100000FA
(1675219113.409741) can0 020#000007
(1675219113.409746) can0 0B4#00000000E000009C
(1675219113.409990) can0 025#01420FC3787878AA
(1675219113.410611) can0 024#020E01F86206801D
(1675219113.411152) can0 260#0F00000000000079
(1675219113.415156) can0 442#4002000000000000
(1675219113.415776) can0 0B0#005C00001106
(1675219113.415781) can0 0B2#006600001106
(1675219113.416466) can0 224#0000000000000008
(1675219113.416468) can0 235#00000000003D
(1675219113.417343) can0 2C1#0803810232DC0067
(1675219113.417347) can0 2C4#035A001A088021EE
(1675219113.422171) can0 020#000007
(1675219113.422742) can0 0B4#00000000E000009C
(1675219113.423765) can0 025#01420FC3787878AA
(1675219113.425834) can0 024#020E01F86206801D
(1675219113.428111) can0 0B0#006000001107
(1675219113.428116) can0 0B2#006700001107
(1675219113.428120) can0 223#000000000000002D
(1675219113.430964) can0 260#0F00000000000079
(1675219113.430970) can0 351#00000000
(1675219113.434057) can0 020#000007
(1675219113.434065) can0 0B4#00000000E000009C
(1675219113.435156) can0 025#01420FC3787878AA
(1675219113.435160) can0 024#020E01F76207811E
(1675219113.435162) can0 423#00
(1675219113.437709) can0 2D0#00001000100000FA
(1675219113.440303) can0 0B0#006000001108
(1675219113.440309) can0 0B2#006700001108
(1675219113.440311) can0 224#0000000000000008
(1675219113.440788) can0 235#00000000003D
(1675219113.441514) can0 2C4#0357001A088021EB
(1675219113.442722) can0 4C6#0700010000000000
(1675219113.445911) can0 020#000007
(1675219113.445918) can0 0B4#00000000E000009C
(1675219113.446208) can0 024#020E01F76207801D
(1675219113.446593) can0 025#01420FC3828282C8
(1675219113.447962) can0 2C1#0803280250D90029
(1675219113.449324) can0 394#00
(1675219113.450788) can0 260#0F00000000000079
(1675219113.452180) can0 0B0#006100001109
(1675219113.452184) can0 0B2#006800001109
(1675219113.453490) can0 223#000000000000002D
(1675219113.457952) can0 020#000007
(1675219113.457953) can0 0B4#00000000E000009C
(1675219113.458640) can0 024#020E01F76207801D
(1675219113.458642) can0 025#01420FC3787878AA
(1675219113.461311) can0 3A0#004D00000000001E
(1675219113.464045) can0 0B0#00610000110A
(1675219113.464054) can0 0B2#00610000110A
(1675219113.464420) can0 224#0000000000000008
(1675219113.464732) can0 235#00000000003D
(1675219113.465958) can0 2C4#0359001A088021ED
(1675219113.470009) can0 2D0#006510001000005F
(1675219113.470014) can0 020#000007
(1675219113.470715) can0 0B4#00000000E000009C
(1675219113.470718) can0 025#01420FC3787878AA
(1675219113.470890) can0 024#020F01F86207801F
(1675219113.472314) can0 260#0F00000000000079
(1675219113.476263) can0 0B0#00620052110B
(1675219113.476269) can0 0B2#00670000110B
(1675219113.476656) can0 223#000000000000002D
(1675219113.479925) can0 2C1#08036B0295DB00B3
(1675219113.481971) can0 020#000007
(1675219113.481977) can0 0B4#00000000E000009C
(1675219113.483104) can0 025#01420FC3787878AA
(1675219113.483108) can0 024#020F01F86207801F
(1675219113.488119) can0 2C4#035B001A088021EF
(1675219113.488128) can0 0B0#0075005E110C
(1675219113.488462) can0 0B2#00650000110C
(1675219113.488706) can0 224#0000000000000008
(1675219113.490090) can0 235#00000000003D
(1675219113.490858) can0 260#0F00000000000079
(1675219113.491467) can0 351#00000000
(1675219113.494295) can0 020#000007
(1675219113.494302) can0 0B4#00000000E000009C
(1675219113.494586) can0 024#020F01F86207801F
(1675219113.495620) can0 025#01420FC3787878AA
(1675219113.500272) can0 0B0#0076005F110D
(1675219113.500277) can0 0B2#00650000110D
(1675219113.500280) can0 223#000000000000002D
(1675219113.501544) can0 2D0#00BD1000100000B7
(1675219113.506028) can0 020#000007
(1675219113.506033) can0 0B4#00000000E000009C
(1675219113.506775) can0 025#01420FC3787878AA
(1675219113.506779) can0 024#020F01F76207801E
(1675219113.510618) can0 440#4202000001000000
(1675219113.511607) can0 260#0F00000000000079
(1675219113.511612) can0 2C1#08033702B7D9009F
(1675219113.512148) can0 2C4#0364001A088021F8
(1675219113.512150) can0 0B0#0077005F110E
(1675219113.512722) can0 0B2#00660000110E
(1675219113.512728) can0 224#0000000000000008
(1675219113.512733) can0 235#00000000003D
(1675219113.518192) can0 020#000007
(1675219113.518603) can0 0B4#00000000E000009C
(1675219113.518607) can0 025#01420FC3787878AA
(1675219113.519090) can0 024#020F01F76207801E
(1675219113.524617) can0 0B0#00770060110F
(1675219113.524625) can0 0B2#00660000110F
(1675219113.525903) can0 223#000000000000002D
(1675219113.525907) can0 623#1900000000000000
(1675219113.530726) can0 020#000007
(1675219113.530731) can0 0B4#00000000E000009C
(1675219113.531165) can0 025#01420FC3787878AA
(1675219113.531757) can0 260#0F00000000000079
(1675219113.533168) can0 024#020F01F86207801F
(1675219113.533173) can0 2D0#00C91000100000C3
(1675219113.535140) can0 2C4#0364001A088021F8
(1675219113.535813) can0 624#1A00414949400000
(1675219113.536176) can0 0B0#007800601100
(1675219113.536180) can0 0B2#006600001100
(1675219113.536548) can0 224#0000000000000008
(1675219113.536795) can0 235#00000000003D
(1675219113.542581) can0 020#000007
(1675219113.542587) can0 0B4#00000000E000009C
(1675219113.542590) can0 024#021001F76207801F
(1675219113.543132) can0 025#01420FC3787878AA
(1675219113.543795) can0 2C1#08030D0293D80050
(1675219113.548433) can0 0B0#0073005E1101
(1675219113.548440) can0 0B2#006700001101
(1675219113.548557) can0 223#000000000000002D
(1675219113.550829) can0 260#0F00000000000079
(1675219113.550834) can0 351#00000000
(1675219113.554506) can0 020#000007
(1675219113.554512) can0 0B4#00000000E000009C
(1675219113.554801) can0 025#01420FC3787878AA
(1675219113.554804) can0 024#021001F76207801F
(1675219113.558694) can0 2C4#0365001A088021F9
(1675219113.560407) can0 0B0#007800591102
(1675219113.560471) can0 0B2#006D00001102
(1675219113.561050) can0 224#0000000000000008
(1675219113.561277) can0 235#00000000003D
(1675219113.561281) can0 3A0#004D00000000001E
(1675219113.562977) can0 630#1700000000000000
(1675219113.565011) can0 2D0#00D41000100000CE
(1675219113.566914) can0 020#000007
(1675219113.566922) can0 0B4#00000000E000009C
(1675219113.567074) can0 025#01420FC3787878AA
(1675219113.568244) can0 024#021001F76207801F
(1675219113.570566) can0 260#0F00000000000079
(1675219113.572378) can0 0B0#007600601103
(1675219113.572384) can0 0B2#006E00001103
(1675219113.572836) can0 223#000000000000002D
(1675219113.575105) can0 2C1#0803640298DB00AF
(1675219113.578740) can0 020#000007
(1675219113.578751) can0 0B4#00000000E000009C
(1675219113.578754) can0 025#01420FC3787878AA
(1675219113.579309) can0 024#021001F76207801F
(1675219113.582350) can0 2C4#036D001A08802101
(1675219113.582355) can0 3B3#036D28
(1675219113.584782) can0 0B0#007600611104
(1675219113.584783) can0 0B2#006E00001104
(1675219113.585000) can0 224#0000000000000008
(1675219113.586136) can0 235#00000000003D
(1675219113.590688) can0 020#000007
(1675219113.590696) can0 0B4#00000000E000009C
(1675219113.591061) can0 025#01420FC3787878AA
(1675219113.591068) can0 260#0F00000000000079
(1675219113.591700) can0 024#021001F76207801F
(1675219113.596981) can0 2D0#00E81000100000E2
(1675219113.596989) can0 0B0#007600611105
(1675219113.596991) can0 0B2#006E00001105
(1675219113.598109) can0 223#000000000000002D
(1675219113.602438) can0 020#000007
(1675219113.602704) can0 0B4#00000000E000009C
(1675219113.602709) can0 024#021001F762077F1E
(1675219113.602961) can0 025#01420FC3787878AA
(1675219113.604616) can0 442#4002000000000000
(1675219113.605761) can0 2C4#036D001A08802101
(1675219113.606856) can0 2C1#08035F0282DA0093
(1675219113.608734) can0 0B0#007600611106
(1675219113.608742) can0 0B2#006F00001106
(1675219113.608965) can0 224#0000000000000008
(1675219113.609463) can0 235#00000000003D
(1675219113.610936) can0 260#0F00000000000079
(1675219113.611451) can0 351#00000000
(1675219113.614748) can0 020#000007
(1675219113.614757) can0 0B4#00000000E000009C
(1675219113.614762) can0 025#01420FC3787878AA
(1675219113.615369) can0 024#021101F762088021
(1675219113.621177) can0 0B0#007B00621107
(1675219113.621183) can0 0B2#007000001107
(1675219113.622270) can0 223#000000000000002D
(1675219113.627338) can0 020#000007
