(1676418029.856311) can0 020#000007
(1676418029.856476) can0 0B4#000000002C0000E8
(1676418029.856798) can0 024#020301F7620E8019
(1676418029.857029) can0 025#0F8F0FC378787805
(1676418029.862549) can0 0B0#000000001109
(1676418029.862690) can0 0B2#000000001109
(1676418029.863214) can0 223#000000000000002D
(1676418029.863725) can0 2D0#0788090010000082
(1676418029.863734) can0 260#0E00000000000078
(1676418029.864178) can0 623#1900000000000000
(1676418029.864920) can0 351#00000000
(1676418029.868596) can0 020#000007
(1676418029.868661) can0 0B4#000000002C0000E8
(1676418029.869018) can0 025#0F8F0FC378787805
(1676418029.869020) can0 024#020201F6620E8017
(1676418029.872428) can0 3A1#0000000000FF0000
(1676418029.873944) can0 2C1#0800B4FF7CC500C7
(1676418029.873951) can0 624#1A00414949400000
(1676418029.874396) can0 0B0#00000000110A
(1676418029.874820) can0 0B2#00000000110A
(1676418029.875418) can0 224#0000000000000008
(1676418029.876157) can0 235#00000000003D
(1676418029.877540) can0 2C4#03E9002308802186
(1676418029.880401) can0 020#000007
(1676418029.880671) can0 0B4#000000002C0000E8
(1676418029.880910) can0 025#0F8F0FC378787805
(1676418029.881401) can0 024#020201F6620E8118
(1676418029.884182) can0 260#0E00000000000078
(1676418029.884187) can0 630#1700000000000000
(1676418029.886931) can0 0B0#00000000110B
(1676418029.887216) can0 0B2#00000000110B
(1676418029.888414) can0 223#000000000000002D
(1676418029.892465) can0 383#0000000000000000
(1676418029.892472) can0 020#000007
(1676418029.892779) can0 0B4#000000002C0000E8
(1676418029.892923) can0 025#0F8F0FC378787805
(1676418029.893897) can0 440#4202000001000000
(1676418029.895221) can0 024#020301F7620D8018
(1676418029.895227) can0 2D0#0787090010000081
(1676418029.898762) can0 2C4#03EE00230880218B
(1676418029.898768) can0 0B0#00000000110C
(1676418029.899121) can0 0B2#00000000110C
(1676418029.899347) can0 224#0000000000000008
(1676418029.900074) can0 235#00000000003D
(1676418029.904038) can0 260#0E00000000000078
(1676418029.904617) can0 020#000007
(1676418029.904624) can0 0B4#000000002C0000E8
(1676418029.905162) can0 025#0F8F0FC378787805
(1676418029.905164) can0 024#020301F7620D8018
(1676418029.905390) can0 2C1#0800A9FF90C500D0
(1676418029.910941) can0 0B0#00000000110D
(1676418029.910949) can0 0B2#00000000110D
(1676418029.911139) can0 223#000000000000002D
(1676418029.912299) can0 3A0#3D530000008A8A3C
(1676418029.917035) can0 020#000007
(1676418029.917045) can0 0B4#000000002C0000E8
(1676418029.917051) can0 025#0F8F0FC378787805
(1676418029.917301) can0 024#020301F7620E8019
(1676418029.922190) can0 2C4#03F3002308802190
(1676418029.922891) can0 0B0#00000000110E
(1676418029.922897) can0 0B2#00000000110E
(1676418029.923280) can0 224#0000000000000008
(1676418029.923283) can0 235#00000000003D
(1676418029.924143) can0 260#0E00000000000078
(1676418029.925166) can0 351#00000000
(1676418029.926998) can0 2D0#0787090010000081
(1676418029.929100) can0 020#000007
(1676418029.929109) can0 0B4#000000002C0000E8
(1676418029.929751) can0 025#0F8F0FC378787805
(1676418029.929756) can0 024#020301F6620E8018
(1676418029.935385) can0 0B0#00000000110F
(1676418029.935398) can0 0B2#00000000110F
(1676418029.936393) can0 223#000000000000002D
(1676418029.937905) can0 2C1#0800B2FF8EC500D7
(1676418029.941827) can0 020#000007
(1676418029.941832) can0 0B4#000000002C0000E8
(1676418029.942524) can0 025#0F8F0FC378787805
(1676418029.943812) can0 024#020301F6620D8017
(1676418029.943825) can0 394#00
(1676418029.944333) can0 260#0E00000000000078
(1676418029.945885) can0 2C4#03F5002308802192
(1676418029.947634) can0 0B0#000000001100
(1676418029.947649) can0 0B2#000000001100
(1676418029.947658) can0 224#0000000000000008
(1676418029.948852) can0 235#00000000003D
(1676418029.953746) can0 3B1#0000012500000000
(1676418029.953760) can0 020#000007
(1676418029.954195) can0 0B4#000000002C0000E8
(1676418029.956503) can0 025#0F8F0FC378787805
(1676418029.959791) can0 024#020201F7620D8118
(1676418029.959811) can0 2D0#0787090010000081
(1676418029.960241) can0 0B0#000000001101
(1676418029.961604) can0 0B2#000000001101
(1676418029.964245) can0 223#000000000000002D
(1676418029.965595) can0 260#0E00000000000078
(1676418029.965614) can0 020#000007
(1676418029.966277) can0 0B4#000000002C0000E8
(1676418029.967703) can0 025#0F8F0FC378787805
(1676418029.969518) can0 024#020301F7620D8018
(1676418029.972452) can0 2C1#0800C3FF92C600ED
(1676418029.972459) can0 2C4#03F7002308802194
(1676418029.972461) can0 0B0#000000001102
(1676418029.974136) can0 0B2#000000001102
(1676418029.976243) can0 224#0000000000000008
(1676418029.978042) can0 235#00000000003D
(1676418029.978055) can0 020#000007
(1676418029.979337) can0 0B4#000000002C0000E8
(1676418029.980853) can0 025#0F8F0FC378787805
(1676418029.983266) can0 024#020201F7620E8018
(1676418029.984185) can0 0B0#000000001103
(1676418029.984205) can0 0B2#000000001103
(1676418029.986431) can0 223#000000000000002D
(1676418029.988461) can0 260#0E00000000000078
(1676418029.988464) can0 442#4002000000000000
(1676418029.988467) can0 351#00000000
(1676418029.989756) can0 020#000007
(1676418029.991526) can0 0B4#000000002C0000E8
(1676418029.992605) can0 025#0F8F0FC378787805
(1676418029.993065) can0 024#020201F7620E8119
(1676418029.995244) can0 2D0#078F090010000089
(1676418029.995767) can0 2C4#03F7002308802194
(1676418029.996706) can0 0B0#000000001104
(1676418029.999994) can0 0B2#000000001104
(1676418029.999998) can0 224#0000000000000008
(1676418029.999999) can0 235#00000000003D
(1676418030.001334) can0 2C1#0800E6FFAEC7002D
(1676418030.002611) can0 020#000007
(1676418030.002621) can0 0B4#000000002C0000E8
(1676418030.004368) can0 025#0F8F0FC378787805
(1676418030.004382) can0 3B7#0000800000000000
(1676418030.006567) can0 024#020301F7620E8019
(1676418030.008108) can0 260#0E00000000000078
(1676418030.010372) can0 0B0#000000001105
(1676418030.010386) can0 0B2#000000001105
(1676418030.010388) can0 223#000000000000002D
(1676418030.014541) can0 020#000007
(1676418030.014562) can0 0B4#000000002C0000E8
(1676418030.015145) can0 024#020201F6620E7F16
(1676418030.016314) can0 025#0F8F0FC382828223
(1676418030.017772) can0 3A0#235300000000003C
(1676418030.020204) can0 2C4#03EF00230880218C
(1676418030.020218) can0 0B0#000000001106
(1676418030.022613) can0 0B2#000000001106
(1676418030.024649) can0 224#0000000000000008
(1676418030.025906) can0 235#00000000003D
(1676418030.028303) can0 2D0#0796090010000090
(1676418030.028311) can0 260#0E00000000000078
(1676418030.028312) can0 020#000007
(1676418030.028314) can0 0B4#000000002C0000E8
(1676418030.028319) can0 024#020301F6620E8018
(1676418030.028321) can0 025#0F8F0FC378787805
(1676418030.032555) can0 0B0#000000001107
(1676418030.032566) can0 0B2#000000001107
(1676418030.034636) can0 223#000000000000002D
(1676418030.036659) can0 2C1#08FF6CFFCDBB00C5
(1676418030.037853) can0 020#000007
(1676418030.037866) can0 0B4#000000002C0000E8
(1676418030.041321) can0 025#0F8F0FC378787805
(1676418030.041340) can0 024#020301F6620E8018
(1676418030.041342) can0 2C4#03F6002308802193
(1676418030.044551) can0 0B0#000000001108
(1676418030.044573) can0 0B2#000000001108
(1676418030.045482) can0 224#0000000000000008
(1676418030.045512) can0 235#00000000003D
(1676418030.046893) can0 260#0E00000000000078
(1676418030.050541) can0 622#1200E83800000000
(1676418030.050553) can0 351#00000000
(1676418030.050563) can0 020#000007
(1676418030.051953) can0 0B4#000000002C0000E8
(1676418030.054031) can0 025#0F8F0FC378787805
(1676418030.056604) can0 024#020201F6620D7F15
(1676418030.056612) can0 2D0#079D090010000097
(1676418030.056614) can0 0B0#000000001109
(1676418030.058903) can0 0B2#000000001109
(1676418030.060599) can0 223#000000000000002D
(1676418030.062157) can0 020#000007
(1676418030.063566) can0 0B4#000000002C0000E8
(1676418030.063580) can0 024#020301F7620D8018
(1676418030.066376) can0 025#0F8F0FC378787805
(1676418030.068190) can0 2C4#03F8002308802195
(1676418030.069939) can0 260#0E00000000000078
(1676418030.072678) can0 2C1#08FF2EFFEDB900A5
(1676418030.072686) can0 0B0#00000000110A
(1676418030.072688) can0 0B2#00000000110A
(1676418030.072690) can0 224#0000000000000008
(1676418030.072694) can0 235#00000000003D
(1676418030.075520) can0 020#000007
(1676418030.077323) can0 0B4#000000002C0000E8
(1676418030.079728) can0 024#020301F6620E8018
(1676418030.079747) can0 025#0F8F0FC378787805
(1676418030.080649) can0 0B0#00000000110B
(1676418030.083416) can0 0B2#00000000110B
(1676418030.085896) can0 223#000000000000002D
(1676418030.085922) can0 440#4202000001000000
(1676418030.085925) can0 260#0E00000000000078
(1676418030.087443) can0 020#000007
(1676418030.087455) can0 0B4#000000002C0000E8
(1676418030.092469) can0 2D0#07A109001000009B
(1676418030.092481) can0 025#0F8F0FC378787805
(1676418030.093341) can0 024#020301F6620E8018
(1676418030.094706) can0 2C4#03FD00230880219A
(1676418030.096980) can0 0B0#00000000110C
(1676418030.099664) can0 0B2#00000000110C
(1676418030.099684) can0 224#0000000000000008
(1676418030.099687) can0 235#00000000003D
(1676418030.099689) can0 2C1#08FF42001DBA00EB
(1676418030.100910) can0 020#000007
(1676418030.100912) can0 0B4#000000002C0000E8
(1676418030.100914) can0 025#0F8F0FC378787805
(1676418030.100920) can0 024#020301F6620E8018
(1676418030.104672) can0 0B0#00000000110D
(1676418030.105582) can0 0B2#00000000110D
(1676418030.105600) can0 223#000000000000002D
(1676418030.107605) can0 260#0E00000000000078
(1676418030.108927) can0 351#00000000
(1676418030.111615) can0 620#10000259F0402040
(1676418030.111622) can0 020#000007
(1676418030.111625) can0 0B4#000000002C0000E8
(1676418030.111627) can0 024#020301F7620E8019
(1676418030.112857) can0 025#0F8F0FC378787805
(1676418030.112861) can0 2C4#040000230880219E
(1676418030.116495) can0 3A0#175300000000003C
(1676418030.116503) can0 0B0#00000000110E
(1676418030.118129) can0 0B2#00000000110E
(1676418030.118137) can0 224#0000000000000008
(1676418030.118147) can0 235#00000000003D
(1676418030.120554) can0 2D0#07A409001000009E
(1676418030.124288) can0 020#000007
(1676418030.124290) can0 0B4#000000002C0000E8
(1676418030.124292) can0 025#0F8F0FC378787805
(1676418030.124299) can0 024#020301F6620E8018
(1676418030.126862) can0 260#0E00000000000078
(1676418030.129177) can0 2C1#08FF710031BB002F
(1676418030.129191) can0 0B0#00000000110F
(1676418030.130603) can0 0B2#00000000110F
(1676418030.132438) can0 223#000000000000002D
(1676418030.134752) can0 020#000007
(1676418030.134756) can0 0B4#000000002C0000E8
(1676418030.136348) can0 025#0F8F0FC378787805
(1676418030.141607) can0 2C4#040A0023088021A8
(1676418030.141618) can0 024#020301F6620E8018
(1676418030.141635) can0 0B0#000000001100
(1676418030.143357) can0 0B2#000000001100
(1676418030.144625) can0 224#0000000000000008
(1676418030.144639) can0 235#00000000003D
(1676418030.146619) can0 260#0E00000000000078
(1676418030.149573) can0 020#000007
(1676418030.149579) can0 0B4#000000002C0000E8
(1676418030.149584) can0 025#0F8F0FC378787805
(1676418030.149585) can0 024#020301F7620E8019
(1676418030.152331) can0 2D0#07AA0900100000A4
(1676418030.152344) can0 0B0#000000001101
(1676418030.154472) can0 0B2#000000001101
(1676418030.156380) can0 223#000000000000002D
(1676418030.159632) can0 2C4#040C0023088021AA
(1676418030.159648) can0 020#000007
(1676418030.160525) can0 0B4#000000002C0000E8
(1676418030.160993) can0 025#0F8F0FC378787805
(1676418030.163027) can0 024#020301F7620E8019
(1676418030.164275) can0 2C1#08FDE60045AF00AA
(1676418030.164965) can0 0B0#000000001102
(1676418030.166227) can0 0B2#000000001102
(1676418030.168188) can0 224#0000000000000008
(1676418030.169987) can0 235#00000000003D
(1676418030.172703) can0 260#0E00000000000078
(1676418030.172710) can0 351#00000000
(1676418030.172712) can0 020#000007
(1676418030.172713) can0 0B4#000000002C0000E8
(1676418030.172718) can0 025#0F8F0FC378787805
(1676418030.172720) can0 024#020301F6620E8018
(1676418030.176698) can0 442#4002000000000000
(1676418030.177115) can0 0B0#000000001103
(1676418030.178802) can0 0B2#000000001103
(1676418030.180457) can0 223#000000000000002D
(1676418030.182529) can0 2D0#07B50900100000AF
(1676418030.182543) can0 2C4#04110023088021AF
(1676418030.184791) can0 020#000007
(1676418030.184798) can0 0B4#000000002C0000E8
(1676418030.187138) can0 025#0F8F0FC378787805
(1676418030.188924) can0 024#020301F6620E8018
(1676418030.188937) can0 260#0E00000000000078
(1676418030.190080) can0 0B0#000000001104
(1676418030.193204) can0 0B2#000000001104
(1676418030.193562) can0 224#0000000000000008
(1676418030.196985) can0 235#00000000003D
(1676418030.196991) can0 2C1#08FE250059B10000
(1676418030.196994) can0 020#000007
(1676418030.196996) can0 0B4#000000002C0000E8
(1676418030.197815) can0 025#0F8F0FC378787805
(1676418030.197819) can0 024#020301F6620E8018
(1676418030.201336) can0 4C7#0800012100000000
(1676418030.201350) can0 0B0#000000001105
(1676418030.202919) can0 0B2#000000001105
(1676418030.204944) can0 223#000000000000002D
(1676418030.204949) can0 260#0E00000000000078
(1676418030.206372) can0 2C4#04150023088021B3
(1676418030.209706) can0 610#20000064C0FFFEE0
(1676418030.211490) can0 020#000007
(1676418030.211493) can0 0B4#000000002C0000E8
(1676418030.211494) can0 025#0F8F0FC378787805
(1676418030.211501) can0 024#020301F7620D8018
(1676418030.213565) can0 3A0#035300000000003C
(1676418030.213574) can0 0B0#000000001106
(1676418030.214117) can0 0B2#000000001106
(1676418030.215686) can0 224#0000000000000008
(1676418030.217488) can0 235#00000000003D
(1676418030.218525) can0 2D0#07C40900100000BE
(1676418030.222378) can0 020#000007
(1676418030.222402) can0 0B4#000000002C0000E8
(1676418030.222404) can0 024#020301F7620D8018
(1676418030.222406) can0 025#0F8F0FC378787805
(1676418030.225865) can0 2C1#08FE340059B1000F
(1676418030.225889) can0 260#0E00000000000078
(1676418030.225902) can0 0B0#000000001107
(1676418030.226720) can0 0B2#000000001107
(1676418030.228169) can0 223#000000000000002D
(1676418030.229533) can0 351#00000000
(1676418030.230570) can0 2C4#04100023088021AE
(1676418030.230582) can0 020#000007
(1676418030.232900) can0 0B4#000000002C0000E8
(1676418030.232902) can0 024#020301F6620E8018
(1676418030.232903) can0 025#0F8F0FC382828223
(1676418030.237065) can0 0B0#000000001108
(1676418030.237079) can0 0B2#000000001108
(1676418030.238086) can0 224#0000000000000008
(1676418030.240253) can0 235#00000000003D
(1676418030.243276) can0 020#000007
(1676418030.243302) can0 0B4#000000002C0000E8
(1676418030.243317) can0 024#020301F6620E8018
(1676418030.244535) can0 025#0F8F0FC378787805
(1676418030.244548) can0 394#00
(1676418030.246633) can0 260#0E00000000000078
(1676418030.249208) can0 2D0#07D30900100000CD
(1676418030.249223) can0 0B0#000000001109
(1676418030.249232) can0 0B2#000000001109
(1676418030.249602) can0 223#000000000000002D
(1676418030.253080) can0 2C4#04100023088021AE
(1676418030.254971) can0 020#000007
(1676418030.256322) can0 0B4#000000002C0000E8
(1676418030.256325) can0 2C1#08FE600063B30047
(1676418030.257883) can0 025#0F8F0FC378787805
(1676418030.259454) can0 024#020301F7620E8019
(1676418030.261403) can0 0B0#00000000110A
(1676418030.262990) can0 0B2#00000000110A
(1676418030.262997) can0 224#0000000000000008
(1676418030.264803) can0 235#00000000003D
(1676418030.266534) can0 260#0E00000000000078
(1676418030.269531) can0 4C8#0900010200000000
(1676418030.269539) can0 020#000007
(1676418030.269540) can0 0B4#000000002C0000E8
(1676418030.269543) can0 025#0F8F0FC378787805
(1676418030.269547) can0 024#020301F7620E8019
(1676418030.273462) can0 0B0#00000000110B
(1676418030.275932) can0 0B2#00000000110B
(1676418030.275936) can0 223#000000000000002D
(1676418030.276760) can0 440#4202000001000000
(1676418030.278694) can0 2C4#04110023088021AF
(1676418030.278706) can0 2D0#07DE0900100000D8
(1676418030.279995) can0 020#000007
(1676418030.282780) can0 0B4#000000002C0000E8
(1676418030.282783) can0 024#020301F6620E8018
(1676418030.282784) can0 025#0F8F0FC378787805
(1676418030.285479) can0 260#0E00000000000078
(1676418030.285491) can0 0B0#00000000110C
(1676418030.285500) can0 0B2#00000000110C
(1676418030.286451) can0 224#0000000000000008
(1676418030.286463) can0 235#00000000003D
(1676418030.287957) can0 351#00000000
(1676418030.291837) can0 4C3#0300120100000000
(1676418030.291845) can0 2C1#08FE920052B40069
(1676418030.294686) can0 020#000007
(1676418030.294691) can0 0B4#000000002C0000E8
(1676418030.294693) can0 024#020301F7620D8018
(1676418030.294694) can0 025#0F8F0FC378787805
(1676418030.297544) can0 0B0#00000000110D
(1676418030.297554) can0 0B2#00000000110D
(1676418030.299391) can0 223#000000000000002D
(1676418030.301309) can0 2C4#040C0023088021AA
(1676418030.303594) can0 020#000007
(1676418030.303608) can0 0B4#000000002C0000E8
(1676418030.304851) can0 3B7#0000800000000000
(1676418030.304855) can0 025#0F8F0FC378787805
(1676418030.306623) can0 024#020301F7620D8018
(1676418030.308751) can0 260#0E00000000000078
(1676418030.309786) can0 2D0#07E30900100000DD
(1676418030.309799) can0 0B0#00000000110E
(1676418030.311175) can0 0B2#00000000110E
(1676418030.313254) can0 224#0000000000000008
(1676418030.315988) can0 235#00000000003D
(1676418030.315994) can0 3A0#015300000000003C
(1676418030.315997) can0 020#000007
(1676418030.317426) can0 0B4#000000002C0000E8
(1676418030.317428) can0 025#0F8F0FC378787805
(1676418030.318816) can0 024#020301F6620E8018
(1676418030.321243) can0 2C1#08FEDD0042B600A6
(1676418030.321259) can0 0B0#00000000110F
(1676418030.322455) can0 0B2#00000000110F
(1676418030.322549) can0 223#000000000000002D
(1676418030.324607) can0 2C4#040B0023088021A9
(1676418030.326519) can0 260#0E00000000000078
(1676418030.327133) can0 611#210010A0000282AA
(1676418030.327152) can0 020#000007
(1676418030.327165) can0 0B4#000000002C0000E8
(1676418030.328181) can0 024#020301F6620E8018
(1676418030.328201) can0 025#0F8F0FC378787805
(1676418030.334002) can0 0B0#000000001100
(1676418030.334024) can0 0B2#000000001100
(1676418030.334812) can0 224#0000000000000008
(1676418030.335611) can0 235#00000000003D
(1676418030.337707) can0 621#1100000000000000
(1676418030.339441) can0 020#000007
(1676418030.340222) can0 0B4#000000002C0000E8
(1676418030.341643) can0 025#0F8F0FC378787805
(1676418030.343127) can0 024#020301F6620E8018
(1676418030.345089) can0 2D0#07E00900100000DA
(1676418030.345103) can0 260#0E00000000000078
(1676418030.345722) can0 0B0#000000001101
(1676418030.346761) can0 0B2#000000001101
(1676418030.348799) can0 223#000000000000002D
(1676418030.350186) can0 351#00000000
(1676418030.353138) can0 2C4#040F0023088021AD
(1676418030.353142) can0 2C1#0800C00022C6007B
(1676418030.353143) can0 020#000007
(1676418030.353147) can0 0B4#000000002C0000E8
(1676418030.353149) can0 025#0F8F0FC378787805
(1676418030.353150) can0 024#020301F6620D8017
(1676418030.355763) can0 3B3#040B28
(1676418030.358188) can0 0B0#000000001102
(1676418030.360082) can0 0B2#000000001102
(1676418030.361758) can0 224#0000000000000008
(1676418030.363814) can0 235#00000000003D
(1676418030.363833) can0 020#000007
(1676418030.365109) can0 0B4#000000002C0000E8
(1676418030.365123) can0 025#0F8F0FC378787805
(1676418030.367225) can0 024#020301F6620D8017
(1676418030.368671) can0 260#0E00000000000078
(1676418030.371056) can0 442#4002000000000000
(1676418030.373664) can0 0B0#000000001103
(1676418030.373674) can0 0B2#000000001103
(1676418030.373677) can0 223#000000000000002D
(1676418030.373679) can0 2C4#040B0023088021A9
(1676418030.373683) can0 2D0#07DB0900100000D5
(1676418030.376672) can0 020#000007
(1676418030.378786) can0 0B4#000000002C0000E8
(1676418030.381769) can0 024#020301F6620E8018
(1676418030.381792) can0 025#0F8F0FC378787805
(1676418030.381806) can0 0B0#000000001104
(1676418030.383580) can0 0B2#000000001104
(1676418030.385737) can0 224#0000000000000008
(1676418030.388440) can0 235#00000000003D
(1676418030.388443) can0 2C1#0800BF0000C50057
(1676418030.388445) can0 260#0E00000000000078
(1676418030.388450) can0 020#000007
(1676418030.388452) can0 0B4#000000002C0000E8
(1676418030.390080) can0 024#020301F6620E8018
(1676418030.392290) can0 025#0F8F0FC378787805
(1676418030.394484) can0 2C4#040A0023088021A8
(1676418030.396038) can0 0B0#000000001105
(1676418030.398097) can0 0B2#000000001105
(1676418030.399603) can0 223#000000000000002D
(1676418030.402121) can0 020#000007
(1676418030.405555) can0 0B4#000000002C0000E8
(1676418030.405563) can0 025#0F8F0FC378787805
(1676418030.405565) can0 024#020301F6620E8018
(1676418030.405568) can0 2D0#07D60900100000D0
(1676418030.406304) can0 260#0E00000000000078
(1676418030.407885) can0 351#00000000
(1676418030.409562) can0 0B0#000000001106
(1676418030.410580) can0 0B2#000000001106
(1676418030.411760) can0 224#0000000000000008
(1676418030.411917) can0 235#00000000003D
(1676418030.413096) can0 620#10000259F0402040
(1676418030.415400) can0 020#000007
(1676418030.418750) can0 0B4#000000002C0000E8
(1676418030.418752) can0 025#0F8F0FC378787805
(1676418030.418753) can0 3A0#005300000000003C
(1676418030.418757) can0 024#020301F7620E8019
(1676418030.418758) can0 3B4#0000ACB080000000
(1676418030.418760) can0 2C1#08009EFFE0C40014
(1676418030.418764) can0 2C4#04040023088021A2
(1676418030.418766) can0 0B0#000000001107
(1676418030.418770) can0 0B2#000000001107
(1676418030.418774) can0 223#000000000000002D
(1676418030.423746) can0 4DD#1E00000100000000
(1676418030.425122) can0 020#000007
(1676418030.426966) can0 0B4#000000002C0000E8
(1676418030.428801) can0 025#0F8F0FC378787805
(1676418030.432237) can0 024#020301F6620E8018
(1676418030.433960) can0 260#0E00000000000078
(1676418030.433963) can0 0B0#000000001108
(1676418030.433964) can0 0B2#000000001108
(1676418030.433971) can0 224#0000000000000008
(1676418030.433972) can0 235#00000000003D
(1676418030.435971) can0 2D0#07D10900100000CB
(1676418030.436853) can0 020#000007
(1676418030.436866) can0 0B4#000000002C0000E8
(1676418030.438319) can0 024#020301F7620E8019
(1676418030.440548) can0 025#0F8F0FC378787805
(1676418030.440563) can0 2C4#03FC002308802199
(1676418030.442778) can0 0B0#000000001109
(1676418030.444538) can0 0B2#000000001109
(1676418030.444540) can0 223#000000000000002D
(1676418030.445605) can0 260#0E00000000000078
(1676418030.445618) can0 2C1#0800B5FFC7C50013
(1676418030.448497) can0 020#000007
(1676418030.448507) can0 0B4#000000002C0000E8
(1676418030.450824) can0 024#020301F7620E8019
(1676418030.452659) can0 025#0F8F0FC382828223
(1676418030.454214) can0 0B0#00000000110A
(1676418030.456540) can0 0B2#00000000110A
(1676418030.456548) can0 224#0000000000000008
(1676418030.456549) can0 235#00000000003D
(1676418030.460133) can0 638#13001F0000000000
(1676418030.460152) can0 020#000007
(1676418030.461173) can0 0B4#000000002C0000E8
(1676418030.461190) can0 024#020301F6620E8018
(1676418030.462650) can0 025#0F8F0FC378787805
(1676418030.464292) can0 2C4#03F8002308802195
(1676418030.465279) can0 440#4202000001000000
(1676418030.465721) can0 260#0E00000000000078
(1676418030.470765) can0 351#00000000
(1676418030.470767) can0 0B0#00000000110B
(1676418030.470769) can0 0B2#00000000110B
(1676418030.470775) can0 223#000000000000002D
(1676418030.470778) can0 2D0#07CA0900100000C4
(1676418030.472068) can0 020#000007
(1676418030.472675) can0 0B4#000000002C0000E8
(1676418030.473235) can0 025#0F8F0FC378787805
(1676418030.474949) can0 024#020301F6620E8018
(1676418030.478340) can0 2C1#08019AFFB5CC00EE
(1676418030.478354) can0 0B0#00000000110C
(1676418030.478794) can0 0B2#00000000110C
(1676418030.480479) can0 224#0000000000000008
(1676418030.485226) can0 235#00000000003D
(1676418030.485336) can0 020#000007
(1676418030.486553) can0 0B4#000000002C0000E8
(1676418030.488043) can0 025#0F8F0FC378787805
(1676418030.488057) can0 260#0E00000000000078
(1676418030.490338) can0 024#020301F6620E8018
(1676418030.490353) can0 2C4#03F7002308802194
(1676418030.490367) can0 0B0#00000000110D
(1676418030.492831) can0 0B2#00000000110D
(1676418030.492840) can0 223#000000000000002D
(1676418030.496304) can0 020#000007
(1676418030.496318) can0 0B4#000000002C0000E8
(1676418030.497503) can0 024#020301F6620D8017
(1676418030.498717) can0 025#0F8F0FC378787805
(1676418030.500456) can0 2D0#07BD0900100000B7
(1676418030.502362) can0 0B0#00000000110E
(1676418030.502503) can0 0B2#00000000110E
(1676418030.502514) can0 224#0000000000000008
(1676418030.503763) can0 235#00000000003D
(1676418030.504758) can0 260#0E00000000000078
(1676418030.509155) can0 020#000007
(1676418030.509257) can0 0B4#000000002C0000E8
(1676418030.510739) can0 025#0F8F0FC378787805
(1676418030.511220) can0 024#020301F6620D8017
(1676418030.513450) can0 2C1#0800E2FFA9C70024
(1676418030.513473) can0 2C4#03EF00230880218C
(1676418030.514135) can0 3A0#005300000000003B
(1676418030.516030) can0 0B0#00000000110F
(1676418030.517871) can0 0B2#00000000110F
(1676418030.519576) can0 223#000000000000002D
(1676418030.521922) can0 020#000007
(1676418030.521930) can0 0B4#000000002C0000E8
(1676418030.521931) can0 025#0F8F0FC378787805
(1676418030.521934) can0 024#020301F6620E8018
(1676418030.525264) can0 260#0E00000000000078
(1676418030.526535) can0 351#00000000
(1676418030.526547) can0 0B0#000000001100
(1676418030.528361) can0 0B2#000000001100
(1676418030.530538) can0 224#0000000000000008
(1676418030.532214) can0 235#00000000003D
(1676418030.532233) can0 2D0#07B00900100000AA
(1676418030.533794) can0 020#000007
(1676418030.536561) can0 0B4#000000002C0000E8
(1676418030.536563) can0 4C6#0700010000000000
(1676418030.536564) can0 025#0F8F0FC378787805
(1676418030.536568) can0 024#020301F6620E8018
(1676418030.536569) can0 2C4#03F000230880218D
(1676418030.539116) can0 0B0#000000001101
(1676418030.540798) can0 0B2#000000001101
(1676418030.540817) can0 223#000000000000002D
(1676418030.542119) can0 2C1#0800CFFFA6C6000D
(1676418030.544750) can0 394#00
(1676418030.544766) can0 020#000007
(1676418030.545742) can0 0B4#000000002C0000E8
(1676418030.547085) can0 024#020301F6620E8018
(1676418030.549428) can0 025#0F8F0FC378787805
(1676418030.550694) can0 260#0E00000000000078
(1676418030.550705) can0 0B0#000000001102
(1676418030.550714) can0 0B2#000000001102
(1676418030.551965) can0 224#0000000000000008
(1676418030.553950) can0 235#00000000003D
(1676418030.556554) can0 442#4002000000000000
(1676418030.556558) can0 020#000007
(1676418030.558501) can0 0B4#000000002C0000E8
(1676418030.558522) can0 025#0F8F0FC378787805
(1676418030.559491) can0 024#020301F7620E8019
(1676418030.561126) can0 2C4#03EC002308802189
(1676418030.562525) can0 0B0#000000001103
(1676418030.563265) can0 0B2#000000001103
(1676418030.564002) can0 223#000000000000002D
(1676418030.566323) can0 2D0#07A009001000009A
(1676418030.569231) can0 260#0E00000000000078
(1676418030.569235) can0 020#000007
(1676418030.569236) can0 0B4#000000002C0000E8
(1676418030.570568) can0 025#0F8F0FC378787805
(1676418030.572642) can0 024#020301F7620E8019
(1676418030.574789) can0 2C1#0800EEFFA8C7002F
(1676418030.574803) can0 0B0#000000001104
(1676418030.575575) can0 0B2#000000001104
(1676418030.577490) can0 224#0000000000000008
(1676418030.579841) can0 235#00000000003D
(1676418030.582071) can0 020#000007
(1676418030.582094) can0 0B4#000000002C0000E8
(1676418030.582097) can0 025#0F8F0FC378787805
(1676418030.582100) can0 024#020301F7620D8018
(1676418030.583488) can0 2C4#03EA002308802187
(1676418030.584878) can0 260#0E00000000000078
(1676418030.587096) can0 0B0#000000001105
(1676418030.587105) can0 0B2#000000001105
(1676418030.589163) can0 223#000000000000002D
(1676418030.589980) can0 351#00000000
(1676418030.592169) can0 4C1#0100090000000000
(1676418030.592183) can0 020#000007
(1676418030.594615) can0 0B4#000000002C0000E8
(1676418030.594617) can0 024#020301F7620D8018
(1676418030.594619) can0 025#0F8F0FC378787805
(1676418030.595827) can0 2D0#079509001000008F
(1676418030.598925) can0 0B0#000000001106
(1676418030.598936) can0 0B2#000000001106
(1676418030.598946) can0 224#0000000000000008
(1676418030.600138) can0 235#00000000003D
(1676418030.605696) can0 2C1#0800F6FFB2C70041
(1676418030.605702) can0 020#000007
(1676418030.605718) can0 0B4#000000002C0000E8
(1676418030.605733) can0 025#0F8F0FC378787805
(1676418030.607933) can0 024#020301F7620D8018
(1676418030.609070) can0 260#0E00000000000078
(1676418030.610732) can0 2C4#03E7002308802184
(1676418030.610763) can0 3B7#0000800000000000
(1676418030.612305) can0 0B0#000000001107
(1676418030.614254) can0 0B2#000000001107
(1676418030.616818) can0 223#000000000000002D
(1676418030.616826) can0 3A0#005300000000003B
(1676418030.616828) can0 020#000007
(1676418030.618469) can0 0B4#000000002C0000E8
(1676418030.620308) can0 025#0F8F0FC378787805
(1676418030.624685) can0 024#020301F6620D8017
(1676418030.624703) can0 0B0#000000001108
(1676418030.624717) can0 0B2#000000001108
(1676418030.624734) can0 224#0000000000000008
(1676418030.625669) can0 235#00000000003D
(1676418030.626455) can0 260#0E00000000000078
(1676418030.629840) can0 2D0#078B090010000085
(1676418030.629846) can0 020#000007
(1676418030.629849) can0 0B4#000000002C0000E8
(1676418030.631150) can0 025#0F8F0FC378787805
(1676418030.633553) can0 2C4#03E6002308802183
(1676418030.635386) can0 024#020301F6620E8018
(1676418030.635403) can0 0B0#000000001109
(1676418030.636581) can0 0B2#000000001109
(1676418030.637743) can0 223#000000000000002D
(1676418030.640240) can0 2C1#0800EAFFB8C7003B
(1676418030.640257) can0 020#000007
(1676418030.643042) can0 0B4#000000002C0000E8
(1676418030.643046) can0 025#0F8F0FC378787805
(1676418030.643050) can0 024#020301F7620E8019
(1676418030.644446) can0 260#0E00000000000078
(1676418030.646371) can0 351#00000000
(1676418030.647506) can0 0B0#00000000110A
(1676418030.647523) can0 0B2#00000000110A
(1676418030.648916) can0 224#0000000000000008
(1676418030.650277) can0 235#00000000003D
(1676418030.653222) can0 2C4#03E5002308802182
(1676418030.654866) can0 020#000007
(1676418030.654875) can0 0B4#000000002C0000E8
(1676418030.657189) can0 024#020301F7620D8018
(1676418030.657210) can0 025#0F8F0FC378787805
(1676418030.658808) can0 440#4202000001000000
(1676418030.658822) can0 2D0#078109001000007B
(1676418030.659692) can0 0B0#00000000110B
(1676418030.662011) can0 0B2#00000000110B
(1676418030.664016) can0 223#000000000000002D
(1676418030.666718) can0 020#000007
(1676418030.667834) can0 0B4#000000002C0000E8
(1676418030.667837) can0 025#0F8F0FC378787805
(1676418030.667838) can0 024#020301F6620E8018
(1676418030.667845) can0 260#0E00000000000078
(1676418030.671393) can0 2C1#0800DBFFB9C6002C
(1676418030.671406) can0 0B0#00000000110C
(1676418030.673169) can0 0B2#00000000110C
(1676418030.675892) can0 224#0000000000000008
(1676418030.675908) can0 235#00000000003D
(1676418030.676908) can0 2C4#03E5002308802182
(1676418030.679779) can0 020#000007
(1676418030.679793) can0 0B4#000000002C0000E8
(1676418030.679795) can0 024#020301F6620E8018
(1676418030.679796) can0 025#0F8F0FC382828223
(1676418030.683605) can0 0B0#00000000110D
(1676418030.684808) can0 0B2#00000000110D
(1676418030.684821) can0 223#000000000000002D
(1676418030.686699) can0 260#0E00000000000078
(1676418030.689931) can0 020#000007
(1676418030.689940) can0 0B4#000000002C0000E8
(1676418030.690377) can0 2D0#077A090010000074
(1676418030.691722) can0 025#0F8F0FC378787805
(1676418030.693560) can0 024#020301F6620E8018
(1676418030.695362) can0 0B0#00000000110E
(1676418030.696988) can0 0B2#00000000110E
(1676418030.696997) can0 224#0000000000000008
(1676418030.699362) can0 235#00000000003D
(1676418030.701631) can0 2C1#0800E1FFBAC70034
(1676418030.701650) can0 2C4#03E000230880217D
(1676418030.701652) can0 020#000007
(1676418030.701655) can0 0B4#000000002C0000E8
(1676418030.703414) can0 024#020301F6620E8018
(1676418030.705156) can0 025#0F8F0FC378787805
(1676418030.705176) can0 260#0E00000000000078
(1676418030.706533) can0 351#00000000
(1676418030.707007) can0 610#20000064C0FFFEE0
(1676418030.708359) can0 0B0#00000000110F
(1676418030.709830) can0 0B2#00000000110F
(1676418030.711258) can0 223#000000000000002D
(1676418030.714681) can0 620#10000259F0402040
(1676418030.714683) can0 3A0#005300000000003B
(1676418030.714685) can0 020#000007
(1676418030.714688) can0 0B4#000000002C0000E8
(1676418030.714690) can0 024#020301F7620E8019
(1676418030.714692) can0 025#0F8F0FC378787805
(1676418030.719417) can0 0B0#000000001100
(1676418030.719444) can0 0B2#000000001100
(1676418030.719449) can0 224#0000000000000008
(1676418030.721146) can0 235#00000000003D
(1676418030.721164) can0 2D0#077309001000006D
(1676418030.722985) can0 2C4#03DE00230880217B
(1676418030.725625) can0 260#0E00000000000078
(1676418030.725664) can0 020#000007
(1676418030.726351) can0 0B4#000000002C0000E8
(1676418030.727897) can0 025#0F8F0FC378787805
(1676418030.729723) can0 024#020301F6620E8018
(1676418030.732509) can0 0B0#000000001101
(1676418030.732539) can0 0B2#000000001101
(1676418030.733459) can0 223#000000000000002D
(1676418030.734691) can0 2C1#0800E5FFC0C7003E
(1676418030.737473) can0 020#000007
(1676418030.738303) can0 0B4#000000002C0000E8
(1676418030.739403) can0 025#0F8F0FC378787805
(1676418030.741623) can0 024#020301F6620E8018
(1676418030.743670) can0 4DC#1D00030200000000
(1676418030.743682) can0 0B0#000000001102
(1676418030.745459) can0 0B2#000000001102
(1676418030.746636) can0 224#0000000000000008
(1676418030.746648) can0 235#00000000003D
(1676418030.748297) can0 260#0E00000000000078
(1676418030.749787) can0 442#4002000000000000
(1676418030.749801) can0 2C4#03DA002308802177
(1676418030.750997) can0 020#000007
(1676418030.753197) can0 0B4#000000002C0000E8
(1676418030.756002) can0 025#0F8F0FC378787805
(1676418030.756018) can0 024#020301F7620E8019
(1676418030.756020) can0 38C#0000000000000039
(1676418030.756022) can0 2D0#076F090010000069
(1676418030.757176) can0 0B0#000000001103
(1676418030.757178) can0 0B2#000000001103
(1676418030.757184) can0 223#000000000000002D
(1676418030.761481) can0 020#000007
(1676418030.762221) can0 0B4#000000002C0000E8
(1676418030.763806) can0 024#020301F7620E8019
(1676418030.764734) can0 025#0F8F0FC378787805
(1676418030.765715) can0 2C1#0800EBFFBDC70041
(1676418030.769088) can0 260#0E00000000000078
(1676418030.769108) can0 351#00000000
(1676418030.769112) can0 0B0#000000001104
(1676418030.769115) can0 0B2#000000001104
(1676418030.770308) can0 224#0000000000000008
(1676418030.770309) can0 235#00000000003D
(1676418030.772043) can0 2C4#03D8002308802175
(1676418030.773278) can0 020#000007
(1676418030.773288) can0 0B4#000000002C0000E8
(1676418030.774950) can0 025#0F8F0FC378787805
(1676418030.775459) can0 024#020301F6620E8018
(1676418030.782666) can0 0B0#000000001105
(1676418030.783439) can0 0B2#000000001105
(1676418030.784634) can0 223#000000000000002D
(1676418030.784642) can0 3B0#0000003B0000
(1676418030.784651) can0 2D0#076A090010000064
(1676418030.785348) can0 260#0E00000000000078
(1676418030.786128) can0 020#000007
(1676418030.787992) can0 0B4#000000002C0000E8
(1676418030.789876) can0 025#0F8F0FC378787805
(1676418030.791860) can0 024#020301F6620E8018
(1676418030.794445) can0 0B0#000000001106
(1676418030.794448) can0 0B2#000000001106
(1676418030.794449) can0 224#0000000000000008
(1676418030.795994) can0 235#00000000003D
(1676418030.795997) can0 2C4#03D7002308802174
(1676418030.797763) can0 2C1#0800DFFFB5C6002C
(1676418030.797774) can0 020#000007
(1676418030.798302) can0 0B4#000000002C0000E8
(1676418030.800278) can0 025#0F8F0FC378787805
(1676418030.802275) can0 024#020301F6620E8018
(1676418030.804435) can0 0B0#000000001107
(1676418030.804453) can0 0B2#000000001107
(1676418030.805670) can0 223#000000000000002D
(1676418030.807148) can0 260#0E00000000000078
(1676418030.809957) can0 020#000007
(1676418030.809971) can0 0B4#000000002C0000E8
(1676418030.809982) can0 025#0F8F0FC378787805
(1676418030.811904) can0 024#020301F7620D8018
(1676418030.811919) can0 3A0#005300000000003B
(1676418030.813953) can0 423#00
(1676418030.815862) can0 0B0#000000001108
(1676418030.816317) can0 0B2#000000001108
(1676418030.816322) can0 224#0000000000000008
(1676418030.817587) can0 235#00000000003D
(1676418030.817987) can0 2D0#076309001000005D
(1676418030.819809) can0 2C4#03D3002308802170
(1676418030.821859) can0 020#000007
(1676418030.822682) can0 0B4#000000002C0000E8
(1676418030.823453) can0 025#0F8F0FC378787805
(1676418030.825073) can0 024#020301F6620E8018
(1676418030.828442) can0 260#0E00000000000078
(1676418030.828443) can0 351#00000000
(1676418030.828445) can0 2C1#0800DCFFB4C60028
(1676418030.828449) can0 0B0#000000001109
(1676418030.828452) can0 0B2#000000001109
(1676418030.828454) can0 223#000000000000002D
(1676418030.833651) can0 020#000007
(1676418030.833665) can0 0B4#000000002C0000E8
(1676418030.835396) can0 025#0F8F0FC378787805
(1676418030.837408) can0 024#020301F6620E8018
(1676418030.839966) can0 0B0#00000000110A
(1676418030.841131) can0 0B2#00000000110A
(1676418030.842406) can0 224#0000000000000008
(1676418030.843706) can0 235#00000000003D
(1676418030.843720) can0 2C4#03D5002308802172
(1676418030.845491) can0 380#0000000000001900
(1676418030.845503) can0 394#00
(1676418030.846690) can0 440#4202000001000000
(1676418030.850867) can0 260#0E00000000000078
(1676418030.850876) can0 020#000007
(1676418030.854130) can0 0B4#000000002C0000E8
(1676418030.854134) can0 025#0F8F0FC378787805
(1676418030.854136) can0 024#020301F6620D8017
(1676418030.854137) can0 2D0#075D090010000057
(1676418030.855254) can0 0B0#00000000110B
(1676418030.855256) can0 0B2#00000000110B
(1676418030.855258) can0 223#000000000000002D
(1676418030.859655) can0 020#000007
(1676418030.859669) can0 0B4#000000002C0000E8
(1676418030.861062) can0 024#020301F7620D8018
(1676418030.863634) can0 025#0F8F0FC378787805
(1676418030.865598) can0 2C1#0800D5FFBCC60029
(1676418030.869233) can0 0B0#00000000110C
(1676418030.869250) can0 0B2#00000000110C
(1676418030.869253) can0 224#0000000000000008
(1676418030.869254) can0 235#00000000003D
(1676418030.869260) can0 2C4#03CD00230880216A
(1676418030.869261) can0 260#0E00000000000078
(1676418030.869264) can0 623#1900000000000000
(1676418030.869268) can0 3B3#03CB28
(1676418030.872426) can0 020#000007
(1676418030.873088) can0 0B4#000000002C0000E8
(1676418030.874583) can0 025#0F8F0FC378787805
(1676418030.875828) can0 024#020301F7620E8019
(1676418030.877430) can0 3A1#0000000000FF0000
(1676418030.880554) can0 624#1A00414949400000
(1676418030.880561) can0 0B0#00000000110D
(1676418030.880564) can0 0B2#00000000110D
(1676418030.880566) can0 223#000000000000002D
(1676418030.881864) can0 2D0#0756090010000050
(1676418030.882930) can0 020#000007
(1676418030.885021) can0 0B4#000000002C0000E8
(1676418030.885035) can0 025#0F8F0FC378787805
(1676418030.886584) can0 024#020301F6620E8018
(1676418030.888616) can0 630#1700000000000000
(1676418030.890176) can0 260#0E00000000000078
(1676418030.893938) can0 351#00000000
(1676418030.893949) can0 0B0#00000000110E
(1676418030.893951) can0 0B2#00000000110E
(1676418030.893954) can0 224#0000000000000008
(1676418030.893960) can0 235#00000000003D
(1676418030.893963) can0 2C4#03CA002308802167
(1676418030.893966) can0 2C1#0800D7FFB6C60025
(1676418030.898391) can0 020#000007
(1676418030.899682) can0 0B4#000000002C0000E8
(1676418030.899701) can0 025#0F8F0FC378787805
(1676418030.901483) can0 024#020301F6620E8018
(1676418030.903358) can0 0B0#00000000110F
(1676418030.904724) can0 0B2#00000000110F
(1676418030.908586) can0 223#000000000000002D
(1676418030.908596) can0 260#0E00000000000078
(1676418030.908598) can0 020#000007
(1676418030.908601) can0 0B4#000000002C0000E8
(1676418030.909744) can0 025#0F8F0FC378787805
(1676418030.909747) can0 3B7#0000800000000000
(1676418030.909748) can0 024#020301F7620E8019
(1676418030.912317) can0 2D0#075309001000004D
(1676418030.912985) can0 2C4#03C200230880215F
(1676418030.914937) can0 0B0#000000001100
(1676418030.916559) can0 0B2#000000001100
(1676418030.917977) can0 224#0000000000000008
(1676418030.920272) can0 235#00000000003D
(1676418030.922701) can0 3A0#005200000000003A
(1676418030.922706) can0 020#000007
(1676418030.922709) can0 0B4#000000002C0000E8
(1676418030.922711) can0 024#020301F7620D8018
(1676418030.924069) can0 025#0F8F0FC382828223
(1676418030.924383) can0 2C1#0800D4FFB3C6001F
(1676418030.925668) can0 0B0#000000001101
(1676418030.927053) can0 0B2#000000001101
(1676418030.928455) can0 223#000000000000002D
(1676418030.930198) can0 260#0E00000000000078
(1676418030.930216) can0 020#000007
(1676418030.931367) can0 0B4#000000002C0000E8
(1676418030.935830) can0 024#020301F6620D8017
(1676418030.935843) can0 025#0F8F0FC378787805
(1676418030.935866) can0 2C4#03C000230880215D
(1676418030.935882) can0 0B0#000000001102
(1676418030.936787) can0 0B2#000000001102
(1676418030.936820) can0 224#0000000000000008
(1676418030.939376) can0 235#00000000003D
(1676418030.942799) can0 020#000007
(1676418030.942808) can0 0B4#000000002C0000E8
(1676418030.943437) can0 025#0F8F0FC378787805
(1676418030.945381) can0 024#020301F6620E8018
(1676418030.945414) can0 2D0#074C090010000046
(1676418030.945426) can0 260#0E00000000000078
(1676418030.946878) can0 442#4002000000000000
(1676418030.948120) can0 351#00000000
(1676418030.948129) can0 0B0#000000001103
(1676418030.950285) can0 0B2#000000001103
(1676418030.953912) can0 223#000000000000002D
(1676418030.953914) can0 3B1#0000012500000000
(1676418030.954530) can0 2C1#0800DCFFB8C6002C
(1676418030.954542) can0 020#000007
(1676418030.956356) can0 0B4#000000002C0000E8
(1676418030.959118) can0 025#0F8F0FC378787805
(1676418030.960305) can0 024#020301F7620E8019
(1676418030.960336) can0 2C4#03BE00230880215B
(1676418030.962292) can0 0B0#000000001104
(1676418030.964552) can0 0B2#000000001104
(1676418030.967991) can0 224#0000000000000008
(1676418030.968000) can0 235#00000000003D
(1676418030.968002) can0 260#0E00000000000078
(1676418030.968003) can0 020#000007
(1676418030.968007) can0 0B4#000000002C0000E8
(1676418030.968009) can0 024#020301F7620D8018
(1676418030.968010) can0 025#0F8F0FC378787805
(1676418030.969478) can0 38A#0800040000
(1676418030.972949) can0 0B0#000000001105
(1676418030.975398) can0 0B2#000000001105
(1676418030.977274) can0 223#000000000000002D
(1676418030.978262) can0 2D0#074009001000003A
(1676418030.978275) can0 020#000007
(1676418030.981356) can0 0B4#000000002C0000E8
(1676418030.981358) can0 024#020301F6620E8018
(1676418030.981359) can0 025#0F8F0FC378787805
(1676418030.982703) can0 2C4#03BC002308802159
(1676418030.984724) can0 0B0#000000001106
(1676418030.984735) can0 0B2#000000001106
(1676418030.984744) can0 224#0000000000000008
(1676418030.986075) can0 235#00000000003D
(1676418030.988373) can0 260#0E00000000000078
(1676418030.989852) can0 2C1#0800DBFFB3C60026
(1676418030.992933) can0 020#000007
(1676418030.993049) can0 0B4#000000002C0000E8
(1676418030.993052) can0 025#0F8F0FC378787805
(1676418030.993054) can0 024#020301F6620E8018
(1676418030.996636) can0 0B0#000000001107
(1676418030.996659) can0 0B2#000000001107
(1676418030.998148) can0 223#000000000000002D
(1676418031.003196) can0 020#000007
(1676418031.003216) can0 0B4#000000002C0000E8
(1676418031.005196) can0 025#0F8F0FC378787805
(1676418031.005211) can0 024#020301F6620E8018
(1676418031.005938) can0 260#0E00000000000078
(1676418031.006989) can0 2C4#03BB002308802158
(1676418031.008550) can0 351#00000000
(1676418031.008562) can0 2D0#0736090010000030
(1676418031.010188) can0 0B0#000000001108
(1676418031.012451) can0 0B2#000000001108
(1676418031.015076) can0 224#0000000000000008
(1676418031.015084) can0 235#00000000003D
(1676418031.015086) can0 620#10000259F0402040
(1676418031.015087) can0 3A0#0052000000000039
(1676418031.015091) can0 020#000007
(1676418031.015093) can0 0B4#000000002C0000E8
(1676418031.016675) can0 024#020301F7620E8019
(1676418031.018330) can0 025#0F8F0FC378787805
(1676418031.020961) can0 2C1#0800DAFFB4C60026
(1676418031.022380) can0 0B0#000000001109
(1676418031.025081) can0 0B2#000000001109
(1676418031.025092) can0 223#000000000000002D
(1676418031.028145) can0 260#0E00000000000078
(1676418031.028159) can0 020#000007
(1676418031.028160) can0 0B4#000000002C0000E8
(1676418031.028162) can0 025#0F8F0FC378787805
(1676418031.029450) can0 024#020301F7620D8018
(1676418031.032477) can0 2C4#03B6002308802153
(1676418031.032492) can0 0B0#00000000110A
(1676418031.032501) can0 0B2#00000000110A
(1676418031.033659) can0 224#0000000000000008
(1676418031.035527) can0 235#00000000003D
(1676418031.038342) can0 020#000007
(1676418031.038352) can0 0B4#000000002C0000E8
(1676418031.038679) can0 2D0#072C090010000026
(1676418031.040168) can0 025#0F8F0FC378787805
(1676418031.041825) can0 024#020301F6620E8018
(1676418031.044636) can0 0B0#00000000110B
(1676418031.044649) can0 0B2#00000000110B
(1676418031.045956) can0 223#000000000000002D
(1676418031.045981) can0 440#4202000001000000
(1676418031.047162) can0 260#0E00000000000078
(1676418031.048786) can0 622#1200E83800000000
(1676418031.048800) can0 2C1#0800EAFFC0C70043
(1676418031.050912) can0 020#000007
(1676418031.050915) can0 0B4#000000002C0000E8
(1676418031.053342) can0 025#0F8F0FC378787805
(1676418031.056333) can0 024#020301F5620E8017
(1676418031.056336) can0 2C4#03B4002308802151
(1676418031.057231) can0 0B0#00000000110C
(1676418031.058572) can0 0B2#00000000110C
(1676418031.060515) can0 224#0000000000000008
(1676418031.062717) can0 235#00000000003D
(1676418031.062740) can0 020#000007
(1676418031.062852) can0 0B4#000000002C0000E8
(1676418031.063870) can0 024#020301F6620E8018
(1676418031.065679) can0 025#0F8F0FC378787805
(1676418031.068609) can0 260#0E00000000000078
(1676418031.068615) can0 351#00000000
(1676418031.069839) can0 0B0#00000000110D
(1676418031.071135) can0 0B2#00000000110D
(1676418031.073498) can0 223#000000000000002D
(1676418031.076626) can0 2D0#072309001000001D
(1676418031.076646) can0 020#000007
(1676418031.077820) can0 0B4#000000002C0000E8
(1676418031.077832) can0 025#0F8F0FC378787805
(1676418031.080147) can0 024#020301F7620E8019
(1676418031.083049) can0 2C4#03AC002308802149
(1676418031.083128) can0 0B0#00000000110E
(1676418031.083131) can0 0B2#00000000110E
(1676418031.083139) can0 224#0000000000000008
(1676418031.083141) can0 235#00000000003D
(1676418031.083143) can0 2C1#0800F0FFBBC70044
(1676418031.087050) can0 260#0E00000000000078
(1676418031.087060) can0 020#000007
(1676418031.087071) can0 0B4#000000002C0000E8
(1676418031.089171) can0 025#0F8F0FC378787805
(1676418031.092885) can0 024#020301F6620E8018
(1676418031.092912) can0 0B0#00000000110F
(1676418031.093940) can0 0B2#00000000110F
(1676418031.096331) can0 223#000000000000002D
(1676418031.099105) can0 020#000007
(1676418031.099115) can0 0B4#000000002C0000E8
(1676418031.099873) can0 025#0F8F0FC378787805
(1676418031.101669) can0 024#020301F6620E8018
(1676418031.101682) can0 2C4#03AD00230880214A
(1676418031.103316) can0 2D0#071A090010000014
(1676418031.105119) can0 0B0#000000001100
(1676418031.105128) can0 0B2#000000001100
(1676418031.107839) can0 224#0000000000000008
(1676418031.109163) can0 235#00000000003D
(1676418031.111816) can0 260#0E00000000000078
(1676418031.111819) can0 020#000007
(1676418031.111820) can0 0B4#000000002C0000E8
(1676418031.111824) can0 025#0F8F0FC378787805
(1676418031.115510) can0 024#020301F7620E8019
(1676418031.117109) can0 3A0#0052000000000039
(1676418031.117123) can0 2C1#0800F4FFC5C70052
(1676418031.118223) can0 0B0#000000001101
(1676418031.120210) can0 0B2#000000001101
(1676418031.122413) can0 223#000000000000002D
(1676418031.122427) can0 020#000007
(1676418031.124374) can0 0B4#000000002C0000E8
(1676418031.124383) can0 024#020301F7620D8018
(1676418031.124386) can0 025#0F8F0FC378787805
(1676418031.124390) can0 2C4#03AC002308802149
(1676418031.125722) can0 260#0E00000000000078
(1676418031.126465) can0 351#00000000
(1676418031.128930) can0 0B0#000000001102
(1676418031.128944) can0 0B2#000000001102
(1676418031.130434) can0 224#0000000000000008
(1676418031.132584) can0 235#00000000003D
(1676418031.133781) can0 2D0#070F090010000009
(1676418031.135148) can0 020#000007
(1676418031.135167) can0 0B4#000000002C0000E8
(1676418031.136177) can0 025#0F8F0FC378787805
(1676418031.136191) can0 024#020301F7620D8018
(1676418031.138744) can0 442#4002000000000000
(1676418031.142037) can0 0B0#000000001103
(1676418031.142044) can0 0B2#000000001103
(1676418031.143738) can0 223#000000000000002D
(1676418031.144884) can0 394#00
(1676418031.144897) can0 2C1#080101FFCEC8006A
(1676418031.146822) can0 260#0E00000000000078
(1676418031.146839) can0 020#000007
(1676418031.146855) can0 0B4#000000002C0000E8
(1676418031.147401) can0 025#0F8F0FC378787805
(1676418031.148983) can0 2C4#03AB002308802148
(1676418031.151991) can0 024#020301F6620E8018
(1676418031.152779) can0 0B0#000000001104
(1676418031.153520) can0 0B2#000000001104
(1676418031.153527) can0 224#0000000000000008
(1676418031.154736) can0 235#00000000003D
(1676418031.159581) can0 020#000007
(1676418031.159596) can0 0B4#000000002C0000E8
(1676418031.160366) can0 025#0F8F0FC378787805
(1676418031.162870) can0 024#020301F6620E8018
(1676418031.165525) can0 0B0#000000001105
(1676418031.165540) can0 0B2#000000001105
(1676418031.167016) can0 223#000000000000002D
(1676418031.167036) can0 260#0E00000000000078
(1676418031.169161) can0 2D0#0707090010000001
(1676418031.171169) can0 4C7#0800012100000000
(1676418031.171179) can0 2C4#03AB002308802148
(1676418031.172750) can0 020#000007
(1676418031.175537) can0 0B4#000000002C0000E8
(1676418031.176710) can0 024#020301F6620D8017
(1676418031.180238) can0 025#0F8F0FC382828223
(1676418031.180239) can0 2C1#0800F3FFCEC7005A
(1676418031.180241) can0 0B0#000000001106
(1676418031.181537) can0 0B2#000000001106
(1676418031.181540) can0 224#0000000000000008
(1676418031.181541) can0 235#00000000003D
(1676418031.183398) can0 020#000007
(1676418031.184789) can0 0B4#000000002C0000E8
(1676418031.186049) can0 024#020301F7620D8018
(1676418031.186074) can0 025#0F8F0FC378787805
(1676418031.187362) can0 260#0E00000000000078
(1676418031.189379) can0 351#00000000
(1676418031.192799) can0 0B0#000000001107
(1676418031.192807) can0 0B2#000000001107
(1676418031.192808) can0 223#000000000000002D
(1676418031.195224) can0 2C4#03A6002308802143
(1676418031.196292) can0 020#000007
(1676418031.196313) can0 0B4#000000002C0000E8
(1676418031.197512) can0 025#0F8F0FC378787805
(1676418031.198384) can0 024#020301F7620D8018
(1676418031.198797) can0 2D0#07020900100000FC
(1676418031.202282) can0 0B0#000000001108
(1676418031.203604) can0 0B2#000000001108
(1676418031.205618) can0 224#0000000000000008
(1676418031.205626) can0 235#00000000003D
(1676418031.207247) can0 260#0E00000000000078
(1676418031.207261) can0 610#20000064C0FFFEE0
(1676418031.208604) can0 020#000007
(1676418031.210708) can0 0B4#000000002C0000E8
(1676418031.214679) can0 2C1#080106FFD8C80079
(1676418031.214688) can0 3B7#0000800000000000
(1676418031.217224) can0 025#0F8F0FC378787805
(1676418031.217225) can0 024#020301F6620D8017
(1676418031.217227) can0 3A0#0053000000000039
(1676418031.217230) can0 0B0#000000001109
(1676418031.217232) can0 0B2#000000001109
(1676418031.217233) can0 223#000000000000002D
(1676418031.219941) can0 2C4#03A200230880213F
(1676418031.219950) can0 020#000007
(1676418031.219960) can0 0B4#000000002C0000E8
(1676418031.222589) can0 4C3#0300120100000000
(1676418031.225614) can0 025#0F8F0FC378787805
(1676418031.225636) can0 024#020301F6620D8017
(1676418031.226434) can0 260#0E00000000000078
(1676418031.228737) can0 0B0#00000000110A
(1676418031.228739) can0 0B2#00000000110A
(1676418031.228741) can0 224#0000000000000008
(1676418031.228748) can0 235#00000000003D
(1676418031.231329) can0 2D0#06FC0900100000F5
(1676418031.232569) can0 020#000007
(1676418031.234658) can0 0B4#000000002C0000E8
(1676418031.234674) can0 024#020301F6620E8018
(1676418031.235975) can0 025#0F8F0FC378787805
(1676418031.237223) can0 440#4202000001000000
(1676418031.239013) can0 0B0#00000000110B
(1676418031.241829) can0 0B2#00000000110B
(1676418031.241837) can0 223#000000000000002D
(1676418031.241839) can0 2C1#080109FFDBC8007F
(1676418031.243589) can0 2C4#0397002308802134
(1676418031.245533) can0 020#000007
(1676418031.245538) can0 0B4#000000002C0000E8
(1676418031.246978) can0 025#0F8F0FC378787805
(1676418031.246991) can0 024#020301F6620D8017
(1676418031.249234) can0 260#0E00000000000078
(1676418031.250754) can0 4C8#0900010200000000
(1676418031.252747) can0 351#00000000
(1676418031.255748) can0 0B0#00000000110C
(1676418031.255754) can0 0B2#00000000110C
(1676418031.255756) can0 224#0000000000000008
(1676418031.255759) can0 235#00000000003D
(1676418031.257626) can0 020#000007
(1676418031.258716) can0 0B4#000000002C0000E8
(1676418031.260420) can0 025#0F8F0FC378787805
(1676418031.261651) can0 024#020301F6620E8018
(1676418031.261665) can0 2D0#06F70900100000F0
(1676418031.264201) can0 0B0#00000000110D
(1676418031.265834) can0 0B2#00000000110D
(1676418031.268604) can0 223#000000000000002D
(1676418031.268711) can0 2C4#0394002308802131
(1676418031.268714) can0 260#0E00000000000078
(1676418031.268716) can0 020#000007
(1676418031.270108) can0 0B4#000000002C0000E8
(1676418031.270111) can0 025#0F8F0FC378787805
(1676418031.270125) can0 024#020301F7620E8019
(1676418031.274402) can0 2C1#080109FFDBC8007F
(1676418031.274411) can0 0B0#00000000110E
(1676418031.276185) can0 0B2#00000000110E
(1676418031.277723) can0 224#0000000000000008
(1676418031.279676) can0 235#00000000003D
(1676418031.279770) can0 020#000007
(1676418031.281116) can0 0B4#000000002C0000E8
(1676418031.283533) can0 024#020301F7620E8019
(1676418031.285174) can0 025#0F8F0FC378787805
(1676418031.285188) can0 260#0E00000000000078
(1676418031.287746) can0 0B0#00000000110F
(1676418031.287771) can0 0B2#00000000110F
(1676418031.287773) can0 223#000000000000002D
(1676418031.289122) can0 2C4#0394002308802131
(1676418031.292051) can0 020#000007
(1676418031.293274) can0 0B4#000000002C0000E8
(1676418031.293288) can0 025#0F8F0FC378787805
(1676418031.295157) can0 024#020301F7620D8018
(1676418031.297781) can0 2D0#06ED0900100000E6
(1676418031.297791) can0 0B0#000000001100
(1676418031.299147) can0 0B2#000000001100
(1676418031.301388) can0 224#0000000000000008
(1676418031.303067) can0 235#00000000003D
(1676418031.305737) can0 2C1#08010DFFDCC80084
(1676418031.305769) can0 020#000007
(1676418031.305773) can0 0B4#000000002C0000E8
(1676418031.305776) can0 025#0F8F0FC378787805
(1676418031.305781) can0 024#020301F6620D8017
(1676418031.306808) can0 260#0E00000000000078
(1676418031.310025) can0 351#00000000
(1676418031.310039) can0 0B0#000000001101
(1676418031.310859) can0 0B2#000000001101
(1676418031.311539) can0 223#000000000000002D
(1676418031.312754) can0 620#10000259F0402040
(1676418031.315235) can0 3A0#0053000000000039
(1676418031.317832) can0 2C4#039000230880212D
(1676418031.317834) can0 020#000007
(1676418031.317837) can0 0B4#000000002C0000E8
(1676418031.317840) can0 025#0F8F0FC378787805
(1676418031.317842) can0 024#020301F5620F8018
(1676418031.322233) can0 0B0#000000001102
(1676418031.322258) can0 0B2#000000001102
(1676418031.322701) can0 224#0000000000000008
(1676418031.325058) can0 235#00000000003D
(1676418031.325072) can0 2D0#06E40900100000DD
(1676418031.325086) can0 260#0E00000000000078
(1676418031.328157) can0 442#4002000000000000
(1676418031.328853) can0 611#210010A0000282AA
(1676418031.328855) can0 020#000007
(1676418031.328856) can0 0B4#000000002C0000E8
(1676418031.330066) can0 025#0F8F0FC378787805
(1676418031.331521) can0 024#020301F5620F8018
(1676418031.335053) can0 0B0#000000001103
(1676418031.335062) can0 0B2#000000001103
(1676418031.335687) can0 223#000000000000002D
(1676418031.337991) can0 2C1#080114FFE7C80096
(1676418031.339854) can0 621#1100000000000000
(1676418031.339863) can0 2C4#039200230880212F
(1676418031.341828) can0 020#000007
(1676418031.343516) can0 0B4#000000002C0000E8
(1676418031.345122) can0 025#0F8F0FC378787805
(1676418031.350118) can0 024#020301F7620E8019
(1676418031.350128) can0 260#0E00000000000078
(1676418031.350130) can0 0B0#000000001104
(1676418031.350131) can0 0B2#000000001104
(1676418031.352837) can0 224#0000000000000008
(1676418031.352841) can0 235#00000000003D
(1676418031.354540) can0 020#000007
(1676418031.355554) can0 0B4#000000002C0000E8
(1676418031.357083) can0 025#0F8F0FC378787805
(1676418031.357102) can0 024#020301F8620E801A
(1676418031.358579) can0 2D0#06D90900100000D2
(1676418031.359639) can0 0B0#000000001105
(1676418031.362900) can0 0B2#000000001105
(1676418031.362920) can0 223#000000000000002D
(1676418031.362924) can0 2C4#038C002308802129
(1676418031.364437) can0 020#000007
(1676418031.365471) can0 0B4#000000002C0000E8
(1676418031.366132) can0 025#0F8F0FC378787805
(1676418031.366536) can0 024#020301F8620E801A
(1676418031.367730) can0 260#0E00000000000078
(1676418031.370036) can0 351#00000000
(1676418031.372094) can0 2C1#0800FBFFE2C70076
(1676418031.375596) can0 0B0#000000001106
(1676418031.375616) can0 0B2#000000001106
(1676418031.375620) can0 224#0000000000000008
(1676418031.375623) can0 235#00000000003D
(1676418031.376791) can0 020#000007
(1676418031.378653) can0 0B4#000000002C0000E8
(1676418031.379631) can0 025#0F8F0FC378787805
(1676418031.379645) can0 024#020301F6620E8018
(1676418031.382133) can0 3B3#038B28
(1676418031.383257) can0 0B0#000000001107
(1676418031.385369) can0 0B2#000000001107
(1676418031.388515) can0 223#000000000000002D
(1676418031.388616) can0 2C4#038B002308802128
(1676418031.388618) can0 260#0E00000000000078
(1676418031.388619) can0 2D0#06CF0900100000C8
(1676418031.388910) can0 020#000007
(1676418031.389928) can0 0B4#000000002C0000E8
(1676418031.392095) can0 024#020301F6620E8018
(1676418031.394253) can0 025#0F8F0FC382828223
(1676418031.396044) can0 0B0#000000001108
(1676418031.398187) can0 0B2#000000001108
(1676418031.399966) can0 224#0000000000000008
(1676418031.401519) can0 235#00000000003D
(1676418031.404699) can0 2C1#08010AFFE6C8008B
(1676418031.404711) can0 020#000007
(1676418031.404714) can0 0B4#000000002C0000E8
(1676418031.404716) can0 024#020301F6620E8018
(1676418031.404723) can0 025#0F8F0FC378787805
(1676418031.406535) can0 260#0E00000000000078
(1676418031.408646) can0 0B0#000000001109
(1676418031.409929) can0 0B2#000000001109
(1676418031.411709) can0 223#000000000000002D
(1676418031.411726) can0 2C4#038C002308802129
(1676418031.413452) can0 3A0#0052000000000039
(1676418031.415596) can0 020#000007
(1676418031.418334) can0 0B4#000000002C0000E8
(1676418031.418344) can0 398#00EB
(1676418031.418346) can0 025#0F8F0FC378787805
(1676418031.418358) can0 024#020301F7620D8018
(1676418031.419372) can0 0B0#00000000110A
(1676418031.419385) can0 0B2#00000000110A
(1676418031.424093) can0 224#0000000000000008
(1676418031.424097) can0 235#00000000003D
(1676418031.424137) can0 2D0#06CB0900100000C4
(1676418031.425521) can0 020#000007
(1676418031.426716) can0 0B4#000000002C0000E8
(1676418031.429006) can0 025#0F8F0FC378787805
(1676418031.432095) can0 440#4202000001000000
(1676418031.432114) can0 024#020301F7620E8019
(1676418031.432116) can0 260#0E00000000000078
(1676418031.432118) can0 351#00000000
(1676418031.432124) can0 2C1#080114FFECC8009B
(1676418031.432127) can0 2C4#038A002308802127
(1676418031.432129) can0 0B0#00000000110B
(1676418031.432150) can0 0B2#00000000110B
(1676418031.432152) can0 223#000000000000002D
(1676418031.436285) can0 382#1818
(1676418031.437747) can0 4DD#1E00000100000000
(1676418031.439940) can0 020#000007
(1676418031.441488) can0 0B4#000000002C0000E8
(1676418031.442880) can0 024#020301F7620E8019
(1676418031.445873) can0 025#0F8F0FC378787805
(1676418031.445890) can0 3B4#0000ACB080000000
(1676418031.445892) can0 0B0#00000000110C
(1676418031.445893) can0 0B2#00000000110C
(1676418031.447173) can0 224#0000000000000008
(1676418031.447176) can0 235#00000000003D
(1676418031.447178) can0 394#00
(1676418031.447188) can0 260#0E00000000000078
(1676418031.451282) can0 020#000007
(1676418031.451291) can0 0B4#000000002C0000E8
(1676418031.451650) can0 024#020301F7620E8019
(1676418031.454715) can0 025#0F8F0FC378787805
(1676418031.456205) can0 2D0#06C40900100000BD
(1676418031.459715) can0 2C4#038C002308802129
(1676418031.459716) can0 0B0#00000000110D
(1676418031.459718) can0 0B2#00000000110D
(1676418031.459722) can0 223#000000000000002D
(1676418031.461015) can0 638#13001F0000000000
(1676418031.461757) can0 020#000007
(1676418031.463483) can0 0B4#000000002C0000E8
(1676418031.465053) can0 025#0F8F0FC378787805
(1676418031.465428) can0 024#020301F7620D8018
(1676418031.467298) can0 2C1#080120FFFEC900BA
(1676418031.468813) can0 260#0E00000000000078
(1676418031.472500) can0 0B0#00000000110E
(1676418031.472504) can0 0B2#00000000110E
(1676418031.472506) can0 224#0000000000000008
(1676418031.472508) can0 235#00000000003D
(1676418031.473053) can0 020#000007
(1676418031.476992) can0 0B4#000000002C0000E8
(1676418031.477023) can0 025#0F8F0FC378787805
(1676418031.478421) can0 024#020301F6620E8018
(1676418031.478438) can0 2C4#0389002308802126
(1676418031.480176) can0 0B0#00000000110F
(1676418031.482148) can0 0B2#00000000110F
(1676418031.484771) can0 223#000000000000002D
(1676418031.484779) can0 2D0#06BE0900100000B7
(1676418031.484780) can0 020#000007
(1676418031.484793) can0 0B4#000000002C0000E8
(1676418031.485970) can0 024#020301F6620F8019
(1676418031.488555) can0 025#0F8F0FC378787805
(1676418031.490812) can0 260#0E00000000000078
(1676418031.491710) can0 351#00000000
(1676418031.491727) can0 0B0#000000001100
(1676418031.493524) can0 0B2#000000001100
(1676418031.494918) can0 224#0000000000000008
(1676418031.496463) can0 235#00000000003D
(1676418031.500451) can0 4C6#0700010000000000
(1676418031.500452) can0 2C1#08011E0003C800BD
(1676418031.500454) can0 020#000007
(1676418031.500458) can0 0B4#000000002C0000E8
(1676418031.500460) can0 024#020301F6620E8018
(1676418031.500461) can0 025#0F8F0FC378787805
(1676418031.502655) can0 4C1#0100090000000000
(1676418031.504381) can0 2C4#038C002308802129
(1676418031.504391) can0 0B0#000000001101
(1676418031.506725) can0 0B2#000000001101
(1676418031.508867) can0 223#000000000000002D
(1676418031.508881) can0 260#0E00000000000078
(1676418031.510226) can0 020#000007
(1676418031.513424) can0 0B4#000000002C0000E8
(1676418031.513427) can0 3B7#0000800000000000
(1676418031.513430) can0 025#0F8F0FC378787805
(1676418031.513435) can0 024#020301F6620D8017
(1676418031.513437) can0 382#1919
(1676418031.513439) can0 3A0#0052000000000038
(1676418031.516223) can0 0B0#000000001102
(1676418031.518327) can0 0B2#000000001102
(1676418031.519985) can0 224#0000000000000008
(1676418031.519999) can0 235#00000000003D
(1676418031.521736) can0 2D0#06BD0900100000B6
(1676418031.523846) can0 020#000007
(1676418031.525272) can0 0B4#000000002C0000E8
(1676418031.528791) can0 025#0F8F0FC378787805
(1676418031.528793) can0 024#020301F7620D8018
(1676418031.528794) can0 2C4#0383002308802120
(1676418031.528798) can0 2C1#08011DFFFAC800B2
(1676418031.528801) can0 260#0E00000000000078
(1676418031.528803) can0 442#4002000000000000
(1676418031.530007) can0 0B0#000000001103
(1676418031.530010) can0 0B2#000000001103
(1676418031.530014) can0 223#000000000000002D
(1676418031.533321) can0 020#000007
(1676418031.533695) can0 0B4#000000002C0000E8
(1676418031.534885) can0 025#0F8F0FC378787805
(1676418031.537081) can0 024#020301F6620D8017
(1676418031.538757) can0 0B0#000000001104
(1676418031.541618) can0 0B2#000000001104
(1676418031.541626) can0 224#0000000000000008
(1676418031.541628) can0 235#00000000003D
(1676418031.545106) can0 020#000007
(1676418031.545126) can0 0B4#000000002C0000E8
(1676418031.546096) can0 024#020301F6620E8018
(1676418031.546631) can0 025#0F8F0FC378787805
(1676418031.547482) can0 260#0E00000000000078
(1676418031.548482) can0 351#00000000
(1676418031.550841) can0 2D0#06BE0900100000B7
(1676418031.552551) can0 2C4#0385002308802122
(1676418031.554914) can0 0B0#000000001105
(1676418031.554922) can0 0B2#000000001105
(1676418031.554924) can0 223#000000000000002D
(1676418031.557071) can0 2C1#08011F0004C800BF
(1676418031.557083) can0 020#000007
(1676418031.558441) can0 0B4#000000002C0000E8
(1676418031.560075) can0 024#020301F6620E8018
(1676418031.561517) can0 025#0F8F0FC378787805
(1676418031.562747) can0 0B0#000000001106
(1676418031.564503) can0 0B2#000000001106
(1676418031.564510) can0 224#0000000000000008
(1676418031.567374) can0 235#00000000003D
(1676418031.568950) can0 260#0E00000000000078
(1676418031.568966) can0 020#000007
(1676418031.571180) can0 0B4#000000002C0000E8
(1676418031.571194) can0 025#0F8F0FC378787805
(1676418031.572925) can0 024#020301F7620E8019
(1676418031.575471) can0 2C4#0384002308802121
(1676418031.575481) can0 0B0#000000001107
(1676418031.576790) can0 0B2#000000001107
(1676418031.578676) can0 223#000000000000002D
(1676418031.581410) can0 2D0#06BD0900100000B6
(1676418031.581411) can0 020#000007
(1676418031.581413) can0 0B4#000000002C0000E8
(1676418031.582941) can0 025#0F8F0FC378787805
(1676418031.585304) can0 024#020301F6620D8017
(1676418031.586940) can0 260#0E00000000000078
(1676418031.586952) can0 0B0#000000001108
(1676418031.588242) can0 0B2#000000001108
(1676418031.589684) can0 224#0000000000000008
(1676418031.592000) can0 235#00000000003D
(1676418031.594066) can0 2C1#080119FFFDC800B1
(1676418031.596672) can0 020#000007
(1676418031.596674) can0 0B4#000000002C0000E8
(1676418031.596675) can0 024#020301F5620D8016
(1676418031.598709) can0 025#0F8F0FC378787805
(1676418031.598711) can0 2C4#0385002308802122
(1676418031.602137) can0 0B0#000000001109
(1676418031.602146) can0 0B2#000000001109
(1676418031.603529) can0 223#000000000000002D
(1676418031.605052) can0 020#000007
(1676418031.605062) can0 0B4#000000002C0000E8
(1676418031.608719) can0 025#0F8F0FC378787805
(1676418031.608726) can0 024#020301F6620E8018
(1676418031.611938) can0 260#0E00000000000078
(1676418031.612069) can0 351#00000000
(1676418031.612073) can0 2D0#06BC0900100000B5
(1676418031.612075) can0 620#10000259F0402040
(1676418031.612728) can0 0B0#00000000110A
(1676418031.612730) can0 0B2#00000000110A
(1676418031.612731) can0 224#0000000000000008
(1676418031.612737) can0 235#00000000003D
(1676418031.614008) can0 3A0#0052000000000038
(1676418031.617834) can0 020#000007
(1676418031.619076) can0 0B4#000000002C0000E8
(1676418031.621377) can0 025#0F8F0FC378787805
(1676418031.622644) can0 024#020301F6620D8017
(1676418031.626183) can0 2C4#0387002308802124
(1676418031.626192) can0 2C1#0801270011C900D5
(1676418031.626194) can0 0B0#00000000110B
(1676418031.626196) can0 0B2#00000000110B
(1676418031.628760) can0 223#000000000000002D
(1676418031.628764) can0 260#0E00000000000078
(1676418031.628772) can0 440#4202000001000000
(1676418031.630147) can0 020#000007
(1676418031.630156) can0 0B4#000000002C0000E8
(1676418031.631550) can0 025#0F8F0FC378787805
(1676418031.633431) can0 024#020301F6620D8017
(1676418031.635155) can0 0B0#00000000110C
(1676418031.635165) can0 0B2#00000000110C
(1676418031.637675) can0 224#0000000000000008
(1676418031.637676) can0 235#00000000003D
(1676418031.642101) can0 020#000007
(1676418031.642116) can0 0B4#000000002C0000E8
(1676418031.642132) can0 024#020301F6620D8017
(1676418031.643488) can0 025#0F8F0FC378787805
(1676418031.645168) can0 2C4#038200230880211F
(1676418031.646918) can0 2D0#06BB0900100000B4
(1676418031.646931) can0 260#0E00000000000078
(1676418031.648296) can0 0B0#00000000110D
(1676418031.652064) can0 0B2#00000000110D
(1676418031.652068) can0 223#000000000000002D
(1676418031.653095) can0 2C1#0801230012C900D2
(1676418031.653109) can0 020#000007
(1676418031.653811) can0 0B4#000000002C0000E8
(1676418031.656131) can0 024#020301F5620E8017
(1676418031.660223) can0 025#0F8F0FC382828223
(1676418031.660238) can0 0B0#00000000110E
(1676418031.660249) can0 0B2#00000000110E
(1676418031.662226) can0 224#0000000000000008
(1676418031.663585) can0 235#00000000003D
(1676418031.666494) can0 020#000007
(1676418031.666517) can0 0B4#000000002C0000E8
(1676418031.667342) can0 260#0E00000000000078
(1676418031.668473) can0 2C4#0384002308802121
(1676418031.669566) can0 024#020301F6620E8018
(1676418031.671355) can0 025#0F8F0FC378787805
(1676418031.672586) can0 351#00000000
(1676418031.672977) can0 0B0#00000000110F
(1676418031.675705) can0 0B2#00000000110F
(1676418031.680280) can0 223#000000000000002D
(1676418031.680294) can0 2D0#06B90900100000B2
(1676418031.680298) can0 020#000007
(1676418031.680300) can0 0B4#000000002C0000E8
(1676418031.680303) can0 025#0F8F0FC378787805
(1676418031.681623) can0 024#020301F6620D8017
(1676418031.683656) can0 0B0#000000001100
(1676418031.685176) can0 0B2#000000001100
(1676418031.686368) can0 224#0000000000000008
(1676418031.688510) can0 235#00000000003D
(1676418031.689977) can0 2C1#08011B0009C800C0
(1676418031.692252) can0 260#0E00000000000078
(1676418031.695305) can0 2C4#0384002308802121
(1676418031.695314) can0 020#000007
(1676418031.695316) can0 0B4#000000002C0000E8
(1676418031.695317) can0 025#0F8F0FC378787805
(1676418031.695322) can0 024#020301F7620D8018
(1676418031.701084) can0 0B0#000000001101
(1676418031.701099) can0 0B2#000000001101
(1676418031.701108) can0 223#000000000000002D
(1676418031.703211) can0 020#000007
(1676418031.704209) can0 0B4#000000002C0000E8
(1676418031.705180) can0 024#020301F7620D8018
(1676418031.706425) can0 025#0F8F0FC378787805
(1676418031.709992) can0 2D0#06B80900100000B1
(1676418031.709995) can0 260#0E00000000000078
(1676418031.709997) can0 610#20000064C0FFFEE0
(1676418031.710001) can0 0B0#000000001102
(1676418031.710002) can0 0B2#000000001102
(1676418031.710004) can0 224#0000000000000008
(1676418031.711252) can0 235#00000000003D
(1676418031.713231) can0 3A0#0053000000000038
(1676418031.714330) can0 2C4#038100230880211E
(1676418031.715080) can0 020#000007
(1676418031.716720) can0 0B4#000000002C0000E8
(1676418031.718284) can0 025#0F8F0FC378787805
(1676418031.719827) can0 024#020201F6620E7F16
(1676418031.722772) can0 2C1#0801190010C800C5
(1676418031.722774) can0 0B0#000000001103
(1676418031.722775) can0 0B2#000000001103
(1676418031.726026) can0 223#000000000000002D
(1676418031.726830) can0 260#0E00000000000078
(1676418031.730609) can0 020#000007
(1676418031.730617) can0 0B4#000000002C0000E8
(1676418031.732363) can0 025#0F8F0FC378787805
(1676418031.734119) can0 351#00000000
(1676418031.735726) can0 024#020301F6620E8018
(1676418031.737680) can0 442#4002000000000000
(1676418031.741026) can0 0B0#000000001104
(1676418031.741033) can0 0B2#000000001104
(1676418031.741036) can0 224#0000000000000008
(1676418031.741038) can0 235#00000000003D
(1676418031.742105) can0 2C4#038000230880211D
(1676418031.742109) can0 2D0#06B80900100000B1
(1676418031.742111) can0 020#000007
(1676418031.742120) can0 0B4#000000002C0000E8
(1676418031.742123) can0 025#0F8F0FC378787805
(1676418031.742125) can0 024#020301F7620E8019
(1676418031.746546) can0 4DC#1D00030200000000
(1676418031.747666) can0 0B0#000000001105
(1676418031.749809) can0 0B2#000000001105
(1676418031.751322) can0 223#000000000000002D
(1676418031.755160) can0 394#00
(1676418031.755171) can0 260#0E00000000000078
(1676418031.755175) can0 2C1#0801210018C900D6
(1676418031.755179) can0 020#000007
(1676418031.755185) can0 0B4#000000002C0000E8
(1676418031.755189) can0 024#020301F7620E8019
(1676418031.755191) can0 025#0F8F0FC378787805
(1676418031.755197) can0 38C#0000000000000039
(1676418031.759383) can0 0B0#000000001106
(1676418031.759487) can0 0B2#000000001106
(1676418031.760841) can0 224#0000000000000008
(1676418031.762849) can0 235#00000000003D
(1676418031.764200) can0 2C4#037B002308802118
(1676418031.767782) can0 020#000007
(1676418031.767788) can0 0B4#000000002C0000E8
(1676418031.767792) can0 025#0F8F0FC378787805
(1676418031.767795) can0 024#020301F6620D8017
(1676418031.769016) can0 260#0E00000000000078
(1676418031.769029) can0 0B0#000000001107
(1676418031.770370) can0 0B2#000000001107
(1676418031.772888) can0 223#000000000000002D
(1676418031.773842) can0 2D0#06B60900100000AF
(1676418031.775558) can0 020#000007
(1676418031.781576) can0 0B4#000000002C0000E8
(1676418031.781598) can0 025#0F8F0FC378787805
(1676418031.782746) can0 024#020301F6620E8018
(1676418031.782747) can0 2C1#08012D0013C900DD
(1676418031.782749) can0 0B0#000000001108
(1676418031.782753) can0 0B2#000000001108
(1676418031.782756) can0 224#0000000000000008
(1676418031.782758) can0 235#00000000003D
(1676418031.784096) can0 3B0#0000003B0000
(1676418031.787696) can0 2C4#038100230880211E
(1676418031.789883) can0 260#0E00000000000078
(1676418031.791649) can0 020#000007
(1676418031.793524) can0 0B4#000000002C0000E8
(1676418031.796005) can0 025#0F8F0FC378787805
(1676418031.796023) can0 351#00000000
(1676418031.796026) can0 024#020301F7620E8019
(1676418031.796028) can0 638#13803F0000000000
(1676418031.796037) can0 0B0#000000001109
(1676418031.796039) can0 0B2#000000001109
(1676418031.796042) can0 223#000000000000002D
(1676418031.800507) can0 020#000007
(1676418031.800522) can0 0B4#000000002C0000E8
(1676418031.803433) can0 025#0F8F0FC378787805
(1676418031.803442) can0 024#020201F7620D7F16
(1676418031.805862) can0 2D0#06B40900100000AD
(1676418031.807871) can0 0B0#00000000110A
(1676418031.811476) can0 0B2#00000000110A
(1676418031.811490) can0 224#0000000000000008
(1676418031.811492) can0 235#00000000003D
(1676418031.811493) can0 260#0E00000000000078
(1676418031.811497) can0 2C4#038200230880211F
(1676418031.811500) can0 020#000007
(1676418031.811501) can0 0B4#000000002C0000E8
(1676418031.811515) can0 025#0F8F0FC378787805
(1676418031.811525) can0 024#020301F7620D8018
(1676418031.811537) can0 3B7#0000800000000000
(1676418031.813915) can0 2C1#08011D0015C800CE
(1676418031.815778) can0 3A0#0053000000000038
(1676418031.817524) can0 0B0#00000000110B
(1676418031.819310) can0 0B2#00000000110B
(1676418031.822058) can0 223#000000000000002D
(1676418031.822072) can0 020#000007
(1676418031.823554) can0 0B4#000000002C0000E8
(1676418031.825189) can0 025#0F8F0FC378787805
(1676418031.825206) can0 024#020301F6620F8019
(1676418031.826604) can0 423#00
(1676418031.827407) can0 440#4202000001000000
(1676418031.827789) can0 260#0E00000000000078
(1676418031.830137) can0 0B0#00000000110C
(1676418031.832567) can0 0B2#00000000110C
(1676418031.835737) can0 224#0000000000000008
(1676418031.835744) can0 235#00000000003D
(1676418031.835746) can0 2C4#0385002308802122
(1676418031.835748) can0 2D0#06B10900100000AA
(1676418031.835752) can0 020#000007
(1676418031.835753) can0 0B4#000000002C0000E8
(1676418031.835755) can0 025#0F8F0FC378787805
(1676418031.837120) can0 024#020301F6620F8019
(1676418031.841879) can0 0B0#00000000110D
(1676418031.841894) can0 0B2#00000000110D
(1676418031.842218) can0 223#000000000000002D
(1676418031.845385) can0 380#0000000000001900
(1676418031.845394) can0 2C1#0801280025C900EA
(1676418031.847884) can0 260#0E00000000000078
(1676418031.847890) can0 020#000007
(1676418031.847892) can0 0B4#000000002C0000E8
(1676418031.847895) can0 025#0F8F0FC378787805
(1676418031.849133) can0 351#00000000
(1676418031.849135) can0 024#020301F6620E8018
(1676418031.852346) can0 0B0#00000000110E
(1676418031.852360) can0 0B2#00000000110E
(1676418031.852379) can0 224#0000000000000008
(1676418031.854040) can0 235#00000000003D
(1676418031.854053) can0 2C4#0386002308802123
(1676418031.859318) can0 020#000007
(1676418031.859335) can0 0B4#000000002C0000E8
(1676418031.859967) can0 025#0F8F0FC378787805
(1676418031.861592) can0 024#020301F7620E8019
(1676418031.864421) can0 2D0#06B20900100000AB
(1676418031.864425) can0 0B0#00000000110F
(1676418031.865452) can0 0B2#00000000110F
(1676418031.865466) can0 223#000000000000002D
(1676418031.870486) can0 260#0E00000000000078
(1676418031.870500) can0 623#1900000000000000
(1676418031.870514) can0 020#000007
(1676418031.870528) can0 0B4#000000002C0000E8
(1676418031.871037) can0 025#0F8F0FC378787805
(1676418031.871842) can0 024#020301F7620E8019
(1676418031.876397) can0 3A1#0000000000FF0000
(1676418031.876405) can0 2C1#08011E0024C800DE
(1676418031.877238) can0 624#1A00414949400000
(1676418031.878949) can0 0B0#000000001100
(1676418031.881484) can0 0B2#000000001100
(1676418031.881506) can0 224#0000000000000008
(1676418031.882227) can0 235#00000000003D
(1676418031.883964) can0 2C4#0386002308802123
(1676418031.886190) can0 020#000007
(1676418031.888750) can0 0B4#000000002C0000E8
(1676418031.888769) can0 024#020301F6620E8018
(1676418031.888772) can0 025#0F8F0FC382828223
(1676418031.888774) can0 260#0E00000000000078
(1676418031.890164) can0 630#1700000000000000
(1676418031.890167) can0 0B0#000000001101
(1676418031.890168) can0 0B2#000000001101
(1676418031.890175) can0 223#000000000000002D
(1676418031.894481) can0 3B3#038628
(1676418031.894505) can0 383#0000000000000000
(1676418031.895088) can0 020#000007
(1676418031.896797) can0 0B4#000000002C0000E8
(1676418031.898426) can0 025#0F8F0FC378787805
(1676418031.901563) can0 024#020301F6620E8018
(1676418031.901573) can0 2D0#06B50900100000AE
(1676418031.901575) can0 0B0#000000001102
(1676418031.901576) can0 0B2#000000001102
(1676418031.901580) can0 224#0000000000000008
(1676418031.901581) can0 235#00000000003D
(1676418031.901583) can0 2C4#0386002308802123
(1676418031.906071) can0 260#0E00000000000078
(1676418031.906092) can0 2C1#0801270036C900FA
(1676418031.908282) can0 020#000007
(1676418031.909665) can0 0B4#000000002C0000E8
(1676418031.911914) can0 024#020301F7620E8019
(1676418031.913338) can0 025#0F8F0FC378787805
(1676418031.916780) can0 351#00000000
(1676418031.916781) can0 620#10000259F0402040
(1676418031.916783) can0 3A0#0053000000000038
(1676418031.918327) can0 0B0#000000001103
(1676418031.918328) can0 0B2#000000001103
(1676418031.918330) can0 223#000000000000002D
(1676418031.918336) can0 442#4002000000000000
(1676418031.919837) can0 020#000007
(1676418031.922140) can0 0B4#000000002C0000E8
(1676418031.924607) can0 024#020301F7620E8019
(1676418031.926006) can0 025#0F8F0FC378787805
(1676418031.927984) can0 0B0#000000001104
(1676418031.929434) can0 0B2#000000001104
(1676418031.932316) can0 224#0000000000000008
(1676418031.932324) can0 235#00000000003D
(1676418031.932325) can0 2C4#0385002308802122
(1676418031.932327) can0 260#0E00000000000078
(1676418031.932331) can0 2D0#06B60900100000AF
(1676418031.932332) can0 020#000007
(1676418031.932336) can0 0B4#000000002C0000E8
(1676418031.933575) can0 025#0F8F0FC378787805
(1676418031.933578) can0 024#020301F6620E8018
(1676418031.936157) can0 0B0#000000001105
(1676418031.937361) can0 0B2#000000001105
(1676418031.938633) can0 223#000000000000002D
(1676418031.941100) can0 2C1#08011E0032C800EC
(1676418031.943407) can0 020#000007
(1676418031.943421) can0 0B4#000000002C0000E8
(1676418031.943425) can0 025#0F8F0FC378787805
(1676418031.943427) can0 024#020201F6620E8118
(1676418031.945177) can0 260#0E00000000000078
(1676418031.948038) can0 2C4#0387002308802124
(1676418031.948678) can0 0B0#000000001106
(1676418031.948799) can0 0B2#000000001106
(1676418031.950116) can0 224#0000000000000008
(1676418031.952286) can0 235#00000000003D
(1676418031.954238) can0 3B1#0000012500000000
(1676418031.954262) can0 020#000007
(1676418031.954275) can0 0B4#000000002C0000E8
(1676418031.954392) can0 024#020201F7620E7F17
(1676418031.956074) can0 025#0F8F0FC378787805
(1676418031.959597) can0 2D0#06BB0900100000B4
(1676418031.960516) can0 0B0#000000001107
(1676418031.960533) can0 0B2#000000001107
(1676418031.961874) can0 223#000000000000002D
(1676418031.966910) can0 260#0E00000000000078
(1676418031.966928) can0 351#00000000
(1676418031.966937) can0 020#000007
(1676418031.966946) can0 0B4#000000002C0000E8
(1676418031.968172) can0 024#020301F7620D8018
(1676418031.969318) can0 025#0F8F0FC378787805
(1676418031.972851) can0 2C1#0801200036C900F3
(1676418031.972862) can0 2C4#0389002308802126
(1676418031.972880) can0 0B0#000000001108
(1676418031.975010) can0 0B2#000000001108
(1676418031.976215) can0 224#0000000000000008
(1676418031.978698) can0 235#00000000003D
(1676418031.978713) can0 020#000007
(1676418031.978722) can0 0B4#000000002C0000E8
(1676418031.980963) can0 025#0F8F0FC378787805
(1676418031.983153) can0 024#020301F7620D8018
(1676418031.985480) can0 0B0#000000001109
(1676418031.985489) can0 0B2#000000001109
(1676418031.985491) can0 223#000000000000002D
(1676418031.987159) can0 260#0E00000000000078
(1676418031.991298) can0 020#000007
(1676418031.991414) can0 0B4#000000002C0000E8
(1676418031.991428) can0 025#0F8F0FC378787805
(1676418031.991441) can0 2D0#06C00900100000B9
(1676418031.992755) can0 024#020301F6620F8019
(1676418031.996576) can0 2C4#0389002308802126
(1676418031.996584) can0 0B0#00000000110A
(1676418031.996593) can0 0B2#00000000110A
(1676418031.998324) can0 224#0000000000000008
(1676418031.999716) can0 235#00000000003D
(1676418032.002123) can0 2C1#0801230037C900F7
(1676418032.002132) can0 020#000007
(1676418032.002785) can0 0B4#000000002C0000E8
(1676418032.003970) can0 025#0F8F0FC378787805
(1676418032.005283) can0 024#020301F6620E8018
(1676418032.006409) can0 260#0E00000000000078
(1676418032.009054) can0 0B0#00000000110B
(1676418032.010993) can0 0B2#00000000110B
(1676418032.011008) can0 223#000000000000002D
(1676418032.011492) can0 3A0#0053000000000038
(1676418032.014876) can0 020#000007
(1676418032.014891) can0 0B4#000000002C0000E8
(1676418032.014900) can0 025#0F8F0FC378787805
(1676418032.016283) can0 024#020301F6620D8017
(1676418032.018805) can0 440#4202000001000000
(1676418032.020607) can0 2C4#0394002308802131
(1676418032.020620) can0 0B0#00000000110C
(1676418032.021273) can0 0B2#00000000110C
(1676418032.022889) can0 224#0000000000000008
(1676418032.025663) can0 235#00000000003D
(1676418032.027685) can0 2D0#06C30900100000BC
(1676418032.027692) can0 260#0E00000000000078
(1676418032.027694) can0 351#00000000
(1676418032.027695) can0 020#000007
(1676418032.029413) can0 0B4#000000002C0000E8
(1676418032.029415) can0 025#0F8F0FC378787805
(1676418032.029417) can0 024#020301F7620D8018
(1676418032.032858) can0 0B0#00000000110D
(1676418032.035349) can0 0B2#00000000110D
(1676418032.036955) can0 223#000000000000002D
(1676418032.038839) can0 2C1#0801100037C800E3
(1676418032.038872) can0 020#000007
(1676418032.040450) can0 0B4#000000002C0000E8
(1676418032.044985) can0 025#0F8F0FC378787805
(1676418032.044999) can0 024#020301F7620D8018
(1676418032.045002) can0 2C4#039200230880212F
(1676418032.045040) can0 394#00
(1676418032.045047) can0 0B0#00000000110E
(1676418032.046022) can0 0B2#00000000110E
(1676418032.048191) can0 224#0000000000000008
(1676418032.050266) can0 235#00000000003D
(1676418032.050285) can0 260#0E00000000000078
(1676418032.051014) can0 622#1200E83800000000
(1676418032.052686) can0 020#000007
(1676418032.055399) can0 0B4#000000002C0000E8
(1676418032.055403) can0 025#0F8F0FC378787805
(1676418032.055404) can0 024#020301F6620D8017
(1676418032.055406) can0 2D0#06C90900100000C2
(1676418032.056970) can0 0B0#00000000110F
(1676418032.058873) can0 0B2#00000000110F
(1676418032.063005) can0 223#000000000000002D
(1676418032.063014) can0 020#000007
(1676418032.063024) can0 0B4#000000002C0000E8
(1676418032.064358) can0 024#020301F6620E8018
(1676418032.064488) can0 025#0F8F0FC378787805
(1676418032.066044) can0 2C1#08010B003BC800E2
(1676418032.066053) can0 260#0E00000000000078
(1676418032.067439) can0 2C4#039000230880212D
(1676418032.068967) can0 0B0#000000001100
(1676418032.068983) can0 0B2#000000001100
(1676418032.070446) can0 224#0000000000000008
(1676418032.073447) can0 235#00000000003D
(1676418032.075327) can0 020#000007
(1676418032.076643) can0 0B4#000000002C0000E8
(1676418032.076658) can0 025#0F8F0FC378787805
(1676418032.078060) can0 024#020301F7620E8019
(1676418032.080871) can0 0B0#000000001101
(1676418032.081330) can0 0B2#000000001101
(1676418032.083192) can0 223#000000000000002D
(1676418032.086888) can0 260#0E00000000000078
(1676418032.086909) can0 2D0#06D00900100000C9
(1676418032.086925) can0 351#00000000
(1676418032.086938) can0 020#000007
(1676418032.089333) can0 0B4#000000002C0000E8
(1676418032.089339) can0 025#0F8F0FC378787805
(1676418032.089352) can0 024#020301F7620D8018
(1676418032.091298) can0 2C4#039100230880212E
(1676418032.093570) can0 0B0#000000001102
(1676418032.096103) can0 0B2#000000001102
(1676418032.096118) can0 224#0000000000000008
(1676418032.097058) can0 235#00000000003D
(1676418032.099243) can0 2C1#08011D003BC800F4
(1676418032.099253) can0 020#000007
(1676418032.099553) can0 0B4#000000002C0000E8
(1676418032.100627) can0 025#0F8F0FC378787805
(1676418032.102649) can0 024#020301F7620D8018
(1676418032.104906) can0 0B0#000000001103
(1676418032.106215) can0 0B2#000000001103
(1676418032.106227) can0 223#000000000000002D
(1676418032.108583) can0 260#0E00000000000078
(1676418032.110830) can0 020#000007
(1676418032.113044) can0 0B4#000000002C0000E8
(1676418032.113061) can0 025#0F8F0FC378787805
(1676418032.113559) can0 3A0#0053000000000038
(1676418032.115804) can0 3B7#0000800000000000
(1676418032.115818) can0 024#020301F6620E8018
(1676418032.116520) can0 2C4#0396002308802133
(1676418032.117420) can0 442#4002000000000000
(1676418032.118768) can0 0B0#000000001104
(1676418032.121026) can0 0B2#000000001104
(1676418032.123867) can0 224#0000000000000008
(1676418032.123869) can0 235#00000000003D
(1676418032.123870) can0 2D0#06D40900100000CD
(1676418032.123874) can0 38A#0800040000
(1676418032.123876) can0 020#000007
(1676418032.123877) can0 0B4#000000002C0000E8
(1676418032.125607) can0 024#020301F7620E8019
(1676418032.125621) can0 025#0F8F0FC382828223
(1676418032.128731) can0 260#0E00000000000078
(1676418032.129645) can0 2C1#0801190040C800F5
(1676418032.129664) can0 0B0#000000001105
(1676418032.131313) can0 0B2#000000001105
(1676418032.132849) can0 223#000000000000002D
(1676418032.135416) can0 020#000007
(1676418032.136582) can0 0B4#000000002C0000E8
(1676418032.136594) can0 024#020301F6620D8017
(1676418032.137703) can0 025#0F8F0FC378787805
(1676418032.139189) can0 2C4#0398002308802135
(1676418032.141657) can0 4C7#0800012100000000
(1676418032.141691) can0 0B0#000000001106
(1676418032.143347) can0 0B2#000000001106
(1676418032.145441) can0 224#0000000000000008
(1676418032.148243) can0 235#00000000003D
(1676418032.148333) can0 260#0E00000000000078
(1676418032.148335) can0 351#00000000
(1676418032.148337) can0 020#000007
(1676418032.148896) can0 0B4#000000002C0000E8
(1676418032.148898) can0 025#0F8F0FC378787805
(1676418032.149877) can0 024#020301F6620D8017
(1676418032.153267) can0 2D0#06D90900100000D2
(1676418032.153280) can0 0B0#000000001107
(1676418032.155497) can0 0B2#000000001107
(1676418032.157854) can0 223#000000000000002D
(1676418032.159185) can0 4C3#0300120100000000
(1676418032.159203) can0 020#000007
(1676418032.162198) can0 0B4#000000002C0000E8
(1676418032.162200) can0 025#0F8F0FC378787805
(1676418032.162201) can0 2C1#080101003CC800D9
(1676418032.163657) can0 024#020301F6620F8019
(1676418032.163659) can0 2C4#0398002308802135
(1676418032.165696) can0 0B0#000000001108
(1676418032.166460) can0 0B2#000000001108
(1676418032.168270) can0 224#0000000000000008
(1676418032.170920) can0 235#00000000003D
(1676418032.170933) can0 260#0E00000000000078
(1676418032.171629) can0 020#000007
(1676418032.173157) can0 0B4#000000002C0000E8
(1676418032.177205) can0 024#020301F6620E8018
(1676418032.177207) can0 025#0F8F0FC378787805
(1676418032.177650) can0 0B0#000000001109
(1676418032.179378) can0 0B2#000000001109
(1676418032.181036) can0 223#000000000000002D
(1676418032.181051) can0 2D0#06DE0900100000D7
(1676418032.183308) can0 020#000007
(1676418032.183871) can0 0B4#000000002C0000E8
(1676418032.184391) can0 2C4#039E00230880213B
(1676418032.185549) can0 024#020301F6620D8017
(1676418032.187526) can0 025#0F8F0FC378787805
(1676418032.189662) can0 260#0E00000000000078
(1676418032.189666) can0 0B0#00000000110A
(1676418032.191463) can0 0B2#00000000110A
(1676418032.193330) can0 224#0000000000000008
(1676418032.195862) can0 235#00000000003D
(1676418032.195886) can0 2C1#080108003BC800DF
(1676418032.195889) can0 020#000007
(1676418032.196739) can0 0B4#000000002C0000E8
(1676418032.198443) can0 025#0F8F0FC378787805
(1676418032.201049) can0 024#020301F7620D8018
(1676418032.201063) can0 0B0#00000000110B
(1676418032.201777) can0 0B2#00000000110B
(1676418032.203067) can0 223#000000000000002D
(1676418032.206762) can0 260#0E00000000000078
(1676418032.206979) can0 610#20000064C0FFFEE0
(1676418032.206989) can0 351#00000000
(1676418032.206999) can0 2C4#0399002308802136
(1676418032.207916) can0 020#000007
(1676418032.208651) can0 0B4#000000002C0000E8
(1676418032.211044) can0 025#0F8F0FC378787805
(1676418032.211058) can0 024#020301F7620E8019
(1676418032.212959) can0 620#10000259F0402040
(1676418032.215089) can0 3A0#0054000000000038
(1676418032.217870) can0 2D0#06E50900100000DE
(1676418032.217878) can0 0B0#00000000110C
(1676418032.217880) can0 0B2#00000000110C
(1676418032.217881) can0 224#0000000000000008
(1676418032.219482) can0 235#00000000003D
(1676418032.219486) can0 440#4202000001000000
(1676418032.221055) can0 020#000007
(1676418032.223323) can0 0B4#000000002C0000E8
(1676418032.225079) can0 024#020301F5620E8017
(1676418032.225098) can0 025#0F8F0FC378787805
(1676418032.226090) can0 2C1#080104003DC800DD
(1676418032.227715) can0 0B0#00000000110D
(1676418032.230765) can0 0B2#00000000110D
(1676418032.230788) can0 223#000000000000002D
(1676418032.230790) can0 260#0E00000000000078
(1676418032.230792) can0 4C8#0900010200000000
(1676418032.232236) can0 2C4#03A000230880213D
(1676418032.232585) can0 020#000007
(1676418032.234209) can0 0B4#000000002C0000E8
(1676418032.237016) can0 025#0F8F0FC378787805
(1676418032.237804) can0 024#020201F6620E8017
(1676418032.237830) can0 0B0#00000000110E
(1676418032.239573) can0 0B2#00000000110E
(1676418032.241733) can0 224#0000000000000008
(1676418032.244576) can0 235#00000000003D
(1676418032.244578) can0 020#000007
(1676418032.244581) can0 0B4#000000002C0000E8
(1676418032.245603) can0 025#0F8F0FC378787805
(1676418032.245605) can0 024#020301F7620E8019
(1676418032.246854) can0 2D0#06EA0900100000E3
(1676418032.248276) can0 260#0E00000000000078
(1676418032.250035) can0 0B0#00000000110F
(1676418032.251337) can0 0B2#00000000110F
(1676418032.254072) can0 223#000000000000002D
(1676418032.254081) can0 2C4#039D00230880213A
(1676418032.255695) can0 2C1#0800FC003AC700D0
(1676418032.257680) can0 020#000007
(1676418032.257706) can0 0B4#000000002C0000E8
(1676418032.259616) can0 025#0F8F0FC378787805
(1676418032.261397) can0 024#020301F7620D8018
(1676418032.261410) can0 0B0#000000001100
(1676418032.261984) can0 0B2#000000001100
(1676418032.261995) can0 224#0000000000000008
(1676418032.263393) can0 235#00000000003D
(1676418032.266037) can0 260#0E00000000000078
(1676418032.266521) can0 351#00000000
(1676418032.267549) can0 020#000007
(1676418032.268070) can0 0B4#000000002C0000E8
(1676418032.269645) can0 024#020301F6620D8017
(1676418032.270864) can0 025#0F8F0FC378787805
(1676418032.273966) can0 0B0#000000001101
(1676418032.275270) can0 0B2#000000001101
(1676418032.277382) can0 223#000000000000002D
(1676418032.277394) can0 2D0#06EE0900100000E7
(1676418032.280870) can0 2C4#03A100230880213E
(1676418032.280880) can0 020#000007
(1676418032.282843) can0 0B4#000000002C0000E8
(1676418032.285170) can0 025#0F8F0FC378787805
(1676418032.285186) can0 024#020301F6620E8018
(1676418032.286535) can0 260#0E00000000000078
(1676418032.289505) can0 0B0#000000001102
(1676418032.289506) can0 0B2#000000001102
(1676418032.289508) can0 224#0000000000000008
(1676418032.289511) can0 235#00000000003D
(1676418032.289513) can0 2C1#0801150041C800F2
(1676418032.293424) can0 020#000007
(1676418032.295098) can0 0B4#000000002C0000E8
(1676418032.296414) can0 025#0F8F0FC378787805
(1676418032.297723) can0 024#020301F7620E8019
(1676418032.297745) can0 0B0#000000001103
(1676418032.299639) can0 0B2#000000001103
(1676418032.301668) can0 223#000000000000002D
(1676418032.301682) can0 2C4#03A4002308802141
(1676418032.304080) can0 020#000007
(1676418032.304092) can0 0B4#000000002C0000E8
(1676418032.305441) can0 025#0F8F0FC378787805
(1676418032.305445) can0 024#020301F7620D8018
(1676418032.306885) can0 260#0E00000000000078
(1676418032.309160) can0 442#4002000000000000
(1676418032.309193) can0 2D0#06F20900100000EB
(1676418032.310411) can0 0B0#000000001104
(1676418032.313577) can0 0B2#000000001104
(1676418032.313586) can0 224#0000000000000008
(1676418032.313588) can0 235#00000000003D
(1676418032.315946) can0 3A0#0054000000000038
(1676418032.317085) can0 020#000007
(1676418032.318725) can0 0B4#000000002C0000E8
(1676418032.318739) can0 025#0F8F0FC378787805
(1676418032.319974) can0 024#020301F7620D8018
(1676418032.321770) can0 2C1#080108003FC800E3
(1676418032.321783) can0 0B0#000000001105
(1676418032.322997) can0 0B2#000000001105
(1676418032.326190) can0 223#000000000000002D
(1676418032.326194) can0 2C4#03A4002308802141
(1676418032.327247) can0 260#0E00000000000078
(1676418032.327998) can0 611#210010A0000282AA
(1676418032.329389) can0 351#00000000
(1676418032.329397) can0 020#000007
(1676418032.331578) can0 0B4#000000002C0000E8
(1676418032.333520) can0 025#0F8F0FC378787805
(1676418032.334876) can0 024#020301F6620E8018
(1676418032.337665) can0 0B0#000000001106
(1676418032.337680) can0 0B2#000000001106
(1676418032.337682) can0 224#0000000000000008
(1676418032.337683) can0 235#00000000003D
(1676418032.340198) can0 621#1100000000000000
(1676418032.340230) can0 020#000007
(1676418032.341628) can0 0B4#000000002C0000E8
(1676418032.343836) can0 025#0F8F0FC378787805
(1676418032.343850) can0 024#020301F6620E8018
(1676418032.345189) can0 2D0#06F60900100000EF
(1676418032.346819) can0 394#00
(1676418032.349834) can0 260#0E00000000000078
(1676418032.349857) can0 0B0#000000001107
(1676418032.349860) can0 0B2#000000001107
(1676418032.349862) can0 223#000000000000002D
(1676418032.351010) can0 2C4#03A9002308802146
(1676418032.352244) can0 2C1#080102003BC800D9
(1676418032.352348) can0 020#000007
(1676418032.353394) can0 0B4#000000002C0000E8
(1676418032.355739) can0 025#0F8F0FC378787805
(1676418032.358460) can0 024#020201F6620E8017
(1676418032.360018) can0 0B0#000000001108
(1676418032.360030) can0 0B2#000000001108
(1676418032.360214) can0 224#0000000000000008
(1676418032.360215) can0 235#00000000003D
(1676418032.365268) can0 020#000007
(1676418032.365298) can0 0B4#000000002C0000E8
(1676418032.365317) can0 025#0F8F0FC378787805
(1676418032.365714) can0 024#020201F7620E7F17
(1676418032.367250) can0 260#0E00000000000078
(1676418032.370186) can0 0B0#000000001109
(1676418032.370201) can0 0B2#000000001109
(1676418032.372063) can0 223#000000000000002D
(1676418032.372088) can0 2D0#06FC0900100000F5
(1676418032.372107) can0 2C4#03AB002308802148
(1676418032.376483) can0 020#000007
(1676418032.376500) can0 0B4#000000002C0000E8
(1676418032.376513) can0 024#020201F7620E7F17
(1676418032.377954) can0 025#0F8F0FC382828223
(1676418032.383015) can0 2C1#0801000039C800D5
(1676418032.383036) can0 0B0#00000000110A
(1676418032.383440) can0 0B2#00000000110A
(1676418032.385413) can0 224#0000000000000008
(1676418032.386069) can0 235#00000000003D
(1676418032.386887) can0 260#0E00000000000078
(1676418032.388105) can0 351#00000000
(1676418032.388484) can0 020#000007
(1676418032.389555) can0 0B4#000000002C0000E8
(1676418032.391611) can0 024#020301F6620E8018
(1676418032.394733) can0 025#0F8F0FC378787805
(1676418032.394740) can0 0B0#00000000110B
(1676418032.395675) can0 0B2#00000000110B
(1676418032.397314) can0 223#000000000000002D
(1676418032.399021) can0 2C4#03AD00230880214A
(1676418032.400040) can0 020#000007
(1676418032.401388) can0 0B4#000000002C0000E8
(1676418032.401403) can0 025#0F8F0FC378787805
(1676418032.403178) can0 024#020301F7620E8019
(1676418032.403192) can0 2D0#07020900100000FC
(1676418032.405776) can0 3B3#03AB28
(1676418032.406755) can0 440#4202000001000000
(1676418032.408935) can0 260#0E00000000000078
(1676418032.410623) can0 0B0#00000000110C
(1676418032.410637) can0 0B2#00000000110C
(1676418032.412129) can0 224#0000000000000008
(1676418032.413424) can0 235#00000000003D
(1676418032.415373) can0 4C1#0100090000000000
(1676418032.416790) can0 3A0#0054000000000038
(1676418032.420560) can0 020#000007
(1676418032.421556) can0 0B4#000000002C0000E8
(1676418032.421559) can0 3B7#0000800000000000
(1676418032.421561) can0 025#0F8F0FC378787805
(1676418032.422447) can0 024#020301F7620E8019
(1676418032.422450) can0 2C1#0800FB0038C700CD
(1676418032.422452) can0 0B0#00000000110D
(1676418032.425549) can0 0B2#00000000110D
(1676418032.425553) can0 223#000000000000002D
(1676418032.425556) can0 2C4#03AA002308802147
(1676418032.426231) can0 020#000007
(1676418032.427723) can0 0B4#000000002C0000E8
(1676418032.430026) can0 025#0F8F0FC378787805
(1676418032.431269) can0 024#020301F7620E8019
(1676418032.434526) can0 260#0E00000000000078
(1676418032.434548) can0 0B0#00000000110E
(1676418032.434550) can0 0B2#00000000110E
(1676418032.434553) can0 224#0000000000000008
(1676418032.435423) can0 235#00000000003D
(1676418032.436805) can0 2D0#0706090010000000
(1676418032.437257) can0 020#000007
(1676418032.438682) can0 0B4#000000002C0000E8
(1676418032.441483) can0 024#020301F6620E8018
(1676418032.442358) can0 025#0F8F0FC378787805
(1676418032.442905) can0 4DD#1E00000100000000
(1676418032.448017) can0 0B0#00000000110F
(1676418032.448028) can0 0B2#00000000110F
(1676418032.448031) can0 223#000000000000002D
(1676418032.448034) can0 2C4#03A9002308802146
(1676418032.448262) can0 260#0E00000000000078
(1676418032.448266) can0 2C1#0800F5002EC700BD
(1676418032.448268) can0 351#00000000
(1676418032.451163) can0 020#000007
(1676418032.452410) can0 0B4#000000002C0000E8
(1676418032.452429) can0 025#0F8F0FC378787805
(1676418032.454358) can0 024#020301F7620E8019
(1676418032.455804) can0 4C6#0700010000000000
(1676418032.457454) can0 0B0#000000001100
(1676418032.460852) can0 0B2#000000001100
(1676418032.460872) can0 224#0000000000000008
(1676418032.460875) can0 235#00000000003D
(1676418032.461882) can0 020#000007
(1676418032.464268) can0 0B4#000000002C0000E8
(1676418032.465951) can0 025#0F8F0FC378787805
(1676418032.465965) can0 3B4#0000ACB080000000
(1676418032.467735) can0 024#020301F7620D8018
(1676418032.469852) can0 260#0E00000000000078
(1676418032.471117) can0 2C4#03A9002308802146
(1676418032.473173) can0 0B0#000000001101
(1676418032.476180) can0 0B2#000000001101
(1676418032.476182) can0 223#000000000000002D
(1676418032.476184) can0 2D0#070C090010000006
(1676418032.476188) can0 020#000007
(1676418032.476190) can0 0B4#000000002C0000E8
(1676418032.476191) can0 025#0F8F0FC378787805
(1676418032.477809) can0 024#020301F7620D8018
(1676418032.479155) can0 2C1#0800F4002CC700BA
(1676418032.480554) can0 0B0#000000001102
(1676418032.482560) can0 0B2#000000001102
(1676418032.484327) can0 224#0000000000000008
(1676418032.484341) can0 235#00000000003D
(1676418032.486211) can0 020#000007
(1676418032.488972) can0 0B4#000000002C0000E8
(1676418032.488979) can0 024#020301F6620D8017
(1676418032.488981) can0 025#0F8F0FC378787805
(1676418032.488984) can0 260#0E00000000000078
(1676418032.491199) can0 2C4#03AE00230880214B
(1676418032.492504) can0 0B0#000000001103
(1676418032.493650) can0 0B2#000000001103
(1676418032.496315) can0 223#000000000000002D
(1676418032.496332) can0 020#000007
(1676418032.497027) can0 0B4#000000002C0000E8
(1676418032.497047) can0 025#0F8F0FC378787805
(1676418032.499469) can0 024#020301F6620E8018
(1676418032.499473) can0 2D0#070F090010000009
(1676418032.503426) can0 0B0#000000001104
(1676418032.503448) can0 0B2#000000001104
(1676418032.504428) can0 224#0000000000000008
(1676418032.505829) can0 235#00000000003D
(1676418032.505839) can0 442#4002000000000000
(1676418032.508623) can0 260#0E00000000000078
(1676418032.508639) can0 351#00000000
(1676418032.509667) can0 020#000007
(1676418032.510908) can0 0B4#000000002C0000E8
(1676418032.512480) can0 025#0F8F0FC378787805
(1676418032.515950) can0 2C1#0800F3002EC700BB
(1676418032.515952) can0 024#020301F6620E8018
(1676418032.515956) can0 620#10000259F0402040
(1676418032.515961) can0 3A0#0054000000000037
(1676418032.515964) can0 2C4#03B000230880214D
(1676418032.515966) can0 0B0#000000001105
(1676418032.517958) can0 0B2#000000001105
(1676418032.517960) can0 223#000000000000002D
(1676418032.521240) can0 020#000007
(1676418032.521589) can0 0B4#000000002C0000E8
(1676418032.522848) can0 025#0F8F0FC378787805
(1676418032.526283) can0 024#020201F7620D7F16
(1676418032.526292) can0 260#0E00000000000078
(1676418032.526819) can0 0B0#000000001106
(1676418032.529865) can0 0B2#000000001106
(1676418032.529868) can0 224#0000000000000008
(1676418032.529870) can0 235#00000000003D
(1676418032.530926) can0 2D0#070F090010000009
(1676418032.532702) can0 020#000007
